'dctran test 
#Time       iter(0)    v(1)       v(2)       v(3)       control(0)
 0.         3.         0.         0.         0.         1.        
 0.001      4.         1.         975.61u    999.u      9.        
 83.333u    4.         1.         83.326u    83.326u    16.       
 6.9444u    4.         1.         6.9444u    6.9444u    16.       
 578.7n     4.         1.         578.7n     578.7n     16.       
 48.225n    4.         1.         48.225n    48.225n    16.       
 4.0188n    4.         1.         4.0188n    4.0188n    16.       
 334.9p     4.         1.         334.9p     334.9p     16.       
 167.45p    4.         1.         167.45p    167.45p    16.       
 277.45p    4.         1.         277.45p    277.45p    6.        
 454.14p    4.         1.         454.14p    454.14p    6.        
 630.83p    4.         1.         630.83p    630.83p    6.        
 807.53p    4.         1.         807.53p    807.53p    6.        
 1.3647u    4.         1.         1.3647u    1.3647u    6.        
 13.65u     4.         1.         13.649u    13.649u    6.        
 0.0012793  4.         1.         0.0012785  0.0012785  6.        
 0.011151   4.         1.         0.01109    0.01109    6.        
 0.1        4.         1.         0.095216   0.095216   1.        
 0.2        4.         1.         0.18139    0.18139    1.        
 0.3        4.         1.         0.25935    0.25935    1.        
 0.4        4.         1.         0.32989    0.32989    1.        
 0.5        4.         1.         0.39371    0.39371    1.        
 0.6        4.         1.         0.45145    0.45145    1.        
 0.7        4.         1.         0.50369    0.50369    1.        
 0.8        4.         1.         0.55096    0.55096    1.        
 0.9        4.         1.         0.59373    0.59372    1.        
 1.         4.         1.         0.63242    0.63242    1.        
#Freq       v(1)       v(2)       v(3)      
 0.001      1.         0.99998    0.99998   
 0.01       1.         0.99803    0.99803   
 0.1        1.         0.84673    0.84673   
 1.         1.         0.15718    0.15718   
 10.        1.         0.015913   0.015913  
V1 ( 1 0 )  DC generator scale= 1.  AC  1.
L3 ( 1 2 )  DC  1.  AC  1.
R4 ( 2 0 )  DC  1.  AC  1.
R5 ( 1 3 )  DC  1.  AC  1.
C6 ( 3 0 )  DC  1.  AC  1.
Gnucap   System status
iterations: op=0, dc=0, tran=107, fourier=0, total=139
transient timesteps: accepted=20, rejected=7, total=27
nodes: user=3, subckt=0, model=0, total=3
dctran density=77.8%, ac density=77.8%
