# FIT as cubic 
v1 ( 2 0 )  DC  1.  AC  1.
e1 ( 3 0 2 0 ) fit( 0., 0.  1., 1.  4., 2.  9., 3.  16., 4.  25., 5. ) order=3 below= 0.
r3 ( 3 0 )  10.K
e2 ( 4 0 2 0 ) fit( 0., 0.  1., 1.  2., 4.  3., 9.  4., 16.  5., 25. ) order=3 above= 0.
r4 ( 4 0 )  10.K
#           v(2)       v(3)       v(4)      
 27.        1.         1.         1.        
#           v(2)       v(3)       v(4)      
-10.       -10.        0.        -6.0497    
-9.5       -9.5        0.        -5.7472    
-9.        -9.         0.        -5.4448    
-8.5       -8.5        0.        -5.1423    
-8.        -8.         0.        -4.8398    
-7.5       -7.5        0.        -4.5373    
-7.        -7.         0.        -4.2348    
-6.5       -6.5        0.        -3.9323    
-6.        -6.         0.        -3.6298    
-5.5       -5.5        0.        -3.3273    
-5.        -5.         0.        -3.0249    
-4.5       -4.5        0.        -2.7224    
-4.        -4.         0.        -2.4199    
-3.5       -3.5        0.        -2.1174    
-3.        -3.         0.        -1.8149    
-2.5       -2.5        0.        -1.5124    
-2.        -2.         0.        -1.2099    
-1.5       -1.5        0.        -0.90746   
-1.        -1.         0.        -0.60497   
-0.5       -0.5        0.        -0.30249   
 0.         0.         0.         0.        
 0.5        0.5        0.34355    0.35186   
 1.         1.         1.         1.        
 1.5        1.5        1.5095     2.1944    
 2.         2.         1.8183     4.        
 2.5        2.5        1.974      6.3705    
 3.         3.         2.0244     9.        
 3.5        3.5        2.0172     11.824    
 4.         4.         2.         16.       
 4.5        4.5        2.0118     21.835    
 5.         5.         2.0564     25.       
 5.5        5.5        2.1288     25.       
 6.         6.         2.2242     25.       
 6.5        6.5        2.3375     25.       
 7.         7.         2.4638     25.       
 7.5        7.5        2.5981     25.       
 8.         8.         2.7356     25.       
 8.5        8.5        2.8712     25.       
 9.         9.         3.         25.       
 9.5        9.5        3.118      25.       
 10.        10.        3.2252     25.       
#           v(2)       v(3)       v(4)      
 1.         1.         1.         1.        
 1.5849     1.5849     1.5748     2.4574    
 2.5119     2.5119     1.9763     6.4315    
 3.9811     3.9811     2.0003     15.8      
 6.3096     6.3096     2.2925     25.       
 10.        10.        3.2252     25.       
 15.849     15.849     3.9852     25.       
 25.119     25.119     5.014      25.       
 39.811     39.811     6.7419     25.       
 63.096     63.096     9.4804     25.       
 100.       100.       13.821     25.       
 158.49     158.49     20.699     25.       
 251.19     251.19     31.602     25.       
 398.11     398.11     48.88      25.       
 630.96     630.96     76.265     25.       
 1.K        1.K        119.67     25.       
#           v(2)       v(3)       v(4)      
 16.        16.        4.         25.       
 20.5       20.5       4.4781     25.       
 25.        25.        5.         25.       
 29.5       29.5       5.5292     25.       
 34.        34.        6.0585     25.       
 38.5       38.5       6.5877     25.       
 43.        43.        7.1169     25.       
 47.5       47.5       7.6462     25.       
 52.        52.        8.1754     25.       
 56.5       56.5       8.7047     25.       
 61.        61.        9.2339     25.       
 65.5       65.5       9.7631     25.       
