# HSPICE style PWL 
v1 ( 1 0 )  DC  1.  AC  1.
r1 ( 1 2 )  1.K
r2 ( 2 0 )  1.K
e1 ( 3 0 2 0 ) pwl( 0., 0.  1., 1.  4., 2.  9., 3.  16., 4.  25., 5. )
r3 ( 3 0 )  10.K
g1 ( 4 0 2 0 ) pwl( 0., 0.  1., 1.  4., 2.  9., 3.  16., 4.  25., 5. )
r4 ( 4 0 )  10.K
#           v(1)       v(2)       v(3)       v(4)      
 27.        1.         0.5        0.5       -5.K       
#           v(1)       v(2)       v(3)       v(4)      
-10.       -10.       -5.        -5.         50.K      
-9.        -9.        -4.5       -4.5        45.K      
-8.        -8.        -4.        -4.         40.K      
-7.        -7.        -3.5       -3.5        35.K      
-6.        -6.        -3.        -3.         30.K      
-5.        -5.        -2.5       -2.5        25.K      
-4.        -4.        -2.        -2.         20.K      
-3.        -3.        -1.5       -1.5        15.K      
-2.        -2.        -1.        -1.         10.K      
-1.        -1.        -0.5       -0.5        5.K       
 0.         0.         0.         0.         0.        
 1.         1.         0.5        0.5       -5.K       
 2.         2.         1.         1.        -10.K      
 3.         3.         1.5        1.1667    -11.667K   
 4.         4.         2.         1.3333    -13.333K   
 5.         5.         2.5        1.5       -15.K      
 6.         6.         3.         1.6667    -16.667K   
 7.         7.         3.5        1.8333    -18.333K   
 8.         8.         4.         2.        -20.K      
 9.         9.         4.5        2.1       -21.K      
 10.        10.        5.         2.2       -22.K      
#           v(1)       v(2)       v(3)       v(4)      
 1.         1.         0.5        0.5       -5.K       
 1.5849     1.5849     0.79245    0.79245   -7.9245K   
 2.5119     2.5119     1.2559     1.0853    -10.853K   
 3.9811     3.9811     1.9905     1.3302    -13.302K   
 6.3096     6.3096     3.1548     1.7183    -17.183K   
 10.        10.        5.         2.2       -22.K      
 15.849     15.849     7.9245     2.7849    -27.849K   
 25.119     25.119     12.559     3.5085    -35.085K   
 39.811     39.811     19.905     4.4339    -44.339K   
 63.096     63.096     31.548     5.7275    -57.275K   
 100.       100.       50.        7.7778    -77.778K   
#           v(1)       v(2)       v(3)       v(4)      
 32.        32.        16.        4.        -40.K      
 41.        41.        20.5       4.5       -45.K      
 50.        50.        25.        5.        -50.K      
 59.        59.        29.5       5.5       -55.K      
 68.        68.        34.        6.        -60.K      
