' sin test 
#Time       v(1)       next(V1)   event(V1) 
 0.         0.         0.         2.5n      
 200.p      0.12533    468.8p     2.5n      
 400.p      0.24869    729.21p    2.5n      
 726.67p    0.44088    1.826n     2.5n      
 1.7974n    0.90413    3.0589n    2.5n      
 2.5n       1.         4.0283n    5.n       
 3.9583n    0.60876    6.3909n    5.n       
 5.n        0.         6.5514n    7.5n      
 6.0417n   -0.60876    7.5229n    7.5n      
 7.5n      -1.         9.352n     10.n      
 8.9583n   -0.60876    12.661n    10.n      
 10.n       0.         11.627n    12.5n     
 11.429n    0.78183    13.127n    12.5n     
 12.5n      1.         14.656n    15.n      
 14.375n    0.38268    16.557n    15.n      
 15.n       0.         16.416n    17.5n     
 16.25n    -0.70711    17.938n    17.5n     
 17.5n     -1.         19.92n     20.n      
 18.75n    -0.70711    20.849n    20.n      
 20.n       0.         21.641n    22.5n     
V1 ( 1 0 ) sin offset= 0. amplitude= 1. frequency= 100.Meg delay=NA( 0.) damping=NA( 0.) samples= 0. zero=1 peak=1
Gnucap   System status
iterations: op=0, dc=0, tran=59, fourier=0, total=79
transient timesteps: accepted=20, rejected=0, total=20
nodes: user=1, subckt=0, model=0, total=1
dctran density=100.0%, ac density=100.0%
