# TABLE as cubic 
v1 ( 2 0 )  DC  1.  AC  1.
e1 ( 3 0 2 0 ) t1
r3 ( 3 0 )  10.K
e2 ( 4 0 2 0 ) t2
r4 ( 4 0 )  10.K
.model t1 table ( order=3 ( 0., 0.  1., 1.  4., 2.  9., 3.  16., 4.  25., 5. ))
.model t2 table ( order=3 ( 0., 0.  1., 1.  2., 4.  3., 9.  4., 16.  5., 25. ))
#           v(2)       v(3)       v(4)      
 27.        1.         1.         1.        
#           v(2)       v(3)       v(4)      
-10.       -10.       -10.868    -5.7895    
-9.5       -9.5       -10.325    -5.5       
-9.        -9.        -9.7814    -5.2105    
-8.5       -8.5       -9.2379    -4.9211    
-8.        -8.        -8.6945    -4.6316    
-7.5       -7.5       -8.1511    -4.3421    
-7.        -7.        -7.6077    -4.0526    
-6.5       -6.5       -7.0643    -3.7632    
-6.        -6.        -6.5209    -3.4737    
-5.5       -5.5       -5.9775    -3.1842    
-5.        -5.        -5.4341    -2.8947    
-4.5       -4.5       -4.8907    -2.6053    
-4.        -4.        -4.3473    -2.3158    
-3.5       -3.5       -3.8039    -2.0263    
-3.        -3.        -3.2605    -1.7368    
-2.5       -2.5       -2.717     -1.4474    
-2.        -2.        -2.1736    -1.1579    
-1.5       -1.5       -1.6302    -0.86842   
-1.        -1.        -1.0868    -0.57895   
-0.5       -0.5       -0.54341   -0.28947   
 0.         0.         0.         0.        
 0.5        0.5        0.53256    0.34211   
 1.         1.         1.         1.        
 1.5        1.5        1.3521     2.2237    
 2.         2.         1.598      4.        
 2.5        2.5        1.7617     6.2632    
 3.         3.         1.8672     9.        
 3.5        3.5        1.9387     12.224    
 4.         4.         2.         16.       
 4.5        4.5        2.0709     20.342    
 5.         5.         2.1538     25.       
 5.5        5.5        2.2465     29.711    
 6.         6.         2.347      34.421    
 6.5        6.5        2.4532     39.132    
 7.         7.         2.5633     43.842    
 7.5        7.5        2.675      48.553    
 8.         8.         2.7864     53.263    
 8.5        8.5        2.8954     57.974    
 9.         9.         3.         62.684    
 9.5        9.5        3.0986     67.395    
 10.        10.        3.1911     72.105    
#           v(2)       v(3)       v(4)      
 1.         1.         1.         1.        
 1.5849     1.5849     1.4006     2.4885    
 2.5119     2.5119     1.7647     6.3227    
 3.9811     3.9811     1.9976     15.846    
 6.3096     6.3096     2.4122     37.338    
 10.        10.        3.1911     72.105    
 15.849     15.849     3.9831     127.21    
 25.119     25.119     5.0132     214.54    
 39.811     39.811     6.6388     352.95    
 63.096     63.096     9.2153     572.32    
 100.       100.       13.299     920.      
 158.49     158.49     19.771     1.471K    
 251.19     251.19     30.028     2.3444K   
 398.11     398.11     46.285     3.7285K   
 630.96     630.96     72.05      5.9222K   
 1.K        1.K        112.88     9.3989K   
#           v(2)       v(3)       v(4)      
 16.        16.        4.         128.63    
 20.5       20.5       4.5016     171.03    
 25.        25.        5.         213.42    
 29.5       29.5       5.4979     255.82    
 34.        34.        5.9959     298.21    
 38.5       38.5       6.4938     340.61    
 43.        43.        6.9917     383.      
 47.5       47.5       7.4896     425.39    
 52.        52.        7.9876     467.79    
 56.5       56.5       8.4855     510.18    
 61.        61.        8.9834     552.58    
 65.5       65.5       9.4813     594.97    
