' c_genrat -- generator transnient test 
freq= 0.  ampl= 1.  phase= 0.  max= 7.  min=-5.  offset= 100.  init= 2.  rise= 3.  fall= 2.  delay= 2.  width= 10.  period= 20.
#           v(1)       v(2)      
 27.        0.         0.        
#Time       v(1)       v(2)      
 0.         2.         4.        
 0.5        2.         4.        
 1.         2.         4.        
 50.        107.       214.      
#Time       v(1)       v(2)      
 0.         2.         4.        
 0.005      2.         4.        
 0.01       2.         4.        
 0.5        2.         4.        
 1.         2.         4.        
 1.5        2.         4.        
 2.         2.         4.        
 2.5        19.5       39.       
 3.         37.        74.       
 3.5        54.5       109.      
 4.         72.        144.      
 4.5        89.5       179.      
 5.         107.       214.      
 5.5        107.       214.      
 6.         107.       214.      
 6.5        107.       214.      
 7.         107.       214.      
 7.5        107.       214.      
 8.         107.       214.      
 8.5        107.       214.      
 9.         107.       214.      
 9.5        107.       214.      
 10.        107.       214.      
 10.5       107.       214.      
 11.        107.       214.      
 11.5       107.       214.      
 12.        107.       214.      
 12.5       107.       214.      
 13.        107.       214.      
 13.5       107.       214.      
 14.        107.       214.      
 14.5       107.       214.      
 15.        107.       214.      
 15.5       104.       208.      
 16.        101.       202.      
 16.5       98.        196.      
 17.        95.        190.      
 17.5       95.        190.      
 18.        95.        190.      
 18.5       95.        190.      
 19.        95.        190.      
 19.5       95.        190.      
 20.        95.        190.      
 20.5       95.        190.      
 21.        95.        190.      
 21.5       95.        190.      
 22.        95.        190.      
 22.5       97.        194.      
 23.        99.        198.      
 23.5       101.       202.      
 24.        103.       206.      
 24.5       105.       210.      
 25.        107.       214.      
 25.5       107.       214.      
 26.        107.       214.      
 26.5       107.       214.      
 27.        107.       214.      
 27.5       107.       214.      
 28.        107.       214.      
 28.5       107.       214.      
 29.        107.       214.      
 29.5       107.       214.      
 30.        107.       214.      
 30.5       107.       214.      
 31.        107.       214.      
 31.5       107.       214.      
 32.        107.       214.      
 32.5       107.       214.      
 33.        107.       214.      
 33.5       107.       214.      
 34.        107.       214.      
 34.5       107.       214.      
 35.        107.       214.      
 35.5       104.       208.      
 36.        101.       202.      
 36.5       98.        196.      
 37.        95.        190.      
 37.5       95.        190.      
 38.        95.        190.      
 38.5       95.        190.      
 39.        95.        190.      
 39.5       95.        190.      
 40.        95.        190.      
 40.5       95.        190.      
 41.        95.        190.      
 41.5       95.        190.      
 42.        95.        190.      
 42.5       97.        194.      
 43.        99.        198.      
 43.5       101.       202.      
 44.        103.       206.      
 44.5       105.       210.      
 45.        107.       214.      
 45.5       107.       214.      
 46.        107.       214.      
 46.5       107.       214.      
 47.        107.       214.      
 47.5       107.       214.      
 48.        107.       214.      
 48.5       107.       214.      
 49.        107.       214.      
 49.5       107.       214.      
 50.        107.       214.      
