difpair ckt - simple differential pair 
#           v(1)       v(2)       v(3)       v(4)       v(5)       v(6)      
+ v(7)       v(8)       v(9)      
 27.       -76.611p   -0.0076611 -0.0076611  5.2291     5.2291    -0.76997   
+-11.221     12.       -12.       
v(4)   0.                2.               4.                6.               8.
v(5)   0.                2.               4.                6.               8.
        +-----------------+----------------+-----------------+----------------+
 0.     |                 .                .          *      .                |
 10.n   |                 .                .         *+      .                |
 20.n   |                 .                .       *    +    .                |
 30.n   |                 .                .     *        +  .                |
 40.n   |                 .                .   *            +.                |
 50.n   |                 .                .*                . +              |
 60.n   |                 .               *.                 .   +            |
 70.n   |                 .             *  .                 .     +          |
 80.n   |                 .            *   .                 .       +        |
 90.n   |                 .           *    .                 .       +        |
 100.n  |                 .           *    .                 .       +        |
 110.n  |                 .             *  .                 .      +         |
 120.n  |                 .               *.                 .    +           |
 130.n  |                 .                . *               . +              |
 140.n  |                 .                .    *           +.                |
 150.n  |                 .                .       *     +   .                |
 160.n  |                 .                .          *      .                |
 170.n  |                 .                .       +    *    .                |
 180.n  |                 .                .     +         * .                |
 190.n  |                 .                .    +           *.                |
 200.n  |                 .                .   +            *.                |
 210.n  |                 .                .    +          * .                |
 220.n  |                 .                .      +      *   .                |
 230.n  |                 .                .         +*      .                |
 240.n  |                 .                .        *  +     .                |
 250.n  |                 .                .     *        +  .                |
 260.n  |                 .                .   *            +.                |
 270.n  |                 .                . *               .+               |
 280.n  |                 .                *                 .  +             |
 290.n  |                 .               *.                 .   +            |
 300.n  |                 .               *.                 .    +           |
 310.n  |                 .                *                 .  +             |
 320.n  |                 .                .  *              .+               |
 330.n  |                 .                .    *          + .                |
 340.n  |                 .                .       *     +   .                |
 350.n  |                 .                .          *      .                |
 360.n  |                 .                .       +     *   .                |
 370.n  |                 .                .     +         * .                |
 380.n  |                 .                .   +             *                |
 390.n  |                 .                . +               .*               |
 400.n  |                 .                . +               .*               |
 410.n  |                 .                .  +              *                |
 420.n  |                 .                .    +          * .                |
 430.n  |                 .                .       +    *    .                |
 440.n  |                 .                .         +*      .                |
 450.n  |                 .                .       *    +    .                |
 460.n  |                 .                .    *          + .                |
 470.n  |                 .                .  *              +                |
 480.n  |                 .                .*                . +              |
 490.n  |                 .                *                 .  +             |
 500.n  |                 .                *                 .  +             |
        +-----------------+----------------+-----------------+----------------+
#Time       qcs(q1)    qcs(q2)    qcs(q3)    qcs(q4)    qcs(qnl)  
 0.        -104.58p   -104.58p    15.399p    224.42p    ??        
 10.n      -102.96p   -105.88p    15.058p    224.42p    ??        
 20.n      -98.97p    -109.48p    14.653p    224.42p    ??        
 30.n      -93.746p   -114.37p    14.273p    224.42p    ??        
 40.n      -88.211p   -119.69p    14.012p    224.42p    ??        
 50.n      -82.858p   -124.99p    13.912p    224.42p    ??        
 60.n      -77.939p   -130.05p    13.997p    224.42p    ??        
 70.n      -73.651p   -134.62p    14.248p    224.42p    ??        
 80.n      -70.343p   -138.33p    14.62p     224.42p    ??        
 90.n      -68.664p   -140.42p    15.027p    224.42p    ??        
 100.n     -69.401p   -140.03p    15.384p    224.42p    ??        
 110.n     -72.819p   -136.84p    15.637p    224.42p    ??        
 120.n     -78.315p   -131.46p    15.782p    224.42p    ??        
 130.n     -84.87p    -124.94p    15.849p    224.42p    ??        
 140.n     -91.707p   -118.11p    15.878p    224.42p    ??        
 150.n     -98.42p    -111.38p    15.889p    224.42p    ??        
 160.n     -104.8p    -104.97p    15.888p    224.42p    ??        
 170.n     -110.62p   -99.103p    15.869p    224.42p    ??        
 180.n     -115.5p    -94.15p     15.81p     224.42p    ??        
 190.n     -118.66p   -90.836p    15.669p    224.42p    ??        
 200.n     -119.2p    -90.036p    15.415p    224.42p    ??        
 210.n     -116.79p   -92.096p    15.056p    224.42p    ??        
 220.n     -112.06p   -96.429p    14.645p    224.42p    ??        
 230.n     -106.17p   -101.98p    14.267p    224.42p    ??        
 240.n     -100.p     -107.93p    14.003p    224.42p    ??        
 250.n     -94.059p   -113.82p    13.905p    224.42p    ??        
 260.n     -88.579p   -119.43p    13.989p    224.42p    ??        
 270.n     -83.755p   -124.55p    14.242p    224.42p    ??        
 280.n     -79.928p   -128.77p    14.615p    224.42p    ??        
 290.n     -77.744p   -131.36p    15.025p    224.42p    ??        
 300.n     -77.99p    -131.47p    15.384p    224.42p    ??        
#Time       ccs(q1)    ccs(q2)    ccs(q3)    ccs(q4)    ccs(qnl)  
 0.         20.p       20.p       20.p       20.p       ??        
 10.n       20.p       20.p       20.p       20.p       ??        
 20.n       20.p       20.p       20.p       20.p       ??        
 30.n       20.p       20.p       20.p       20.p       ??        
 40.n       20.p       20.p       20.p       20.p       ??        
 50.n       20.p       20.p       20.p       20.p       ??        
 60.n       20.p       20.p       20.p       20.p       ??        
 70.n       20.p       20.p       20.p       20.p       ??        
 80.n       20.p       20.p       20.p       20.p       ??        
 90.n       20.p       20.p       20.p       20.p       ??        
 100.n      20.p       20.p       20.p       20.p       ??        
 110.n      20.p       20.p       20.p       20.p       ??        
 120.n      20.p       20.p       20.p       20.p       ??        
 130.n      20.p       20.p       20.p       20.p       ??        
 140.n      20.p       20.p       20.p       20.p       ??        
 150.n      20.p       20.p       20.p       20.p       ??        
 160.n      20.p       20.p       20.p       20.p       ??        
 170.n      20.p       20.p       20.p       20.p       ??        
 180.n      20.p       20.p       20.p       20.p       ??        
 190.n      20.p       20.p       20.p       20.p       ??        
 200.n      20.p       20.p       20.p       20.p       ??        
 210.n      20.p       20.p       20.p       20.p       ??        
 220.n      20.p       20.p       20.p       20.p       ??        
 230.n      20.p       20.p       20.p       20.p       ??        
 240.n      20.p       20.p       20.p       20.p       ??        
 250.n      20.p       20.p       20.p       20.p       ??        
 260.n      20.p       20.p       20.p       20.p       ??        
 270.n      20.p       20.p       20.p       20.p       ??        
 280.n      20.p       20.p       20.p       20.p       ??        
 290.n      20.p       20.p       20.p       20.p       ??        
 300.n      20.p       20.p       20.p       20.p       ??        
#Time       vcs(q1)    vcs(q2)    vcs(q3)    vcs(q4)    vcs(qnl)  
 0.         5.2291     5.2291    -0.76997   -11.221     ??        
 10.n       5.1478     5.2939    -0.7529    -11.221     ??        
 20.n       4.9485     5.4741    -0.73263   -11.221     ??        
 30.n       4.6873     5.7183    -0.71367   -11.221     ??        
 40.n       4.4105     5.9844    -0.7006    -11.221     ??        
 50.n       4.1429     6.2497    -0.69559   -11.221     ??        
 60.n       3.897      6.5023    -0.69984   -11.221     ??        
 70.n       3.6825     6.7311    -0.71238   -11.221     ??        
 80.n       3.5171     6.9163    -0.73098   -11.221     ??        
 90.n       3.4332     7.0209    -0.75135   -11.221     ??        
 100.n      3.47       7.0015    -0.76919   -11.221     ??        
 110.n      3.641      6.8421    -0.78183   -11.221     ??        
 120.n      3.9157     6.5731    -0.78908   -11.221     ??        
 130.n      4.2435     6.2472    -0.79245   -11.221     ??        
 140.n      4.5854     5.9053    -0.79391   -11.221     ??        
 150.n      4.921      5.5689    -0.79446   -11.221     ??        
 160.n      5.2398     5.2487    -0.79442   -11.221     ??        
 170.n      5.5312     4.9552    -0.79345   -11.221     ??        
 180.n      5.7749     4.7075    -0.79049   -11.221     ??        
 190.n      5.9329     4.5418    -0.78347   -11.221     ??        
 200.n      5.9599     4.5018    -0.77076   -11.221     ??        
 210.n      5.8393     4.6048    -0.75279   -11.221     ??        
 220.n      5.6032     4.8214    -0.73226   -11.221     ??        
 230.n      5.3083     5.0992    -0.71334   -11.221     ??        
 240.n      5.0001     5.3966    -0.70015   -11.221     ??        
 250.n      4.703      5.6912    -0.69524   -11.221     ??        
 260.n      4.4289     5.9717    -0.69945   -11.221     ??        
 270.n      4.1877     6.2273    -0.71208   -11.221     ??        
 280.n      3.9964     6.4383    -0.73073   -11.221     ??        
 290.n      3.8872     6.5682    -0.75123   -11.221     ??        
 300.n      3.8995     6.5733    -0.76918   -11.221     ??        
