nmos n gate, linear, lambda not specified, short channel 
cmosn: rsh - rs - rd conflict: using rsh
cmosn: is - js conflict
#           v(1)       v(2)       v(3)       v(4)       iter(0)   
 27.        3.2367     0.0099729  0.01      -1.2349     5.        
#           i(Vgs)     i(Vds)     i(Vbs)     ps(Vgs)    ps(Vds)    ps(Vbs)   
 27.        0.        -27.101u    0.         0.         271.01n    0.        
#           id(M1)     vgs(M1)    vds(M1)    vbs(M1)    vth(M1)    vdsat(M1) 
 27.        27.101u    3.2367     0.0099729 -1.2349     0.75545    2.546     
#           gm(M1)     gds(M1)    gmb(M1)    cbd(M1)    cbs(M1)   
 27.        10.095u    0.0027122 -510.67n    0.         0.        
#           cgsovl(M1) cgdovl(M1) cgbovl(M1) cgate(M1)  region(M1)
 27.        1.9707f    1.9707f    0.         2.7499f    3.        
#           cgs(M1)    cgd(M1)    cgb(M1)    vgst(M1)   von(M1)   
 27.        1.3767f    1.3731f    0.         2.4813     0.75545   
#           cgst(M1)   cgdt(M1)   cgbt(M1)   is(M1)     ig(M1)     ib(M1)    
 27.        3.3475f    3.3439f    0.        -27.101u    0.         0.        
#           p(M1)      pd(M1)     ps(M1)     ids(M1)    idstray(M1) iderror(M1)
 27.        270.28n    270.28n    0.         27.101u    0.         ??        
#           vdm(M1)    vgm(M1)    vbm(M1)    vsm(M1)   
 27.        0.0049864  3.2317    -1.2399    -0.0049864 
#           vd(M1)     vg(M1)     vb(M1)     vs(M1)    
 27.        0.0099729  3.2367    -1.2349     0.        
#           v(1)       v(2)       v(3)       i(Vds)    
-10.       -10.        0.01       0.01       0.        
-9.        -9.         0.01       0.01       0.        
-8.        -8.         0.01       0.01       0.        
-7.        -7.         0.01       0.01       0.        
-6.        -6.         0.01       0.01       0.        
-5.        -5.         0.01       0.01       0.        
-4.        -4.         0.01       0.01       0.        
-3.        -3.         0.01       0.01       0.        
-2.        -2.         0.01       0.01       0.        
-1.        -1.         0.01       0.01      -458.39p   
 0.         0.         0.0099999  0.01      -55.195n   
 1.         1.         0.0099955  0.01      -4.5326u   
 2.         2.         0.0099854  0.01      -14.635u   
 3.         3.         0.0099753  0.01      -24.718u   
 4.         4.         0.0099652  0.01      -34.78u    
 5.         5.         0.0099552  0.01      -44.821u   
 6.         6.         0.0099452  0.01      -54.843u   
 7.         7.         0.0099352  0.01      -64.844u   
 8.         8.         0.0099252  0.01      -74.825u   
 9.         9.         0.0099152  0.01      -84.786u   
 10.        10.        0.0099053  0.01      -94.728u   
