.title mos7 inverter 
#          
 27.       
#           v(1)       v(2)       v(3)       v(4)       v(5)       v(6)       v(7)      
 0.         5.         0.         5.         4.656      5.         4.3833     5.        
 0.25       5.         0.25       5.         4.6379     5.         4.345      5.        
 0.5        5.         0.5        5.         4.6164     5.         4.2976     5.        
 0.75       5.         0.75       5.         4.5903     5.         4.237      4.9999    
 1.         5.         1.         4.9962     4.5534     4.9962     4.1551     4.9725    
 1.25       5.         1.25       4.9449     4.4416     4.9449     4.0333     4.6524    
 1.5        5.         1.5        4.8334     4.1831     4.8334     3.8079     4.1054    
 1.75       5.         1.75       4.6434     3.251      4.6434     3.3929     3.4404    
 2.         5.         2.         4.1824     1.5689     4.1824     2.9042     2.689     
 2.25       5.         2.25       0.50019    0.40069    0.50019    2.403      1.8867    
 2.5        5.         2.5        0.23364    0.21562    0.23364    1.9146     1.1001    
 2.75       5.         2.75       0.13874    0.13114    0.13874    1.4539     0.6237    
 3.         5.         3.         0.083035   0.079361   0.083035   1.033      0.47852   
 3.25       5.         3.25       0.046572   0.044802   0.046572   0.6636     0.4039    
 3.5        5.         3.5        0.022212   0.021459   0.022212   0.3558     0.35527   
 3.75       5.         3.75       0.0068481  0.0066359  0.0068481  0.12194    0.32024   
 4.         5.         4.         378.95u    368.u      378.95u    0.0073666  0.29353   
 4.25       5.         4.25       1.6913u    1.645u     1.6913u    34.874u    0.27237   
 4.5        5.         4.5        5.0867n    4.9542n    5.0867n    110.38n    0.25514   
 4.75       5.         4.75       1.2862n    1.2542n    1.2862n    29.232n    0.24081   
 5.         5.         5.         1.2259n    1.1967n    1.2259n    29.059n    0.22868   
#Time       v(1)       v(2)       v(3)       v(4)       v(5)       v(6)       v(7)      
 0.         5.         0.         5.         4.656      5.         4.3833     5.        
 100.p      5.        -1.945p     5.         4.656      5.         4.3834     5.        
 200.p      5.         1.956p     5.         4.656      5.         4.3832     5.        
 300.p      5.        -2.082p     5.         4.656      5.         4.3834     5.        
 400.p      5.         2.199p     5.         4.656      5.         4.3832     5.        
 500.p      5.        -2.351p     5.         4.656      5.         4.3834     5.        
 600.p      5.         2.519p     5.         4.656      5.         4.3832     5.        
 700.p      5.        -2.725p     5.         4.656      5.         4.3834     5.        
 800.p      5.         2.959p     5.         4.656      5.         4.3832     5.        
 900.p      5.        -3.241p     5.         4.656      5.         4.3835     5.        
 1.n        5.         3.566p     5.         4.656      5.         4.3831     5.        
 1.1n       5.         0.25       5.0191     4.6704     5.0008     4.3765     5.0403    
 1.2n       5.         0.5        5.008      4.6323     5.0014     4.3135     5.0186    
 1.3n       5.         0.75       5.0042     4.6157     5.002      4.2629     5.0276    
 1.4n       5.         1.         5.0048     4.5762     5.0023     4.1793     4.9983    
 1.5n       5.         1.25       4.9659     4.4848     5.         4.0713     4.723     
 1.6n       5.         1.5        4.8707     4.2568     4.9938     3.8495     4.1768    
 1.7n       5.         1.75       4.6937     3.5948     4.9741     3.4499     3.5264    
 1.8n       5.         2.         4.3615     2.0221     4.9433     2.9652     2.7752    
 1.9n       5.         2.25       2.3304     0.50855    4.8988     2.4676     1.9739    
 2.n        5.         2.5        0.33473    0.22497    4.8387     1.9798     1.1737    
 2.1n       5.         2.75       0.12112    0.15347    4.7633     1.5164     0.65184   
 2.2n       5.         3.         0.11836    0.085479   4.6694     1.0924     0.49274   
 2.3n       5.         3.25       0.039894   0.057951   4.5537     0.71795    0.41735   
 2.4n       5.         3.5        0.04363    0.026537   4.4145     0.40482    0.36424   
 2.5n       5.         3.75      -951.9u     0.016258   4.2479     0.16425    0.32939   
 2.6n       5.         4.         0.016258   0.0047953  4.0576     0.036661   0.30046   
 2.7n       5.         4.25      -0.005571   0.0077252  3.8449     0.021634   0.27955   
 2.8n       5.         4.5        0.0129     0.0043461  3.6114     0.025689   0.26095   
 2.9n       5.         4.75      -0.0039612  0.0067649  3.3564     0.022913   0.24685   
 3.n        5.         5.         0.010846   0.0041978  3.0798     0.024793   0.23379   
 3.1n       5.         5.        -0.010175  -0.003954   2.7925    -0.016797   0.22401   
 3.2n       5.         5.         0.0096217  0.003736   2.5072     0.011379   0.23301   
 3.3n       5.         5.        -0.0090286 -0.0035196  2.224     -0.0077091  0.22472   
 3.4n       5.         5.         0.0085344  0.0033251  1.9436     0.0052228  0.23236   
 3.5n       5.         5.        -0.008012  -0.003133   1.6669    -0.0035382  0.22532   
 3.6n       5.         5.         0.0075706  0.0029594  1.3961     0.0023971  0.2318    
 3.7n       5.         5.        -0.0071101 -0.0027889  1.1362    -0.0016239  0.22583   
 3.8n       5.         5.         0.0067163  0.0026341  0.89959    0.0023971  0.23133   
 3.9n       5.         5.        -0.0063101 -0.0024827  0.69158   -0.0029208  0.22626   
 4.n        5.         5.         0.0059589  0.0024074  0.51667    0.0019788  0.23093   
 4.1n       5.         5.        -0.0056002 -0.0024207  0.37597   -0.0029208  0.22626   
 4.2n       5.         5.         0.0052872  0.0026185  0.2674     0.0035591  0.2313    
 4.3n       5.         5.        -0.0049704 -0.002468   0.18664   -0.0024111  0.22629   
 4.4n       5.         5.         0.0046915  0.0023932  0.12837    0.0016335  0.2309    
 4.5n       5.         5.        -0.0044116 -0.0024064  0.087332  -0.0024111  0.22629   
 4.6n       5.         5.         0.0041632  0.002603   0.05894    0.002938   0.23126   
 4.7n       5.         5.        -0.0039156 -0.0023894  0.039555  -0.0019904  0.22632   
 4.8n       5.         5.         0.0036946  0.002603   0.026386   0.002938   0.23087   
 4.9n       5.         5.        -0.0034755 -0.0023894  0.017566  -0.0035799  0.22632   
 5.n        5.         5.         0.0032788  0.002603   0.011678   0.0024254  0.23123   
Gnucap   System status
iterations: op=9, dc=128, tran=406, fourier=0, total=598
transient timesteps: accepted=55, rejected=5, total=60
nodes: user=7, subckt=0, model=0, total=7
dctran density=59.2%, ac density=59.2%
