nmos n gate, linear, lambda specified 
cmosn: rsh - rs - rd conflict: using rsh
cmosn: is - js conflict
#           v(1)       v(2)       v(3)       v(4)       iter(0)   
 27.        3.2367     0.0099992  0.01      -1.2349     5.        
#           i(Vgs)     i(Vds)     i(Vbs)     ps(Vgs)    ps(Vds)    ps(Vbs)   
 27.        0.        -842.71n    0.         0.         8.4271n    0.        
#           id(M1)     vgs(M1)    vds(M1)    vbs(M1)    vth(M1)    vdsat(M1) 
 27.        842.71n    3.2367     0.0099992 -1.2349     1.5384     1.6452    
#           gm(M1)     gds(M1)    gmb(M1)    cbd(M1)    cbs(M1)   
 27.        441.96n    84.022u    136.98n    0.         0.        
#           cgsovl(M1) cgdovl(M1) cgbovl(M1) cgate(M1)  region(M1)
 27.        1.9707f    1.9707f    0.         62.973f    3.        
#           cgs(M1)    cgd(M1)    cgb(M1)    vgst(M1)   von(M1)   
 27.        31.551f    31.423f    0.         1.6984     1.5384    
#           cgst(M1)   cgdt(M1)   cgbt(M1)   is(M1)     ig(M1)     ib(M1)    
 27.        33.521f    33.393f    0.        -842.71n    0.         0.        
#           p(M1)      pd(M1)     ps(M1)     ids(M1)    idstray(M1) iderror(M1)
 27.        8.4264n    8.4264n    0.         842.71n    0.         ??        
#           vdm(M1)    vgm(M1)    vbm(M1)    vsm(M1)   
 27.        0.0049996  3.2317    -1.2399    -0.0049996 
#           vd(M1)     vg(M1)     vb(M1)     vs(M1)    
 27.        0.0099992  3.2367    -1.2349     0.        
#           v(1)       v(2)       v(3)       i(Vds)    
-10.       -10.        0.01       0.01       0.        
-9.        -9.         0.01       0.01       0.        
-8.        -8.         0.01       0.01       0.        
-7.        -7.         0.01       0.01       0.        
-6.        -6.         0.01       0.01       0.        
-5.        -5.         0.01       0.01       0.        
-4.        -4.         0.01       0.01       0.        
-3.        -3.         0.01       0.01       0.        
-2.        -2.         0.01       0.01       0.        
-1.        -1.         0.01       0.01       0.        
 0.         0.         0.01       0.01       0.        
 1.         1.         0.01       0.01      -7.461n    
 2.         2.         0.0099997  0.01      -296.14n   
 3.         3.         0.0099993  0.01      -738.09n   
 4.         4.         0.0099988  0.01      -1.18u     
 5.         5.         0.0099984  0.01      -1.6219u   
 6.         6.         0.0099979  0.01      -2.0637u   
 7.         7.         0.0099975  0.01      -2.5055u   
 8.         8.         0.0099971  0.01      -2.9473u   
 9.         9.         0.0099966  0.01      -3.389u    
 10.        10.        0.0099962  0.01      -3.8307u   
Vgs ( 1 0 )  DC  3.236734
M1 ( 2 1 0 4 )  cmosn  l=9.u w=9.u nrd=1. nrs=1.
Vds ( 3 0 )  DC  0.01
Rds ( 2 3 )  1.
Vbs ( 4 0 )  DC -1.234875
.model cmosn nmos3 ( level=3 kp=41.5964u nfs=3.5934E+12 theta=0. eta=0.
+ kappa=0.2 delta=0.36745 vto=0.844345 gamma=0.863074 phi=0.6 tox=41.8n
+ nsub=15.3142E+15 nss=1.E+12 xj=400.n uo=503.521 tpg=1 tnom=NA( 27.) fc=0.5
+ pb=0.7 cj=384.4u mj=0.4884 cjsw=527.2p mjsw=0.3002 is=0 js=0. rsh=0. rd=0.
+ rs=0. cbd=0. cbs=0. cgso=218.971p cgdo=218.971p cgbo=0. ld=265.073n)
*    vmax= 55.9035K 
