' 
#           v(Vcc)     v(Vin)     i(Vcc)     i(Vin)     iter(0)   
 27.        10.        1.        -0.01       0.         4.        
#Time       v(Vcc)     v(Vin)     i(Vcc)     i(Vin)     iter(0)   
 0.         10.        1.        -0.01       0.         4.        
 50.u       10.        1.0309    -0.010309   0.         14.       
 100.u      10.        1.0588    -0.010588   0.         4.        
 150.u      10.        1.0809    -0.010809   0.         4.        
 200.u      10.        1.0951    -0.010951   0.         4.        
 250.u      10.        1.1       -0.011      0.         4.        
 300.u      10.        1.0951    -0.010951   0.         4.        
 350.u      10.        1.0809    -0.010809   0.         4.        
 400.u      10.        1.0588    -0.010588   0.         4.        
 450.u      10.        1.0309    -0.010309   0.         4.        
 500.u      10.        1.        -0.01       0.         4.        
 550.u      10.        0.9691    -0.009691   0.         4.        
 600.u      10.        0.94122   -0.0094122  0.         4.        
 650.u      10.        0.9191    -0.009191   0.         4.        
 700.u      10.        0.90489   -0.0090489  0.         4.        
 750.u      10.        0.9       -0.009      0.         4.        
 800.u      10.        0.90489   -0.0090489  0.         4.        
 850.u      10.        0.9191    -0.009191   0.         4.        
 900.u      10.        0.94122   -0.0094122  0.         4.        
 950.u      10.        0.9691    -0.009691   0.         4.        
 0.001      10.        1.        -0.01       0.         4.        
#Freq       v(Vcc)     v(Vin)     i(Vcc)     i(Vin)    
 1.K        20.n       0.2        0.002      0.        
#Freq       vp(Vcc)    vp(Vin)    ip(Vcc)    ip(Vin)   
 1.K        180.       0.         180.       0.        
