# HSPICE style PWL 
v1 ( 1 0 )  DC  1.  AC  1.
r1 ( 1 2 )  1.3
r2 ( 2 0 )  0.7
h1 ( 3 0 R2 ) pwl( 0., 0.  1., 1.  4., 2.  9., 3.  16., 4.  25., 5. )
r3 ( 3 0 )  10.K
f1 ( 4 0 R2 ) pwl( 0., 0.  1., 1.  4., 2.  9., 3.  16., 4.  25., 5. )
r4 ( 4 0 )  10.K
#           v(1)       v(2)       v(3)       v(4)       i(r2)     
 27.        1.         0.35       0.5       -5.K        0.5       
#           v(1)       v(2)       v(3)       v(4)       i(r2)     
-10.       -10.       -3.5       -5.         50.K      -5.        
-9.        -9.        -3.15      -4.5        45.K      -4.5       
-8.        -8.        -2.8       -4.         40.K      -4.        
-7.        -7.        -2.45      -3.5        35.K      -3.5       
-6.        -6.        -2.1       -3.         30.K      -3.        
-5.        -5.        -1.75      -2.5        25.K      -2.5       
-4.        -4.        -1.4       -2.         20.K      -2.        
-3.        -3.        -1.05      -1.5        15.K      -1.5       
-2.        -2.        -0.7       -0.99999    9.9999K   -1.        
-1.        -1.        -0.35      -0.5        5.K       -0.5       
 0.         0.         0.         0.         0.         0.        
 1.         1.         0.35       0.5       -5.K        0.5       
 2.         2.         0.7        0.99999   -9.9999K    1.        
 3.         3.         1.05       1.1667    -11.667K    1.5       
 4.         4.         1.4        1.3333    -13.333K    2.        
 5.         5.         1.75       1.5       -15.K       2.5       
 6.         6.         2.1        1.6667    -16.667K    3.        
 7.         7.         2.45       1.8333    -18.333K    3.5       
 8.         8.         2.8        2.        -20.K       4.        
 9.         9.         3.15       2.1       -21.K       4.5       
 10.        10.        3.5        2.2       -22.K       5.        
#           v(1)       v(2)       v(3)       v(4)       i(r2)     
 1.         1.         0.35       0.5       -5.K        0.5       
 1.5849     1.5849     0.55471    0.79244   -7.9244K    0.79244   
 2.5119     2.5119     0.87916    1.0853    -10.853K    1.2559    
 3.9811     3.9811     1.3934     1.3302    -13.302K    1.9905    
 6.3096     6.3095     2.2083     1.7183    -17.183K    3.1548    
 10.        10.        3.5        2.2       -22.K       5.        
 15.849     15.849     5.5471     2.7849    -27.849K    7.9244    
 25.119     25.119     8.7916     3.5085    -35.085K    12.559    
 39.811     39.811     13.934     4.4339    -44.339K    19.905    
 63.096     63.095     22.083     5.7275    -57.275K    31.548    
 100.       100.       35.        7.7777    -77.777K    50.       
#           v(1)       v(2)       v(3)       v(4)       i(r2)     
 32.        32.        11.2       4.        -40.K       16.       
 41.        41.        14.35      4.5       -45.K       20.5      
 50.        50.        17.5       5.        -50.K       25.       
 59.        59.        20.65      5.5       -55.K       29.5      
 68.        68.        23.8       6.        -60.K       34.       
v1 ( 1 0 )  DC  1.  AC  1.
r1 ( 1 2 )  1.3
r2 ( 2 0 )  0.7
h1 ( 3 0 R2 ) pwl( 0., 0.  1., 1.  4., 2.  9., 3.  16., 4.  25., 5. )
r3 ( 3 0 )  10.K
f1 ( 4 0 R2 ) pwl( 0., 0.  1., 1.  4., 2.  9., 3.  16., 4.  25., 5. )
r4 ( 4 0 )  10.K
