'trunc error check 
V1 ( 1 0 ) generator scale= 1.
L3 ( 1 2 )  0.1
R4 ( 2 0 )  1.
R5 ( 1 3 )  1.
C6 ( 3 0 )  0.1
.fanout 
 ^ ? fanout: no match
.fanout 2 
 ^ ? fanout: no match
#Time       iter(0)    v(1)       v(2)       v(3)       z(C6)      zraw(C6)   z(3)       control(0)
 0.         3.         0.         0.         0.         1.         1.         1.         1.        
 100.u      4.         1.         975.61u    999.u      1.         999.u      999.u      9.        
 8.3333u    4.         1.         83.326u    83.326u    1.         83.326u    83.326u    16.       
 694.44n    4.         1.         6.9444u    6.9444u    1.         6.9444u    6.9444u    16.       
 57.87n     4.         1.         578.7n     578.7n     1.         578.7n     578.7n     16.       
 4.8225n    4.         1.         48.225n    48.225n    1.         48.225n    48.225n    16.       
 401.88p    4.         1.         4.0188n    4.0188n    1.         4.0188n    4.0188n    16.       
 33.49p     4.         1.         334.9p     334.9p     1.         334.9p     334.9p     16.       
 16.745p    4.         1.         167.45p    167.45p    1.         167.45p    167.45p    16.       
 27.745p    4.         1.         277.45p    277.45p    1.         55.p       55.p       6.        
 766.72n    4.         1.         7.6672u    7.6672u    1.         3.8335u    3.8335u    6.        
 14.732u    4.         1.         147.31u    147.31u    1.         69.822u    69.822u    6.        
 0.0020118  4.         1.         0.019917   0.019917   1.         0.0098865  0.0098865  6.        
 0.01       4.         1.         0.095202   0.095202   1.         0.038407   0.038407   1.        
 0.02       4.         1.         0.18137    0.18137    1.         0.047619   0.047619   1.        
 0.03       4.         1.         0.25934    0.25934    1.         0.047619   0.047619   1.        
 0.04       4.         1.         0.32988    0.32988    1.         0.047619   0.047619   1.        
 0.05       4.         1.         0.3937     0.3937     1.         0.047619   0.047619   1.        
 0.06       4.         1.         0.45144    0.45144    1.         0.047619   0.047619   1.        
 0.07       4.         1.         0.50368    0.50368    1.         0.047619   0.047619   1.        
 0.08       4.         1.         0.55095    0.55095    1.         0.047619   0.047619   1.        
 0.09       4.         1.         0.59372    0.59372    1.         0.047619   0.047619   1.        
 0.1        4.         1.         0.63241    0.63241    1.         0.047619   0.047619   1.        
#Freq       v(2)       v(3)       vp(2)      vp(3)      z(C6)      zraw(C6)   z(3)      
 0.001      1.         1.        -0.036     -0.036      1.         1.         1.        
 0.0031623  1.         1.        -0.11384   -0.11384    1.         1.         1.        
 0.01       0.99998    0.99998   -0.36      -0.36       1.         0.99998    0.99998   
 0.031623   0.9998     0.9998    -1.1383    -1.1383     1.         0.9998     0.9998    
 0.1        0.99803    0.99803   -3.5953    -3.5953     1.         0.99803    0.99803   
 0.31623    0.98083    0.98083   -11.238    -11.238     1.         0.98083    0.98083   
 1.         0.84673    0.84673   -32.142    -32.142     1.         0.84673    0.84673   
 3.1623     0.44956    0.44956   -63.284    -63.284     1.         0.44956    0.44956   
 10.        0.15718    0.15718   -80.957    -80.957     1.         0.15718    0.15718   
 31.623     0.050266   0.050266  -87.119    -87.119     1.         0.050266   0.050266  
 100.       0.015913   0.015913  -89.088    -89.088     1.         0.015913   0.015913  
V1 ( 1 0 ) generator scale= 1.
L3 ( 1 2 )  0.1
R4 ( 2 0 )  1.
R5 ( 1 3 )  1.
C6 ( 3 0 )  0.1
Gnucap   System status
iterations: op=0, dc=0, tran=91, fourier=0, total=125
transient timesteps: accepted=16, rejected=7, total=23
nodes: user=3, subckt=0, model=0, total=3
dctran density=77.8%, ac density=77.8%
