'trunc error check 
V1 ( 1 0 ) pwl( 0., 0.  1.p, 1. )  AC  1.
L3 ( 1 2 )  0.1
R4 ( 2 0 )  1.
R5 ( 1 3 )  1.
C6 ( 3 0 )  0.1
#Time       iter(0)    v(1)       v(2)       v(3)       z(C6)      zraw(C6)   z(3)       control(0) timef(C6)  timef(L3)  dt(C6)     dtr(C6)   
 0.         3.         0.         0.         0.         1.         1.         1.         1.         Inf        Inf        ??         Inf       
 20.p       4.         1.         0.         200.p      1.         200.p      200.p      7.         30.p       30.p       20.p       10.p      
 31.p       4.         1.         110.p      310.p      1.         73.333p    73.333p    6.         524.62n    524.62n    11.p       524.59n   
 524.61n    4.         1.         5.2459u    5.2461u    1.         3.4972u    3.4972u    6.         41.176u    41.176u    524.58n    40.651u   
 41.173u    4.         1.         411.62u    411.62u    1.         270.92u    270.92u    6.         402.84u    402.84u    40.648u    361.67u   
 396.85u    4.         1.         0.0039586  0.0039586  1.         0.0023655  0.0023655  6.         0.0015552  0.0015552  355.67u    0.0011584 
 0.0014639  4.         1.         0.014516   0.014516   1.         0.0070632  0.0070632  6.         0.0038133  0.0038133  0.001067   0.0023495 
 0.0035979  4.         1.         0.035279   0.035279   1.         0.014027   0.014027   6.         0.0073935  0.0073935  0.002134   0.0037956 
 0.0067989  4.         1.         0.065601   0.065601   1.         0.020894   0.020894   6.         0.012146   0.012147   0.0032011  0.0053475 
 0.01       4.         1.         0.095021   0.095021   1.         0.020894   0.020894   1.         0.016733   0.016733   0.0032011  0.006733  
 0.015      4.         1.         0.13904    0.13904    1.         0.032258   0.032258   6.         0.022862   0.022862   0.005      0.0078622 
 0.02       4.         1.         0.18101    0.18101    1.         0.032258   0.032258   1.         0.029641   0.029641   0.005      0.0096412 
 0.025      4.         1.         0.22097    0.22097    1.         0.032258   0.032258   6.         0.035734   0.035735   0.005      0.010734  
 0.03       4.         1.         0.25899    0.25899    1.         0.032258   0.032258   1.         0.041844   0.041844   0.005      0.011844  
 0.04       4.         1.         0.32906    0.32906    1.         0.0625     0.0625     1.         0.053183   0.053183   0.01       0.013183  
 0.05       4.         1.         0.3929     0.3929     1.         0.0625     0.0625     1.         0.066257   0.066257   0.01       0.016257  
 0.06       4.         1.         0.45079    0.45079    1.         0.0625     0.0625     1.         0.077852   0.077852   0.01       0.017852  
 0.07       4.         1.         0.5032     0.5032     1.         0.0625     0.0625     1.         0.089648   0.089648   0.01       0.019648  
 0.08       4.         1.         0.55063    0.55063    1.         0.0625     0.0625     1.         0.10153    0.10153    0.01       0.021535  
 0.09       4.         1.         0.59354    0.59354    1.         0.0625     0.0625     1.         0.11348    0.11348    0.01       0.023477  
 0.1        4.         1.         0.63235    0.63235    1.         0.0625     0.0625     1.         0.12547    0.12547    0.01       0.025467  
#Freq       v(2)       v(3)       vp(2)      vp(3)      z(C6)      zraw(C6)   z(3)      
 0.001      1.         1.        -0.036     -0.036      1.         1.         1.        
 0.0031623  1.         1.        -0.11384   -0.11384    1.         1.         1.        
 0.01       0.99998    0.99998   -0.36      -0.36       1.         0.99998    0.99998   
 0.031623   0.9998     0.9998    -1.1383    -1.1383     1.         0.9998     0.9998    
 0.1        0.99803    0.99803   -3.5953    -3.5953     1.         0.99803    0.99803   
 0.31623    0.98083    0.98083   -11.238    -11.238     1.         0.98083    0.98083   
 1.         0.84673    0.84673   -32.142    -32.142     1.         0.84673    0.84673   
 3.1623     0.44956    0.44956   -63.284    -63.284     1.         0.44956    0.44956   
 10.        0.15718    0.15718   -80.957    -80.957     1.         0.15718    0.15718   
 31.623     0.050266   0.050266  -87.119    -87.119     1.         0.050266   0.050266  
 100.       0.015913   0.015913  -89.088    -89.088     1.         0.015913   0.015913  
V1 ( 1 0 ) pwl( 0., 0.  1.p, 1. )  AC  1.
L3 ( 1 2 )  0.1
R4 ( 2 0 )  1.
R5 ( 1 3 )  1.
C6 ( 3 0 )  0.1
*.tran .01 .1 0 
Gnucap   System status
iterations: op=0, dc=0, tran=83, fourier=0, total=115
transient timesteps: accepted=21, rejected=0, total=21
nodes: user=3, subckt=0, model=0, total=3
dctran density=77.8%, ac density=77.8%
