*oscillator, .159 Hz. 
#Time       v(1)       v(2)       iter(0)   
 0.         0.         0.         0.        
 0.001      5.        -0.005      4.        
 83.333u    5.        -416.67u    4.        
 6.9444u    5.        -34.722u    4.        
 578.7n     5.        -2.8935u    4.        
 48.225n    5.        -241.13n    4.        
 4.0188n    5.        -20.094n    4.        
 334.9p     5.        -1.6745n    4.        
 167.45p    5.        -837.25p    4.        
 277.45p    5.        -1.3872n    2.        
 0.0029412  5.        -0.014706   2.        
 0.035294   4.9969    -0.17642    2.        
 0.1        4.975     -0.49904    4.        
 0.2        4.9004    -0.99281    4.        
 0.3        4.777     -1.4767     4.        
 0.4        4.6058    -1.9458     4.        
 0.5        4.3888    -2.3956     4.        
 0.6        4.1279    -2.8214     4.        
 0.7        3.8259    -3.2191     4.        
 0.8        3.4857    -3.5847     4.        
 0.9        3.1108    -3.9145     4.        
 1.         2.7048    -4.2053     4.        
 1.1        2.2718    -4.4541     4.        
 1.2        1.8162    -4.6585     4.        
 1.3        1.3424    -4.8164     4.        
 1.4        0.85529   -4.9263     4.        
 1.5        0.35963   -4.9871     4.        
 1.6       -0.13963   -4.998      4.        
 1.7       -0.63749   -4.9592     4.        
 1.8       -1.129     -4.8709     4.        
 1.9       -1.6092    -4.734      4.        
 2.        -2.0734    -4.5498     4.        
 2.1       -2.5169    -4.3203     4.        
 2.2       -2.9353    -4.0477     4.        
 2.3       -3.3245    -3.7347     4.        
 2.4       -3.6804    -3.3845     4.        
 2.5       -3.9997    -3.0005     4.        
 2.6       -4.279     -2.5865     4.        
 2.7       -4.5157    -2.1468     4.        
 2.8       -4.7073    -1.6856     4.        
 2.9       -4.852     -1.2077     4.        
 3.        -4.9482    -0.71767    4.        
 3.1       -4.9951    -0.2205     4.        
 3.2       -4.9922     0.27887    2.        
 3.3       -4.9395     0.77545    4.        
 3.4       -4.8375     1.2643     4.        
 3.5       -4.6873     1.7405     4.        
 3.6       -4.4903     2.1994     4.        
 3.7       -4.2485     2.6364     4.        
 3.8       -3.9643     3.047      4.        
 3.9       -3.6406     3.4272     4.        
 4.        -3.2806     3.7733     4.        
 4.1       -2.8878     4.0817     4.        
 4.2       -2.4663     4.3494     4.        
 4.3       -2.0201     4.5737     4.        
 4.4       -1.5538     4.7524     4.        
 4.5       -1.072      4.8837     4.        
 4.6       -0.57949    4.9663     4.        
 4.7       -0.08121    4.9993     4.        
 4.8        0.41788    4.9825     4.        
 4.9        0.91281    4.916      4.        
 5.         1.3986     4.8004     4.        
 5.1        1.8705     4.6369     4.        
 5.2        2.3237     4.4272     4.        
 5.3        2.7537     4.1734     4.        
 5.4        3.1563     3.8779     4.        
 5.5        3.5274     3.5437     4.        
 5.6        3.8633     3.1741     4.        
 5.7        4.1606     2.773      4.        
 5.8        4.4165     2.3441     4.        
 5.9        4.6283     1.8919     4.        
 6.         4.7939     1.4208     4.        
 6.1        4.9117     0.93547    4.        
 6.2        4.9805     0.44086    4.        
 6.3        4.9997    -0.058151   4.        
 6.4        4.9689    -0.55658    4.        
 6.5        4.8886    -1.0495     4.        
 6.6        4.7596    -1.5319     4.        
 6.7        4.583     -1.999      4.        
 6.8        4.3608    -2.4462     4.        
 6.9        4.095     -2.869      4.        
 7.         3.7884    -3.2631     4.        
 7.1        3.444     -3.6248     4.        
 7.2        3.0653    -3.9502     4.        
 7.3        2.6559    -4.2363     4.        
 7.4        2.2201    -4.4801     4.        
 7.5        1.7621    -4.6792     4.        
 7.6        1.2866    -4.8316     4.        
 7.7        0.79823   -4.9359     4.        
 7.8        0.30189   -4.9909     4.        
 7.9       -0.19746   -4.9961     4.        
 8.        -0.69484   -4.9515     4.        
 8.1       -1.1853    -4.8575     4.        
 8.2       -1.6639    -4.715      4.        
 8.3       -2.1259    -4.5255     4.        
 8.4       -2.5668    -4.2909     4.        
 8.5       -2.982     -4.0135     4.        
 8.6       -3.3674    -3.696      4.        
 8.7       -3.7193    -3.3416     4.        
 8.8       -4.0341    -2.954      4.        
 8.9       -4.3087    -2.5368     4.        
 9.        -4.5402    -2.0944     4.        
 9.1       -4.7265    -1.6311     4.        
 9.2       -4.8656    -1.1514     4.        
 9.3       -4.9562    -0.66036    4.        
 9.4       -4.9974    -0.16268    4.        
 9.5       -4.9887     0.33662    4.        
 9.6       -4.9302     0.83256    4.        
 9.7       -4.8226     1.3202     4.        
 9.8       -4.6668     1.7947     4.        
 9.9       -4.4645     2.2512     4.        
 10.       -4.2177     2.6853     4.        
 10.1      -3.9288     3.0927     4.        
 10.2      -3.6007     3.4691     4.        
 10.3      -3.2367     3.811      4.        
 10.4      -2.8404     4.1149     4.        
 10.5      -2.4158     4.3777     4.        
 10.6      -1.967      4.5968     4.        
 10.7      -1.4987     4.7701     4.        
 10.8      -1.0154     4.8958     4.        
 10.9      -0.52198    4.9727     4.        
 11.       -0.023351   4.9999     4.        
 11.1       0.47551    4.9773     4.        
 11.2       0.96963    4.9051     4.        
 11.3       1.4541     4.7839     4.        
 11.4       1.924      4.615      4.        
 11.5       2.3748     4.4        4.        
 11.6       2.8018     4.1412     4.        
 11.7       3.201      3.8411     4.        
 11.8       3.5681     3.5026     4.        
 11.9       3.8997     3.1292     4.        
 12.        4.1924     2.7246     4.        
 12.1       4.4433     2.2928     4.        
 12.2       4.6499     1.8382     4.        
 12.3       4.81       1.3652     4.        
 12.4       4.9222     0.87857    4.        
 12.5       4.9853     0.38319    4.        
 12.6       4.9987    -0.116      4.        
 12.7       4.9622    -0.61404    4.        
 12.8       4.8762    -1.106      4.        
 12.9       4.7415    -1.5868     4.        
 13.        4.5596    -2.0519     4.        
 13.1       4.3322    -2.4965     4.        
 13.2       4.0615    -2.9162     4.        
 13.3       3.7504    -3.3068     4.        
 13.4       3.4018    -3.6644     4.        
 13.5       3.0193    -3.9854     4.        
 13.6       2.6067    -4.2667     4.        
 13.7       2.1681    -4.5055     4.        
 13.8       1.7079    -4.6993     4.        
 13.9       1.2306    -4.8462     4.        
 14.        0.74106   -4.9448     4.        
 14.1       0.24411   -4.994      4.        
 14.2      -0.25526   -4.9935     4.        
 14.3      -0.75209   -4.9431     4.        
 14.4      -1.2414    -4.8434     4.        
 14.5      -1.7184    -4.6954     4.        
 14.6      -2.1782    -4.5006     4.        
 14.7      -2.6162    -4.2609     4.        
 14.8      -3.0282    -3.9787     4.        
 14.9      -3.41      -3.6568     4.        
 15.       -3.7578    -3.2984     4.        
 15.1      -4.068     -2.9071     4.        
 15.2      -4.3377    -2.4868     4.        
 15.3      -4.5641    -2.0417     4.        
 15.4      -4.745     -1.5762     4.        
 15.5      -4.8786    -1.0951     4.        
 15.6      -4.9635    -0.60296    4.        
 15.7      -4.9989    -0.10484    4.        
 15.8      -4.9844     0.39433    4.        
 15.9      -4.9202     0.88956    4.        
 16.       -4.807      1.3759     4.        
 16.1      -4.6457     1.8486     4.        
 16.2      -4.4382     2.3028     4.        
 16.3      -4.1863     2.734      4.        
 16.4      -3.8927     3.1379     4.        
 16.5      -3.5603     3.5106     4.        
 16.6      -3.1924     3.8482     4.        
 16.7      -2.7926     4.1475     4.        
 16.8      -2.365      4.4053     4.        
 16.9      -1.9137     4.6193     4.        
 17.       -1.4434     4.7871     4.        
 17.1      -0.95868    4.9072     4.        
 17.2      -0.4644     4.9784     4.        
 17.3       0.034511   4.9999     4.        
 17.4       0.53308    4.9715     4.        
 17.5       1.0263     4.8935     4.        
 17.6       1.5093     4.7667     4.        
 17.7       1.9773     4.5924     4.        
 17.8       2.4255     4.3723     4.        
 17.9       2.8496     4.1085     4.        
 18.        3.2452     3.8038     4.        
 18.1       3.6084     3.4611     4.        
 18.2       3.9357     3.0839     4.        
 18.3       4.2237     2.6759     4.        
 18.4       4.4695     2.2413     4.        
 18.5       4.6708     1.7842     4.        
 18.6       4.8255     1.3094     4.        
 18.7       4.932      0.82155    4.        
 18.8       4.9894     0.32548    4.        
 18.9       4.997     -0.17384    4.        
 19.        4.9547    -0.67143    4.        
 19.1       4.863     -1.1623     4.        
 19.2       4.7228    -1.6416     4.        
 19.3       4.5355    -2.1045     4.        
 19.4       4.303     -2.5464     4.        
 19.5       4.0275    -2.963      4.        
 19.6       3.7119    -3.3499     4.        
 19.7       3.3592    -3.7035     4.        
 19.8       2.973     -4.0201     4.        
 19.9       2.5572    -4.2966     4.        
 20.        2.1158    -4.5303     4.        
 20.1       1.6534    -4.7187     4.        
 20.2       1.1744    -4.8601     4.        
 20.3       0.68378   -4.953      4.        
 20.4       0.18631   -4.9965     4.        
 20.5      -0.31303   -4.9902     4.        
 20.6      -0.80924   -4.9341     4.        
 20.7      -1.2974    -4.8287     4.        
 20.8      -1.7726    -4.6752     4.        
 20.9      -2.2301    -4.4751     4.        
 21.       -2.6654    -4.2303     4.        
 21.1      -3.0741    -3.9434     4.        
 21.2      -3.4521    -3.6171     4.        
 21.3      -3.7957    -3.2547     4.        
 21.4      -4.1014    -2.8598     4.        
 21.5      -4.3662    -2.4364     4.        
 21.6      -4.5875    -1.9888     4.        
 21.7      -4.763     -1.5212     4.        
 21.8      -4.891     -1.0385     4.        
 21.9      -4.9702    -0.54548    4.        
 22.       -4.9998    -0.046982   4.        
 22.1      -4.9795     0.45198    4.        
 22.2      -4.9096     0.94644    4.        
 22.3      -4.7907     1.4315     4.        
 22.4      -4.624      1.9022     4.        
 22.5      -4.4112     2.354      4.        
 22.6      -4.1544     2.7822     4.        
 22.7      -3.8562     3.1828     4.        
 22.8      -3.5195     3.5515     4.        
 22.9      -3.1476     3.8849     4.        
 23.       -2.7444     4.1795     4.        
 23.1      -2.3138     4.4324     4.        
 23.2      -1.8601     4.6411     4.        
 23.3      -1.3879     4.8035     4.        
 23.4      -0.90183    4.918      4.        
 23.5      -0.40676    4.9834     4.        
 23.6       0.092369   4.9991     4.        
 23.7       0.59058    4.965      4.        
 23.8       1.0829     4.8813     4.        
 23.9       1.5644     4.749      4.        
 24.        2.0303     4.5692     4.        
 24.1       2.476      4.3439     4.        
 24.2       2.8969     4.0753     4.        
 24.3       3.289      3.766      4.        
 24.4       3.6482     3.4191     4.        
 24.5       3.9711     3.0381     4.        
 24.6       4.2544     2.6269     4.        
 24.7       4.4952     2.1894     4.        
 24.8       4.6911     1.7301     4.        
 24.9       4.8403     1.2535     4.        
 25.        4.9412     0.76442    4.        
 25.1       4.9928     0.26772    4.        
 25.2       4.9946    -0.23166    2.        
 25.3       4.9466    -0.72872    4.        
 25.4       4.8493    -1.2185     4.        
 25.5       4.7035    -1.6962     4.        
 25.6       4.5109    -2.1569     4.        
 25.7       4.2732    -2.5961     4.        
 25.8       3.9929    -3.0094     4.        
 25.9       3.6728    -3.3927     4.        
 26.        3.3161    -3.7421     4.        
 26.1       2.9263    -4.0542     4.        
 26.2       2.5073    -4.3259     4.        
 26.3       2.0633    -4.5544     4.        
 26.4       1.5987    -4.7375     4.        
 26.5       1.1181    -4.8734     4.        
 26.6       0.62642   -4.9606     4.        
 26.7       0.12847   -4.9983     4.        
 26.8      -0.37076   -4.9862     4.        
 26.9      -0.86629   -4.9244     4.        
 27.       -1.3532    -4.8134     4.        
 27.1      -1.8266    -4.6544     4.        
 27.2      -2.2817    -4.449      4.        
 27.3      -2.7142    -4.1992     4.        
 27.4      -3.1195    -3.9075     4.        
 27.5      -3.4937    -3.5769     4.        
 27.6      -3.8331    -3.2105     4.        
 27.7      -4.1342    -2.8122     4.        
 27.8      -4.3941    -2.3857     4.        
 27.9      -4.6102    -1.9355     4.        
 28.       -4.7803    -1.466      4.        
 28.1      -4.9026    -0.98187    4.        
 28.2      -4.9761    -0.48793    4.        
 28.3      -5.         0.01088    4.        
 28.4      -4.974      0.50958    4.        
 28.5      -4.8983     1.0032     4.        
 28.6      -4.7738     1.4868     4.        
 28.7      -4.6017     1.9556     4.        
 28.8      -4.3837     2.4048     4.        
 28.9      -4.1219     2.8301     4.        
 29.       -3.8191     3.2272     4.        
 29.1      -3.4781     3.592      4.        
 29.2      -3.1025     3.9211     4.        
 29.3      -2.6959     4.211      4.        
 29.4      -2.2624     4.4589     4.        
 29.5      -1.8063     4.6623     4.        
 29.6      -1.3322     4.8193     4.        
 29.7      -0.84486    4.9281     4.        
 29.8      -0.34906    4.9878     4.        
 29.9       0.15021    4.9977     4.        
 30.        0.64799    4.9578     4.        
 30.1       1.1393     4.8685     4.        
 30.2       1.6193     4.7305     4.        
 30.3       2.0831     4.5454     4.        
 30.4       2.5261     4.315      4.        
 30.5       2.9439     4.0415     4.        
 30.6       3.3324     3.7277     4.        
 30.7       3.6876     3.3767     4.        
 30.8       4.006      2.992      4.        
 30.9       4.2845     2.5775     4.        
 31.        4.5202     2.1372     4.        
 31.1       4.7109     1.6757     4.        
 31.2       4.8545     1.1974     4.        
 31.3       4.9497     0.70719    4.        
 31.4       4.9956     0.20992    4.        
 31.5       4.9916    -0.28944    2.        
 31.6       4.9378    -0.78591    4.        
 31.7       4.8348    -1.2745     4.        
 31.8       4.6836    -1.7505     4.        
 31.9       4.4856    -2.2089     4.        
 32.        4.2429    -2.6454     4.        
 32.1       3.9579    -3.0554     4.        
 32.2       3.6333    -3.4349     4.        
 32.3       3.2726    -3.7802     4.        
 32.4       2.8792    -4.0878     4.        
 32.5       2.4571    -4.3546     4.        
 32.6       2.0104    -4.578      4.        
 32.7       1.5437    -4.7557     4.        
 32.8       1.0616    -4.886      4.        
 32.9       0.56897   -4.9675     4.        
 33.        0.070621  -4.9995     4.        
 33.1      -0.42843   -4.9816     4.        
 33.2      -0.92322   -4.914      4.        
 33.3      -1.4088    -4.7974     4.        
 33.4      -1.8803    -4.633      4.        
 33.5      -2.3331    -4.4223     4.        
 33.6      -2.7626    -4.1675     4.        
 33.7      -3.1645    -3.8712     4.        
 33.8      -3.5349    -3.5362     4.        
 33.9      -3.87      -3.166      4.        
 34.       -4.1665    -2.7641     4.        
 34.1      -4.4214    -2.3347     4.        
 34.2      -4.6323    -1.8821     4.        
 34.3      -4.7969    -1.4106     4.        
 34.4      -4.9137    -0.92507    4.        
 34.5      -4.9814    -0.43031    4.        
 34.6      -4.9995     0.06874    4.        
 34.7      -4.9677     0.5671     4.        
 34.8      -4.8864     1.0598     4.        
 34.9      -4.7563     1.5419     4.        
 35.       -4.5788     2.0087     4.        
 35.1      -4.3556     2.4554     4.        
 35.2      -4.0889     2.8776     4.        
 35.3      -3.7815     3.2712     4.        
 35.4      -3.4363     3.632      4.        
 35.5      -3.0569     3.9567     4.        
 35.6      -2.6469     4.2419     4.        
 35.7      -2.2106     4.4848     4.        
 35.8      -1.7522     4.6829     4.        
 35.9      -1.2764     4.8343     4.        
 36.       -0.78777    4.9376     4.        
 36.1      -0.29132    4.9915     4.        
 36.2       0.20804    4.9957     4.        
 36.3       0.70532    4.95       4.        
 36.4       1.1956     4.855      4.        
 36.5       1.6739     4.7115     4.        
 36.6       2.1355     4.521      4.        
 36.7       2.5758     4.2854     4.        
 36.8       2.9905     4.0071     4.        
 36.9       3.3753     3.6888     4.        
 37.        3.7264     3.3338     4.        
 37.1       4.0404     2.9454     4.        
 37.2       4.314      2.5277     4.        
 37.3       4.5446     2.0848     4.        
 37.4       4.7299     1.621      4.        
 37.5       4.868      1.1411     4.        
 37.6       4.9576     0.64986    4.        
 37.7       4.9977     0.15209    4.        
 37.8       4.9879    -0.34719    4.        
 37.9       4.9284    -0.843      4.        
 38.        4.8198    -1.3304     4.        
 38.1       4.663     -1.8046     4.        
 38.2       4.4597    -2.2607     4.        
 38.3       4.212     -2.6943     4.        
 38.4       3.9222    -3.101      4.        
 38.5       3.5933    -3.4768     4.        
 38.6       3.2286    -3.8179     4.        
 38.7       2.8317    -4.1209     4.        
 38.8       2.4065    -4.3828     4.        
 38.9       1.9573    -4.601      4.        
 39.        1.4886    -4.7733     4.        
 39.1       1.005     -4.898      4.        
 39.2       0.51145   -4.9738     4.        
 39.3       0.012761  -5.         4.        
 39.4      -0.48605   -4.9763     4.        
 39.5      -0.98002   -4.903      4.        
 39.6      -1.4642    -4.7808     4.        
 39.7      -1.9338    -4.6109     4.        
 39.8      -2.3841    -4.395      4.        
 39.9      -2.8106    -4.1353     4.        
 40.       -3.2091    -3.8343     4.        
 40.1      -3.5756    -3.4951     4.        
 40.2      -3.9064    -3.121      4.        
 40.3      -4.1982    -2.7157     4.        
 40.4      -4.4481    -2.2834     4.        
 40.5      -4.6537    -1.8283     4.        
 40.6      -4.8129    -1.355      4.        
 40.7      -4.9241    -0.86814    4.        
 40.8      -4.9861    -0.37263    4.        
 40.9      -4.9984     0.12659    4.        
 41.       -4.9608     0.62455    4.        
 41.1      -4.8738     1.1163     4.        
 41.2      -4.7381     1.5969     4.        
 41.3      -4.5552     2.0616     4.        
 41.4      -4.3269     2.5057     4.        
 41.5      -4.0553     2.9248     4.        
 41.6      -3.7434     3.3147     4.        
 41.7      -3.3941     3.6716     4.        
 41.8      -3.0109     3.9918     4.        
 41.9      -2.5977     4.2722     4.        
 42.       -2.1586     4.5101     4.        
 42.1      -1.6979     4.7029     4.        
 42.2      -1.2203     4.8488     4.        
 42.3      -0.73058    4.9463     4.        
 42.4      -0.23354    4.9945     4.        
 42.5       0.26584    4.9929     4.        
 42.6       0.76256    4.9415     4.        
 42.7       1.2517     4.8408     4.        
 42.8       1.7283     4.6918     4.        
 42.9       2.1877     4.496      4.        
 43.        2.6253     4.2553     4.        
