# HSPICE style POLY(1) 
.width out=120 
V1  1  0  DC   1.  AC   1.
E2  2  0  1  0  POLY(   10.   0.   0.   0.)  min=-200.  max= 100.
R2  2  0  10.K
E3  3  0  1  0  POLY(   0.   10.   0.   0.)  min=-200.  max= 100.
R3  3  0  10.K
E4  4  0  1  0  POLY(   0.   0.   10.   0.)  min=-200.  max= 100.
R4  4  0  10.K
E5  5  0  1  0  POLY(   0.   0.   0.   10.)  min=-200.  max= 100.  abs=1
R5  5  0  10.K
E6  6  0  1  0  POLY(   0.   10.)  min=-200.  max= 100.
R6  6  0  10.K
E7  7  0  1  0  10.
R7  7  0  10.K
G8  8  0  1  0  POLY(   0.   0.   0.   10.)  min=-200.  max= 100.
R8  8  0  10.K
#           v(1)       v(2)       v(3)       v(4)       v(5)       v(6)       v(7)       v(8)       i(G8)     
 300.15     1.         10.        10.        10.        10.        10.        10.       -100.K      10.       
#           v(1)       v(2)       v(3)       v(4)       v(5)       v(6)       v(7)       v(8)       i(G8)     
-10.       -10.        10.       -100.       100.       100.      -100.      -100.       2.Meg     -200.      
-9.        -9.         10.       -90.        100.       100.      -90.       -90.        2.Meg     -200.      
-8.        -8.         10.       -80.        100.       100.      -80.       -80.        2.Meg     -200.      
-7.        -7.         10.       -70.        100.       100.      -70.       -70.        2.Meg     -200.      
-6.        -6.         10.       -60.        100.       100.      -60.       -60.        2.Meg     -200.      
-5.        -5.         10.       -50.        100.       100.      -50.       -50.        2.Meg     -200.      
-4.        -4.         10.       -40.        100.       100.      -40.       -40.        2.Meg     -200.      
-3.        -3.         10.       -30.        90.        100.      -30.       -30.        2.Meg     -200.      
-2.        -2.         10.       -20.        40.        80.       -20.       -20.        800.K     -80.       
-1.        -1.         10.       -10.        10.        10.       -10.       -10.        100.K     -10.       
 0.         0.         10.        0.         0.         0.         0.         0.         0.         0.        
 1.         1.         10.        10.        10.        10.        10.        10.       -100.K      10.       
 2.         2.         10.        20.        40.        80.        20.        20.       -800.K      80.       
 3.         3.         10.        30.        90.        100.       30.        30.       -1.Meg      100.      
 4.         4.         10.        40.        100.       100.       40.        40.       -1.Meg      100.      
 5.         5.         10.        50.        100.       100.       50.        50.       -1.Meg      100.      
 6.         6.         10.        60.        100.       100.       60.        60.       -1.Meg      100.      
 7.         7.         10.        70.        100.       100.       70.        70.       -1.Meg      100.      
 8.         8.         10.        80.        100.       100.       80.        80.       -1.Meg      100.      
 9.         9.         10.        90.        100.       100.       90.        90.       -1.Meg      100.      
 10.        10.        10.        100.       100.       100.       100.       100.      -1.Meg      100.      
#           v(1)       v(2)       v(3)       v(4)       v(5)       v(6)       v(7)       v(8)       i(G8)     
 1.         1.         10.        10.        10.        10.        10.        10.       -100.K      10.       
 1.5849     1.5849     10.        15.849     25.119     39.811     15.849     15.849    -398.11K    39.811    
 2.5119     2.5119     10.        25.119     63.096     100.       25.119     25.119    -1.Meg      100.      
 3.9811     3.9811     10.        39.811     100.       100.       39.811     39.811    -1.Meg      100.      
 6.3096     6.3096     10.        63.096     100.       100.       63.096     63.096    -1.Meg      100.      
 10.        10.        10.        100.       100.       100.       100.       100.      -1.Meg      100.      
 15.849     15.849     10.        100.       100.       100.       100.       158.49    -1.Meg      100.      
 25.119     25.119     10.        100.       100.       100.       100.       251.19    -1.Meg      100.      
 39.811     39.811     10.        100.       100.       100.       100.       398.11    -1.Meg      100.      
 63.096     63.096     10.        100.       100.       100.       100.       630.96    -1.Meg      100.      
 100.       100.       10.        100.       100.       100.       100.       1.K       -1.Meg      100.      
#           v(1)       v(2)       v(3)       v(4)       v(5)       v(6)       v(7)       v(8)       i(G8)     
 32.        32.        10.        100.       100.       100.       100.       320.      -1.Meg      100.      
 41.        41.        10.        100.       100.       100.       100.       410.      -1.Meg      100.      
 50.        50.        10.        100.       100.       100.       100.       500.      -1.Meg      100.      
 59.        59.        10.        100.       100.       100.       100.       590.      -1.Meg      100.      
 68.        68.        10.        100.       100.       100.       100.       680.      -1.Meg      100.      
