# HSPICE style PWL, out of order, bogus answers 
V1  1  0  DC   1.  AC   1.
R1  1  2  1.K
R2  2  0  1.K
E1  3  0  2  0  PWL(   0., 0.   1., 1.   4., 2.   9., 3.   160., 4.   25., 5.)
R3  3  0  10.K
#           v(1)       v(2)       v(3)      
 300.15     1.         0.5        0.5       
#           v(1)       v(2)       v(3)      
-10.       -10.       -5.        -5.        
-9.        -9.        -4.5       -4.5       
-8.        -8.        -4.        -4.        
-7.        -7.        -3.5       -3.5       
-6.        -6.        -3.        -3.        
-5.        -5.        -2.5       -2.5       
-4.        -4.        -2.        -2.        
-3.        -3.        -1.5       -1.5       
-2.        -2.        -1.        -1.        
-1.        -1.        -0.5       -0.5       
 0.         0.         0.         0.        
 1.         1.         0.5        0.5       
 2.         2.         1.         1.        
 3.         3.         1.5        1.1667    
 4.         4.         2.         1.3333    
 5.         5.         2.5        1.5       
 6.         6.         3.         1.6667    
 7.         7.         3.5        1.8333    
 8.         8.         4.         2.        
 9.         9.         4.5        2.1       
 10.        10.        5.         2.2       
#           v(1)       v(2)       v(3)      
 1.         1.         0.5        0.5       
 1.5849     1.5849     0.79245    0.79245   
 2.5119     2.5119     1.2559     1.0853    
 3.9811     3.9811     1.9905     1.3302    
 6.3096     6.3096     3.1548     1.7183    
 10.        10.        5.         2.2       
 15.849     15.849     7.9245     2.7849    
 25.119     25.119     12.559     3.0236    
 39.811     39.811     19.905     3.0722    
 63.096     63.096     31.548     3.1493    
 100.       100.       50.        3.2715    
 158.49     158.49     79.245     3.4652    
 251.19     251.19     125.59     3.7721    
interpolate table is not sorted or has duplicate keys
