# HSPICE style POLY(1) 
.width out=120 
V1  1  0  DC   1.  AC   1.
E2  2  0  1  0  POLY(   10.   0.   0.   0.)
R2  2  0  10.K
E3  3  0  1  0  POLY(   0.   10.   0.   0.)
R3  3  0  10.K
E4  4  0  1  0  POLY(   0.   0.   10.   0.)
R4  4  0  10.K
E5  5  0  1  0  POLY(   0.   0.   0.   10.)
R5  5  0  10.K
E6  6  0  1  0  POLY(   0.   10.)
R6  6  0  10.K
E7  7  0  1  0  10.
R7  7  0  10.K
G8  8  0  1  0  POLY(   0.   0.   10.   0.)
R8  8  0  10.K
#           v(1)       v(2)       v(3)       v(4)       v(5)       v(6)       v(7)       v(8)      
 300.15     1.         10.        10.        10.        10.        10.        10.       -100.K     
#           v(1)       v(2)       v(3)       v(4)       v(5)       v(6)       v(7)       v(8)      
-10.       -10.        10.       -100.       1.K       -10.K      -100.      -100.      -10.Meg    
-9.        -9.         10.       -90.        810.      -7.29K     -90.       -90.       -8.1Meg    
-8.        -8.         10.       -80.        640.      -5.12K     -80.       -80.       -6.4Meg    
-7.        -7.         10.       -70.        490.      -3.43K     -70.       -70.       -4.9Meg    
-6.        -6.         10.       -60.        360.      -2.16K     -60.       -60.       -3.6Meg    
-5.        -5.         10.       -50.        250.      -1.25K     -50.       -50.       -2.5Meg    
-4.        -4.         10.       -40.        160.      -640.      -40.       -40.       -1.6Meg    
-3.        -3.         10.       -30.        90.       -270.      -30.       -30.       -900.K     
-2.        -2.         10.       -20.        40.       -80.       -20.       -20.       -400.K     
-1.        -1.         10.       -10.        10.       -10.       -10.       -10.       -100.K     
 0.         0.         10.        0.        -6.f       -54.f       0.         0.         0.        
 1.         1.         10.        10.        10.        10.        10.        10.       -100.K     
 2.         2.         10.        20.        40.        80.        20.        20.       -400.K     
 3.         3.         10.        30.        90.        270.       30.        30.       -900.K     
 4.         4.         10.        40.        160.       640.       40.        40.       -1.6Meg    
 5.         5.         10.        50.        250.       1.25K      50.        50.       -2.5Meg    
 6.         6.         10.        60.        360.       2.16K      60.        60.       -3.6Meg    
 7.         7.         10.        70.        490.       3.43K      70.        70.       -4.9Meg    
 8.         8.         10.        80.        640.       5.12K      80.        80.       -6.4Meg    
 9.         9.         10.        90.        810.       7.29K      90.        90.       -8.1Meg    
 10.        10.        10.        100.       1.K        10.K       100.       100.      -10.Meg    
#           v(1)       v(2)       v(3)       v(4)       v(5)       v(6)       v(7)       v(8)      
 1.         1.         10.        10.        10.        10.        10.        10.       -100.K     
 1.5849     1.5849     10.        15.849     25.119     39.811     15.849     15.849    -251.19K   
 2.5119     2.5119     10.        25.119     63.096     158.49     25.119     25.119    -630.96K   
 3.9811     3.9811     10.        39.811     158.49     630.96     39.811     39.811    -1.5849Meg 
 6.3096     6.3096     10.        63.096     398.11     2.5119K    63.096     63.096    -3.9811Meg 
 10.        10.        10.        100.       1.K        10.K       100.       100.      -10.Meg    
 15.849     15.849     10.        158.49     2.5119K    39.811K    158.49     158.49    -25.119Meg 
 25.119     25.119     10.        251.19     6.3096K    158.49K    251.19     251.19    -63.096Meg 
 39.811     39.811     10.        398.11     15.849K    630.96K    398.11     398.11    -158.49Meg 
 63.096     63.096     10.        630.96     39.811K    2.5119Meg  630.96     630.96    -398.11Meg 
 100.       100.       10.        1.K        100.K      10.Meg     1.K        1.K       -1.G       
#           v(1)       v(2)       v(3)       v(4)       v(5)       v(6)       v(7)       v(8)      
 32.        32.        10.        320.       10.24K     327.68K    320.       320.      -102.4Meg  
 41.        41.        10.        410.       16.81K     689.21K    410.       410.      -168.1Meg  
 50.        50.        10.        500.       25.K       1.25Meg    500.       500.      -250.Meg   
 59.        59.        10.        590.       34.81K     2.0538Meg  590.       590.      -348.1Meg  
 68.        68.        10.        680.       46.24K     3.1443Meg  680.       680.      -462.4Meg  
