# TABLE as quadratic 
Vs  1  0  DC   1.u
V1  2  0  DC   1.  AC   1.
E2  6  0  2  0  t1 ()
E3  7  0  2  1  t1 ()
E0  5  0  2  0  POSY(   1., 2.)  odd=1
E1  3  0  5  0  t2 ()
E1  4  0  5  1  t2 ()
.model  t1  table  (  order=2  below= 0.  (   0., 0.   1., 1.   2., 4.   3., 9.   4., 16.   5., 25.))
*+()
.model  t2  table  (  order=2  below= 1.56984  (   0., 0.   1., 1.   4., 2.   9., 3.   16., 4.   25., 5.)
+)
*+()
.option out=120 
#           v(1)       v(2)       v(3)       v(4)       v(5)       v(6)       v(7)      
 300.15     1.u        1.         1.         1.         1.         1.         1.        
#           v(1)       v(2)       v(3)       v(4)       v(5)       v(6)       v(7)      
-10.        1.u       -10.       -156.98    -156.98    -100.       0.         0.        
-9.75       1.u       -9.75      -149.23    -149.23    -95.063     0.         0.        
-9.5        1.u       -9.5       -141.68    -141.68    -90.25      0.         0.        
-9.25       1.u       -9.25      -134.32    -134.32    -85.562     0.         0.        
-9.         1.u       -9.        -127.16    -127.16    -81.        0.         0.        
-8.75       1.u       -8.75      -120.19    -120.19    -76.563     0.         0.        
-8.5        1.u       -8.5       -113.42    -113.42    -72.25      0.         0.        
-8.25       1.u       -8.25      -106.85    -106.85    -68.062     0.         0.        
-8.         1.u       -8.        -100.47    -100.47    -64.        0.         0.        
-7.75       1.u       -7.75      -94.289    -94.289    -60.062     0.         0.        
-7.5        1.u       -7.5       -88.304    -88.304    -56.25      0.         0.        
-7.25       1.u       -7.25      -82.515    -82.515    -52.562     0.         0.        
-7.         1.u       -7.        -76.922    -76.922    -49.        0.         0.        
-6.75       1.u       -6.75      -71.526    -71.526    -45.562     0.         0.        
-6.5        1.u       -6.5       -66.326    -66.326    -42.25      0.         0.        
-6.25       1.u       -6.25      -61.322    -61.322    -39.062     0.         0.        
-6.         1.u       -6.        -56.514    -56.514    -36.        0.         0.        
-5.75       1.u       -5.75      -51.903    -51.903    -33.063     0.         0.        
-5.5        1.u       -5.5       -47.488    -47.488    -30.25      0.         0.        
-5.25       1.u       -5.25      -43.269    -43.269    -27.562     0.         0.        
-5.         1.u       -5.        -39.246    -39.246    -25.        0.         0.        
-4.75       1.u       -4.75      -35.42     -35.42     -22.562     0.         0.        
-4.5        1.u       -4.5       -31.789    -31.789    -20.25      0.         0.        
-4.25       1.u       -4.25      -28.355    -28.355    -18.062     0.         0.        
-4.         1.u       -4.        -25.117    -25.117    -16.        0.         0.        
-3.75       1.u       -3.75      -22.076    -22.076    -14.062     0.         0.        
-3.5        1.u       -3.5       -19.231    -19.231    -12.25      0.         0.        
-3.25       1.u       -3.25      -16.581    -16.581    -10.563     0.         0.        
-3.         1.u       -3.        -14.129    -14.129    -9.         0.         0.        
-2.75       1.u       -2.75      -11.872    -11.872    -7.5625     0.         0.        
-2.5        1.u       -2.5       -9.8115    -9.8115    -6.25       0.         0.        
-2.25       1.u       -2.25      -7.9473    -7.9473    -5.0625     0.         0.        
-2.         1.u       -2.        -6.2794    -6.2794    -4.         0.         0.        
-1.75       1.u       -1.75      -4.8076    -4.8076    -3.0625     0.         0.        
-1.5        1.u       -1.5       -3.5321    -3.5321    -2.25       0.         0.        
-1.25       1.u       -1.25      -2.4529    -2.4529    -1.5625     0.         0.        
-1.         1.u       -1.        -1.5698    -1.5698    -1.         0.         0.        
-0.75       1.u       -0.75      -0.88303   -0.88304   -0.5625     0.         0.        
-0.5        1.u       -0.5       -0.39246   -0.39246   -0.25       0.         0.        
-0.25       1.u       -0.25      -0.098115  -0.098117  -0.0625     0.         0.        
 0.         1.u        0.         0.        -1.5698u    0.         0.         0.        
 0.25       1.u        0.25       0.095889   0.095888   0.0625     0.0625     0.0625    
 0.5        1.u        0.5        0.35685    0.35684    0.25       0.25       0.25      
 0.75       1.u        0.75       0.70273    0.70273    0.5625     0.5625     0.5625    
 1.         1.u        1.         1.         1.         1.         1.         1.        
 1.25       1.u        1.25       1.2318     1.2318     1.5625     1.5625     1.5625    
 1.5        1.u        1.5        1.4873     1.4873     2.25       2.25       2.25      
 1.75       1.u        1.75       1.7499     1.7499     3.0625     3.0625     3.0625    
 2.         1.u        2.         2.         2.         4.         4.         4.        
 2.25       1.u        2.25       2.243      2.243      5.0625     5.0625     5.0625    
 2.5        1.u        2.5        2.4952     2.4952     6.25       6.25       6.25      
 2.75       1.u        2.75       2.7499     2.7499     7.5625     7.5625     7.5625    
 3.         1.u        3.         3.         3.         9.         9.         9.        
 3.25       1.u        3.25       3.2483     3.2483     10.563     10.563     10.562    
 3.5        1.u        3.5        3.5002     3.5002     12.25      12.25      12.25     
 3.75       1.u        3.75       3.7521     3.7521     14.063     14.063     14.062    
 4.         1.u        4.         4.         4.         16.        16.        16.       
 4.25       1.u        4.25       4.2468     4.2468     18.063     18.063     18.062    
 4.5        1.u        4.5        4.4971     4.4971     20.25      20.25      20.25     
 4.75       1.u        4.75       4.7489     4.7489     22.562     22.562     22.562    
 5.         1.u        5.         5.         5.         25.        25.        25.       
 5.25       1.u        5.25       5.2563     5.2563     27.563     27.5       27.5      
 5.5        1.u        5.5        5.525      5.525      30.25      30.        30.       
 5.75       1.u        5.75       5.8063     5.8063     33.063     32.5       32.5      
 6.         1.u        6.         6.1        6.1        36.        35.        35.       
 6.25       1.u        6.25       6.4063     6.4063     39.063     37.5       37.5      
 6.5        1.u        6.5        6.725      6.725      42.25      40.        40.       
 6.75       1.u        6.75       7.0563     7.0563     45.563     42.5       42.5      
 7.         1.u        7.         7.4        7.4        49.        45.        45.       
 7.25       1.u        7.25       7.7563     7.7563     52.563     47.5       47.5      
 7.5        1.u        7.5        8.125      8.125      56.25      50.        50.       
 7.75       1.u        7.75       8.5063     8.5063     60.063     52.5       52.5      
 8.         1.u        8.         8.9        8.9        64.        55.        55.       
 8.25       1.u        8.25       9.3063     9.3063     68.063     57.5       57.5      
 8.5        1.u        8.5        9.7251     9.7251     72.25      60.        60.       
 8.75       1.u        8.75       10.156     10.156     76.563     62.5       62.5      
 9.         1.u        9.         10.6       10.6       81.        65.        65.       
 9.25       1.u        9.25       11.056     11.056     85.563     67.5       67.5      
 9.5        1.u        9.5        11.525     11.525     90.25      70.        70.       
 9.75       1.u        9.75       12.006     12.006     95.063     72.5       72.5      
 10.        1.u        10.        12.5       12.5       100.       75.        75.       
