This is the title 
#           v(1)       v(3)       v(4)       v(5)       v(8)       v(9)       v(10)      v(11)      v(12)     
 0.         0.         0.         0.         0.         0.         0.         0.         0.         0.        
-1.         5.        -15.398p   -15.398p   -15.398p    4.19Meg    0.        -4.031     -5.         0.        
-2.         5.         0.24617    0.23805   -260.4      5.9593     0.        -287.16    -5.         0.        
-3.         5.         0.82374    0.79134   -6.5426     3.7688     0.        -5.2768    -5.         0.        
-4.         5.        -9.3404    -9.3114    -4.8436     0.90802    0.        -4.7558    -5.         0.        
-5.         5.        -6.758     -6.7032    -4.8546    -0.18197    0.        -4.4794    -5.         0.        
-6.         5.        -5.0386    -5.0352    -4.8184    -0.91763    0.        -4.4721    -5.         0.        
-7.         5.        -3.479     -3.4769    -4.7747    -2.3295     0.        -3.4816    -5.         0.        
-8.         5.        -0.64741   -0.64213   -4.8722    -3.0373     0.        -0.68953   -5.         0.        
-9.         5.         1.0926     1.0981    -4.9613    -3.33       0.        -37.12     -5.         0.        
-10.        5.        -0.55441   -0.55653   -4.8119    -3.358      0.        -5.0717    -5.         0.        
-11.        5.        -0.44036   -0.44212   -4.7002    -3.4017     0.        -3.8784    -5.         0.        
-12.        5.         1.2071     1.2053    -5.7729    -3.4033     0.        -3.0974    -5.         0.        
-13.        5.         1.3961     1.3866    -5.2355    -3.4033     0.        -2.9802    -5.         0.        
-14.        5.         1.7031     1.6964    -5.0387    -3.4033     0.        -2.6925    -5.         0.        
-15.        5.         1.7408     1.7387    -4.9765    -3.4033     0.        -2.5837    -5.         0.        
-16.        5.         1.7412     1.7411    -4.9717    -3.4033     0.        -2.562     -5.         0.        
-17.        5.         1.7412     1.7412    -4.9717    -3.4033     0.        -2.5611    -5.         0.        
-18.        5.         1.7412     1.7412    -4.9717    -3.4033     0.        -2.5611    -5.         0.        
-19.        5.         1.7412     1.7412    -4.9717    -3.4033     0.        -2.5611    -5.         0.        
-20.        5.         1.7412     1.7412    -4.9717    -3.4033     0.        -2.5611    -5.         0.        
 300.15     5.         1.7412     1.7412    -4.9717    -3.4033     0.        -2.5611    -5.         0.        
GnuCap   System status
iterations: op=21, dc=0, tran=0, fourier=0, total=21
nodes: user=12, subckt=0, model=0, total=12
devices: diodes=10, mosfets=8, gates=0, subckts=0
commons: diodes=16, mosfets=8, gates=0, subckts=0
models:  diodes=2, mosfets=2, gates=0, subckts=0
density=61.1%
