This is the title 
#           v(1)       v(3)       v(4)       v(5)       v(8)       v(9)       v(10)      v(11)      v(12)     
 0.         0.         0.         0.         0.         0.         0.         0.         0.         0.        
-1.         5.        -15.398p   -15.398p   -15.398p    4.19Meg    0.        -4.031     -5.         0.        
-2.         5.         2.8166     1.2389    -246.41    -3.0407     0.        -287.16    -5.         0.        
-3.         5.        -63.952    -46.125     21.061    -3.2728     0.        -4.5571    -5.         0.        
-4.         5.        -5.2643    -5.1649     3.6815    -3.3371     0.        -4.0328    -5.         0.        
-5.         5.        -1.6553    -1.6533     3.593     -3.3999     0.        -0.84118   -5.         0.        
-6.         5.         0.52881    0.5309     2.4989    -3.4033     0.        -95.871    -5.         0.        
-7.         5.         0.92176    0.92386    1.1296    -3.4033     0.        -5.5358    -5.         0.        
-8.         5.        -6.7039    -6.7121     14.78     -3.4033     0.        -4.3645    -5.         0.        
-9.         5.        -4.9562    -4.8517     6.9668    -3.4033     0.        -3.8853    -5.         0.        
-10.        5.        -3.477     -3.4665     4.9492    -3.4033     0.        -3.5933    -5.         0.        
-11.        5.        -0.62144   -0.59526    4.0707    -3.4033     0.        -0.9196    -5.         0.        
-12.        5.         1.107      1.1342     2.3114    -3.4033     0.        -96.995    -5.         0.        
-13.        5.        -4.7107    -4.7632     6.4145    -3.4033     0.        -4.1011    -5.         0.        
-14.        5.        -2.3       -1.7136     4.2499    -3.4033     0.        -3.5998    -5.         0.        
-15.        5.         0.034346   0.6091     3.275     -3.4033     0.        -2.9745    -5.         0.        
-16.        5.         1.213      1.6992    -9.8091    -3.4033     0.        -2.6877    -5.         0.        
-17.        5.         1.3756     1.8111    -7.3078    -3.4033     0.        -2.6491    -5.         0.        
-18.        5.         1.5036     1.8726    -5.1192    -3.4033     0.        -2.6187    -5.         0.        
-19.        5.         1.7216     1.8338    -4.9832    -3.4033     0.        -2.5663    -5.         0.        
-20.        5.         1.7411     1.7447    -4.9721    -3.4033     0.        -2.5611    -5.         0.        
-21.        5.         1.7412     1.7412    -4.9717    -3.4033     0.        -2.5611    -5.         0.        
-22.        5.         1.7412     1.7412    -4.9717    -3.4033     0.        -2.5611    -5.         0.        
-23.        5.         1.7412     1.7412    -4.9717    -3.4033     0.        -2.5611    -5.         0.        
-24.        5.         1.7412     1.7412    -4.9717    -3.4033     0.        -2.5611    -5.         0.        
 300.15     5.         1.7412     1.7412    -4.9717    -3.4033     0.        -2.5611    -5.         0.        
Gnucap   System status
iterations: op=25, dc=0, tran=0, fourier=0, total=25
transient timesteps: accepted=0, rejected=0, total=0
nodes: user=12, subckt=0, model=0, total=12
devices: diodes=10, bjts=0, mosfets=8, gates=0, subckts=0
commons: diodes=16, bjts=0, mosfets=8, gates=0, subckts=0
models:  diodes=2, bjts=0, mosfets=2, gates=0, subckts=0
dctran density=56.9%, ac density=56.9%
