schmitt ckt - ecl compatible schmitt trigger 
#          
 300.15    
#Time       v(1)       v(3)       v(5)       v(6)      
 0.        -1.6       -0.2597    -1.2206    -1.1106    
 10.n      -1.6       -0.2597    -1.2206    -1.1106    
 20.n      -1.59      -0.2597    -1.2206    -1.1106    
 30.n      -1.58      -0.25967   -1.2205    -1.1105    
 40.n      -1.57      -0.2597    -1.2206    -1.1105    
 50.n      -1.56      -0.25967   -1.2205    -1.1105    
 60.n      -1.55      -0.2597    -1.2206    -1.1105    
 70.n      -1.54      -0.25967   -1.2205    -1.1105    
 80.n      -1.53      -0.2597    -1.2206    -1.1105    
 90.n      -1.52      -0.25968   -1.2206    -1.1105    
 100.n     -1.51      -0.2597    -1.2206    -1.1105    
 110.n     -1.5       -0.25969   -1.2206    -1.1105    
 120.n     -1.49      -0.25971   -1.2206    -1.1105    
 130.n     -1.48      -0.25971   -1.2206    -1.1105    
 140.n     -1.47      -0.25974   -1.2206    -1.1104    
 150.n     -1.46      -0.25975   -1.2206    -1.1104    
 160.n     -1.45      -0.2598    -1.2207    -1.1103    
 170.n     -1.44      -0.25984   -1.2207    -1.1102    
 180.n     -1.43      -0.25993   -1.2208    -1.11      
 190.n     -1.42      -0.26004   -1.2208    -1.1097    
 200.n     -1.41      -0.26022   -1.221     -1.1093    
 210.n     -1.4       -0.26046   -1.2211    -1.1087    
 220.n     -1.39      -0.26085   -1.2214    -1.1079    
 230.n     -1.38      -0.26142   -1.2218    -1.1066    
 240.n     -1.37      -0.26229   -1.2224    -1.1046    
 250.n     -1.36      -0.26362   -1.2233    -1.1015    
 260.n     -1.35      -0.26576   -1.2248    -1.0967    
 270.n     -1.34      -0.26929   -1.2273    -1.0887    
 280.n     -1.33      -0.27583   -1.2318    -1.0739    
 290.n     -1.32      -0.29157   -1.2424    -1.0388    
 300.n     -1.31      -0.4554    -1.3315    -0.70019   
 310.n     -1.3       -0.77444   -1.6303    -0.0018871 
 320.n     -1.29      -0.77185   -1.6144    -0.026799  
 330.n     -1.28      -0.77047   -1.6059    -0.037453  
 340.n     -1.27      -0.7598    -1.5836    -0.048941  
 350.n     -1.26      -0.77273   -1.6053    -0.040214  
 360.n     -1.25      -0.76449   -1.5894    -0.046702  
 370.n     -1.24      -0.77517   -1.6055    -0.041995  
 380.n     -1.23      -0.76901   -1.5945    -0.045279  
 390.n     -1.22      -0.77775   -1.6064    -0.043115  
 400.n     -1.21      -0.77339   -1.5991    -0.044399  
 410.n     -1.2       -0.78048   -1.6077    -0.043795  
 420.n     -1.2       -0.77601   -1.6021    -0.043872  
 430.n     -1.2       -0.77982   -1.6065    -0.04418   
 440.n     -1.2       -0.77661   -1.6031    -0.04359   
 450.n     -1.2       -0.77926   -1.6057    -0.04438   
 460.n     -1.2       -0.77712   -1.6039    -0.043455  
 470.n     -1.2       -0.77881   -1.605     -0.044464  
 480.n     -1.2       -0.77753   -1.6044    -0.043411  
 490.n     -1.2       -0.77843   -1.6045    -0.044478  
 500.n     -1.2       -0.77787   -1.6048    -0.043421  
 510.n     -1.2       -0.77812   -1.6042    -0.04445   
 520.n     -1.21      -0.77653   -1.604     -0.043454  
 530.n     -1.22      -0.77437   -1.6012    -0.044398  
 540.n     -1.23      -0.77323   -1.6013    -0.043512  
 550.n     -1.24      -0.77066   -1.5983    -0.04434   
 560.n     -1.25      -0.76988   -1.5986    -0.043574  
 570.n     -1.26      -0.767     -1.5954    -0.044284  
 580.n     -1.27      -0.76648   -1.5958    -0.043636  
 590.n     -1.28      -0.76337   -1.5925    -0.044237  
 600.n     -1.29      -0.76306   -1.5929    -0.043699  
 610.n     -1.3       -0.75977   -1.5897    -0.044206  
 620.n     -1.31      -0.7596    -1.5901    -0.043772  
 630.n     -1.32      -0.75617   -1.5869    -0.044207  
 640.n     -1.33      -0.7561    -1.5872    -0.043876  
 650.n     -1.34      -0.75257   -1.5841    -0.044275  
 660.n     -1.35      -0.75253   -1.5842    -0.044064  
 670.n     -1.36      -0.74892   -1.5813    -0.044493  
 680.n     -1.37      -0.74885   -1.5812    -0.044464  
 690.n     -1.38      -0.74511   -1.5783    -0.045065  
 700.n     -1.39      -0.7449    -1.578     -0.045388  
 710.n     -1.4       -0.7409    -1.5751    -0.046495  
 720.n     -1.41      -0.74031   -1.5743    -0.047631  
 730.n     -1.42      -0.73565   -1.5711    -0.050114  
 740.n     -1.43      -0.734     -1.5694    -0.053434  
 750.n     -1.44      -0.72735   -1.565     -0.060056  
 760.n     -1.45      -0.7219    -1.5604    -0.071196  
 770.n     -1.46      -0.70475   -1.5491    -0.09947   
 780.n     -1.47      -0.61409   -1.4958    -0.27828   
 790.n     -1.48      -0.24174   -1.1638    -1.1941    
 800.n     -1.49      -0.2491    -1.1899    -1.1409    
 810.n     -1.5       -0.25315   -1.2036    -1.1192    
 820.n     -1.51      -0.26561   -1.2353    -1.1049    
 830.n     -1.52      -0.25448   -1.208     -1.114     
 840.n     -1.53      -0.26442   -1.2314    -1.109     
 850.n     -1.54      -0.25551   -1.2113    -1.1109    
 860.n     -1.55      -0.2635    -1.2285    -1.1114    
 870.n     -1.56      -0.25632   -1.2139    -1.1091    
 880.n     -1.57      -0.26277   -1.2262    -1.1127    
 890.n     -1.58      -0.25697   -1.2159    -1.1082    
 900.n     -1.59      -0.26219   -1.2244    -1.1134    
 910.n     -1.6       -0.25748   -1.2175    -1.1078    
 920.n     -1.6       -0.26169   -1.223     -1.1135    
 930.n     -1.6       -0.2579    -1.2187    -1.1076    
 940.n     -1.6       -0.26132   -1.2219    -1.1135    
 950.n     -1.6       -0.25824   -1.2197    -1.1077    
 960.n     -1.6       -0.26102   -1.2211    -1.1134    
 970.n     -1.6       -0.25851   -1.2205    -1.1079    
 980.n     -1.6       -0.26077   -1.2204    -1.1131    
 990.n     -1.6       -0.25874   -1.2211    -1.1082    
 1.u       -1.6       -0.26056   -1.2198    -1.1129    
v(6)  -2.               -1.5             -1.               -0.5              0.
v(1)  -2.               -1.5             -1.               -0.5              0.
        +-----------------+----------------+-----------------+----------------+
 0.     |             +   .            *   .                 .                |
 10.n   |             +   .            *   .                 .                |
 20.n   |             +   .            *   .                 .                |
 30.n   |              +  .            *   .                 .                |
 40.n   |              +  .            *   .                 .                |
 50.n   |              +  .            *   .                 .                |
 60.n   |               + .            *   .                 .                |
 70.n   |               + .            *   .                 .                |
 80.n   |               + .            *   .                 .                |
 90.n   |                +.            *   .                 .                |
 100.n  |                +.            *   .                 .                |
 110.n  |                +.            *   .                 .                |
 120.n  |                 +            *   .                 .                |
 130.n  |                 +            *   .                 .                |
 140.n  |                 .+           *   .                 .                |
 150.n  |                 .+           *   .                 .                |
 160.n  |                 .+           *   .                 .                |
 170.n  |                 . +          *   .                 .                |
 180.n  |                 . +          *   .                 .                |
 190.n  |                 . +          *   .                 .                |
 200.n  |                 .  +         *   .                 .                |
 210.n  |                 .  +         *   .                 .                |
 220.n  |                 .  +         *   .                 .                |
 230.n  |                 .   +        *   .                 .                |
 240.n  |                 .   +        *   .                 .                |
 250.n  |                 .   +        *   .                 .                |
 260.n  |                 .    +        *  .                 .                |
 270.n  |                 .    +        *  .                 .                |
 280.n  |                 .    +        *  .                 .                |
 290.n  |                 .     +         *.                 .                |
 300.n  |                 .     +          .         *       .                |
 310.n  |                 .     +          .                 .                *
 320.n  |                 .      +         .                 .               *|
 330.n  |                 .      +         .                 .               *|
 340.n  |                 .       +        .                 .              * |
 350.n  |                 .       +        .                 .               *|
 360.n  |                 .       +        .                 .              * |
 370.n  |                 .        +       .                 .               *|
 380.n  |                 .        +       .                 .              * |
 390.n  |                 .        +       .                 .              * |
 400.n  |                 .         +      .                 .              * |
 410.n  |                 .         +      .                 .              * |
 420.n  |                 .         +      .                 .              * |
 430.n  |                 .         +      .                 .              * |
 440.n  |                 .         +      .                 .              * |
 450.n  |                 .         +      .                 .              * |
 460.n  |                 .         +      .                 .              * |
 470.n  |                 .         +      .                 .              * |
 480.n  |                 .         +      .                 .              * |
 490.n  |                 .         +      .                 .              * |
 500.n  |                 .         +      .                 .              * |
 510.n  |                 .         +      .                 .              * |
 520.n  |                 .         +      .                 .              * |
 530.n  |                 .        +       .                 .              * |
 540.n  |                 .        +       .                 .              * |
 550.n  |                 .        +       .                 .              * |
 560.n  |                 .       +        .                 .              * |
 570.n  |                 .       +        .                 .              * |
 580.n  |                 .       +        .                 .              * |
 590.n  |                 .      +         .                 .              * |
 600.n  |                 .      +         .                 .              * |
 610.n  |                 .     +          .                 .              * |
 620.n  |                 .     +          .                 .              * |
 630.n  |                 .     +          .                 .              * |
 640.n  |                 .    +           .                 .              * |
 650.n  |                 .    +           .                 .              * |
 660.n  |                 .    +           .                 .              * |
 670.n  |                 .   +            .                 .              * |
 680.n  |                 .   +            .                 .              * |
 690.n  |                 .   +            .                 .              * |
 700.n  |                 .  +             .                 .              * |
 710.n  |                 .  +             .                 .              * |
 720.n  |                 .  +             .                 .              * |
 730.n  |                 . +              .                 .              * |
 740.n  |                 . +              .                 .              * |
 750.n  |                 . +              .                 .              * |
 760.n  |                 .+               .                 .              * |
 770.n  |                 .+               .                 .             *  |
 780.n  |                 .+               .                 .      *         |
 790.n  |                 +         *      .                 .                |
 800.n  |                 +           *    .                 .                |
 810.n  |                +.            *   .                 .                |
 820.n  |                +.            *   .                 .                |
 830.n  |                +.            *   .                 .                |
 840.n  |               + .            *   .                 .                |
 850.n  |               + .            *   .                 .                |
 860.n  |               + .            *   .                 .                |
 870.n  |              +  .            *   .                 .                |
 880.n  |              +  .            *   .                 .                |
 890.n  |              +  .            *   .                 .                |
 900.n  |             +   .            *   .                 .                |
 910.n  |             +   .            *   .                 .                |
 920.n  |             +   .            *   .                 .                |
 930.n  |             +   .            *   .                 .                |
 940.n  |             +   .            *   .                 .                |
 950.n  |             +   .            *   .                 .                |
 960.n  |             +   .            *   .                 .                |
 970.n  |             +   .            *   .                 .                |
 980.n  |             +   .            *   .                 .                |
 990.n  |             +   .            *   .                 .                |
 1.u    |             +   .            *   .                 .                |
        +-----------------+----------------+-----------------+----------------+
Gnucap   System status
iterations: op=8, dc=0, tran=588, fourier=0, total=1422
transient timesteps: accepted=232, rejected=6, total=238
nodes: user=8, subckt=0, model=8, total=16
devices: diodes=0, bjts=4, mosfets=0, gates=0, subckts=0
commons: diodes=0, bjts=4, mosfets=0, gates=0, subckts=0
models:  diodes=1, bjts=1, mosfets=0, gates=0, subckts=0
dctran density=47.7%, ac density=47.7%
