difpair ckt - simple differential pair 
#           v(1)       v(2)       v(3)       v(4)       v(5)       v(6)      
+ v(7)       v(8)       v(9)      
 300.15    -76.611p   -0.0076611 -0.0076611  5.2291     5.2291    -0.76997   
+-11.221     12.       -12.       
#           vb(Q1)     vb(Q2)     vb(Q3)     vb(Q4)     vb(qnl)   
 300.15    -0.0076611 -0.0076611 -11.221    -11.221     ??        
#           vbi(Q1)    vbi(Q2)    vbi(Q3)    vbi(Q4)    vbi(qnl)  
 300.15    -0.0084272 -0.0084272 -11.223    -11.223     ??        
#           i(Vin)     i(Vcc)     i(Vee)    
 300.15    -7.6611u   -0.0025152  0.0025306 
#           ic(Q1)     ic(Q2)     ic(Q3)     ic(Q4)     ic(qnl)   
 300.15     677.09u    677.09u    0.0013695  0.0011327  ??        
#           ice(Q1)    ice(Q2)    ice(Q3)    ice(Q4)    ice(qnl)  
 300.15     677.09u    677.09u    0.0013695  0.0011327  ??        
#           ib(Q1)     ib(Q2)     ib(Q3)     ib(Q4)     ib(qnl)   
 300.15     7.6611u    7.6611u    14.159u    14.159u    ??        
#           ipi(Q1)    ipi(Q2)    ipi(Q3)    ipi(Q4)    ipi(qnl)  
 300.15     7.6611u    7.6611u    14.159u    14.159u    ??        
#           imu(Q1)    imu(Q2)    imu(Q3)    imu(Q4)    imu(qnl)  
 300.15    -5.2376p   -5.2376p   -10.453p   -1.4212f    ??        
#           ie(Q1)     ie(Q2)     ie(Q3)     ie(Q4)     ie(qnl)   
 300.15    -684.75u   -684.75u   -0.0013837 -0.0011469  ??        
#           vbe(Q1)    vbe(Q2)    vbe(Q3)    vbe(Q4)    vbe(qnl)  
 300.15     0.76231    0.76231    0.77885    0.77885    ??        
#           vbei(Q1)   vbei(Q2)   vbei(Q3)   vbei(Q4)   vbei(qnl) 
 300.15     0.76155    0.76155    0.77743    0.77743    ??        
#           vbc(Q1)    vbc(Q2)    vbc(Q3)    vbc(Q4)    vbc(qnl)  
 300.15    -5.2368    -5.2368    -10.451     0.         ??        
#           vbci(Q1)   vbci(Q2)   vbci(Q3)   vbci(Q4)   vbci(qnl) 
 300.15    -5.2375    -5.2375    -10.453    -0.0014159  ??        
#           gm(Q1)     gm(Q2)     gm(Q3)     gm(Q4)     gm(qnl)   
 300.15     0.026166   0.026166   0.052927   0.043773   ??        
#           gpi(Q1)    gpi(Q2)    gpi(Q3)    gpi(Q4)    gpi(qnl)  
 300.15     296.21u    296.21u    547.43u    547.43u    ??        
#           gmu(Q1)    gmu(Q2)    gmu(Q3)    gmu(Q4)    gmu(qnl)  
 300.15     1.p        1.p        1.p        1.0037p    ??        
#           gx(Q1)     gx(Q2)     gx(Q3)     gx(Q4)     gx(qnl)   
 300.15     0.01       0.01       0.01       0.01       ??        
#           go(Q1)     go(Q2)     go(Q3)     go(Q4)     go(qnl)   
 300.15     12.258u    12.258u    22.654u    22.654u    ??        
#           cpi(Q1)    cpi(Q2)    cpi(Q3)    cpi(Q4)    cpi(qnl)  
 300.15     12.907p    12.907p    20.991p    18.245p    ??        
#           cmu(Q1)    cmu(Q2)    cmu(Q3)    cmu(Q4)    cmu(qnl)  
 300.15     1.0076p    1.0076p    819.45f    1.9988p    ??        
#           cbx(Q1)    cbx(Q2)    cbx(Q3)    cbx(Q4)    cbx(qnl)  
 300.15     0.         0.         0.         0.         ??        
#           ccs(Q1)    ccs(Q2)    ccs(Q3)    ccs(Q4)    ccs(qnl)  
 300.15     2.p        2.p        2.p        2.p        ??        
#           i(Rs1)     i(Rs2)     i(Rc1)     i(Rc2)     i(Rbias)  
 300.15     7.6611u   -7.6611u   -677.09u   -677.09u   -0.0011611 
#           p(Rs1)     p(Rs2)     p(Rc1)     p(Rc2)     p(Rbias)  
 300.15     58.693n    58.693n    0.0045845  0.0045845  0.026961  
#           i(Vin)     i(Vcc)     i(Vee)    
 300.15    -7.6611u   -0.0025152  0.0025306 
#           p(Vin)     p(Vcc)     p(Vee)    
 300.15     586.9E-18 -0.030183  -0.030367  
