difpair ckt - simple differential pair 
#           v(1)       v(2)       v(3)       v(4)       v(5)       v(6)      
+ v(7)       v(8)       v(9)      
 300.15    -76.611p   -0.0076611 -0.0076611  5.2291     5.2291    -0.76997   
+-11.221     12.       -12.       
#           vb(Q1)     vb(Q2)     vb(Q3)     vb(Q4)     vb(qnl)   
 300.15    -0.0076611 -0.0076611 -11.221    -11.221     ??        
#           vbi(Q1)    vbi(Q2)    vbi(Q3)    vbi(Q4)    vbi(qnl)  
 300.15    -0.0084272 -0.0084272 -11.223    -11.223     ??        
#           i(Vin)     i(Vcc)     i(Vee)    
 300.15    -7.6611u   -0.0025152  0.0025306 
#           ic(Q1)     ic(Q2)     ic(Q3)     ic(Q4)     ic(qnl)   
 300.15     677.09u    677.09u    0.0013695  0.0011327  ??        
#           ice(Q1)    ice(Q2)    ice(Q3)    ice(Q4)    ice(qnl)  
 300.15     677.09u    677.09u    0.0013695  0.0011327  ??        
#           ib(Q1)     ib(Q2)     ib(Q3)     ib(Q4)     ib(qnl)   
 300.15     7.6611u    7.6611u    14.159u    14.159u    ??        
#           ipi(Q1)    ipi(Q2)    ipi(Q3)    ipi(Q4)    ipi(qnl)  
 300.15     7.6611u    7.6611u    14.159u    14.159u    ??        
#           imu(Q1)    imu(Q2)    imu(Q3)    imu(Q4)    imu(qnl)  
 300.15    -5.2376p   -5.2376p   -10.453p   -1.4212f    ??        
#           ie(Q1)     ie(Q2)     ie(Q3)     ie(Q4)     ie(qnl)   
 300.15    -684.75u   -684.75u   -0.0013837 -0.0011469  ??        
#           vbe(Q1)    vbe(Q2)    vbe(Q3)    vbe(Q4)    vbe(qnl)  
 300.15     0.76231    0.76231    0.77885    0.77885    ??        
#           vbei(Q1)   vbei(Q2)   vbei(Q3)   vbei(Q4)   vbei(qnl) 
 300.15     0.76155    0.76155    0.77743    0.77743    ??        
#           vbc(Q1)    vbc(Q2)    vbc(Q3)    vbc(Q4)    vbc(qnl)  
 300.15    -5.2368    -5.2368    -10.451     0.         ??        
#           vbci(Q1)   vbci(Q2)   vbci(Q3)   vbci(Q4)   vbci(qnl) 
 300.15    -5.2375    -5.2375    -10.453    -0.0014159  ??        
#           gm(Q1)     gm(Q2)     gm(Q3)     gm(Q4)     gm(qnl)   
 300.15     0.026166   0.026166   0.052927   0.043773   ??        
#           gpi(Q1)    gpi(Q2)    gpi(Q3)    gpi(Q4)    gpi(qnl)  
 300.15     296.21u    296.21u    547.43u    547.43u    ??        
#           gmu(Q1)    gmu(Q2)    gmu(Q3)    gmu(Q4)    gmu(qnl)  
 300.15     1.p        1.p        1.p        1.0037p    ??        
#           gx(Q1)     gx(Q2)     gx(Q3)     gx(Q4)     gx(qnl)   
 300.15     0.01       0.01       0.01       0.01       ??        
#           go(Q1)     go(Q2)     go(Q3)     go(Q4)     go(qnl)   
 300.15     12.258u    12.258u    22.654u    22.654u    ??        
#           cpi(Q1)    cpi(Q2)    cpi(Q3)    cpi(Q4)    cpi(qnl)  
 300.15     0.         0.         0.         0.         ??        
#           cmu(Q1)    cmu(Q2)    cmu(Q3)    cmu(Q4)    cmu(qnl)  
 300.15     0.         0.         0.         0.         ??        
#           cbx(Q1)    cbx(Q2)    cbx(Q3)    cbx(Q4)    cbx(qnl)  
 300.15     0.         0.         0.         0.         ??        
#           ccs(Q1)    ccs(Q2)    ccs(Q3)    ccs(Q4)    ccs(qnl)  
 300.15     0.         0.         0.         0.         ??        
#           i(Rs1)     i(Rs2)     i(Rc1)     i(Rc2)     i(Rbias)  
 300.15     7.6611u   -7.6611u   -677.09u   -677.09u   -0.0011611 
#           p(Rs1)     p(Rs2)     p(Rc1)     p(Rc2)     p(Rbias)  
 300.15     58.693n    58.693n    0.0045845  0.0045845  0.026961  
#           i(Vin)     i(Vcc)     i(Vee)    
 300.15    -7.6611u   -0.0025152  0.0025306 
#           p(Vin)     p(Vcc)     p(Vee)    
 300.15     586.9E-18 -0.030183  -0.030367  
v(5)  -20.              -10.              0.                10.             20.
        +-----------------+----------------+-----------------+----------------+
 0.     |                 .                .        *        .                |
 5.n    |                 .                .           *     .                |
 10.n   |                 .                .             *   .                |
 15.n   |                 .                .               * .                |
 20.n   |                 .                .                *.                |
 25.n   |                 .                .                 *                |
 30.n   |                 .                .                 .*               |
 35.n   |                 .                .                 .*               |
 40.n   |                 .                .                 .*               |
 45.n   |                 .                .                 .*               |
 50.n   |                 .                .                 .*               |
 55.n   |                 .                .                 .*               |
 60.n   |                 .                .                 .*               |
 65.n   |                 .                .                 .*               |
 70.n   |                 .                .                 .*               |
 75.n   |                 .                .                 *                |
 80.n   |                 .                .                *.                |
 85.n   |                 .                .               * .                |
 90.n   |                 .                .             *   .                |
 95.n   |                 .                .           *     .                |
 100.n  |                 .                .        *        .                |
 105.n  |                 .                .      *          .                |
 110.n  |                 .                .    *            .                |
 115.n  |                 .                .  *              .                |
 120.n  |                 .                .*                .                |
 125.n  |                 .                *                 .                |
 130.n  |                 .               *.                 .                |
 135.n  |                 .               *.                 .                |
 140.n  |                 .               *.                 .                |
 145.n  |                 .               *.                 .                |
 150.n  |                 .               *.                 .                |
 155.n  |                 .               *.                 .                |
 160.n  |                 .               *.                 .                |
 165.n  |                 .               *.                 .                |
 170.n  |                 .               *.                 .                |
 175.n  |                 .                *                 .                |
 180.n  |                 .                .*                .                |
 185.n  |                 .                .  *              .                |
 190.n  |                 .                .    *            .                |
 195.n  |                 .                .      *          .                |
 200.n  |                 .                .        *        .                |
 205.n  |                 .                .           *     .                |
 210.n  |                 .                .             *   .                |
 215.n  |                 .                .               * .                |
 220.n  |                 .                .                *.                |
 225.n  |                 .                .                 *                |
 230.n  |                 .                .                 .*               |
 235.n  |                 .                .                 .*               |
 240.n  |                 .                .                 .*               |
 245.n  |                 .                .                 .*               |
 250.n  |                 .                .                 .*               |
 255.n  |                 .                .                 .*               |
 260.n  |                 .                .                 .*               |
 265.n  |                 .                .                 .*               |
 270.n  |                 .                .                 .*               |
 275.n  |                 .                .                 *                |
 280.n  |                 .                .                *.                |
 285.n  |                 .                .               * .                |
 290.n  |                 .                .             *   .                |
 295.n  |                 .                .           *     .                |
 300.n  |                 .                .        *        .                |
 305.n  |                 .                .      *          .                |
 310.n  |                 .                .    *            .                |
 315.n  |                 .                .  *              .                |
 320.n  |                 .                .*                .                |
 325.n  |                 .                *                 .                |
 330.n  |                 .               *.                 .                |
 335.n  |                 .               *.                 .                |
 340.n  |                 .               *.                 .                |
 345.n  |                 .               *.                 .                |
 350.n  |                 .               *.                 .                |
 355.n  |                 .               *.                 .                |
 360.n  |                 .               *.                 .                |
 365.n  |                 .               *.                 .                |
 370.n  |                 .               *.                 .                |
 375.n  |                 .                *                 .                |
 380.n  |                 .                .*                .                |
 385.n  |                 .                .  *              .                |
 390.n  |                 .                .    *            .                |
 395.n  |                 .                .      *          .                |
 400.n  |                 .                .        *        .                |
 405.n  |                 .                .           *     .                |
 410.n  |                 .                .             *   .                |
 415.n  |                 .                .               * .                |
 420.n  |                 .                .                *.                |
 425.n  |                 .                .                 *                |
 430.n  |                 .                .                 .*               |
 435.n  |                 .                .                 .*               |
 440.n  |                 .                .                 .*               |
 445.n  |                 .                .                 .*               |
 450.n  |                 .                .                 .*               |
 455.n  |                 .                .                 .*               |
 460.n  |                 .                .                 .*               |
 465.n  |                 .                .                 .*               |
 470.n  |                 .                .                 .*               |
 475.n  |                 .                .                 *                |
 480.n  |                 .                .                *.                |
 485.n  |                 .                .               * .                |
 490.n  |                 .                .             *   .                |
 495.n  |                 .                .           *     .                |
 500.n  |                 .                .        *        .                |
        +-----------------+----------------+-----------------+----------------+
vm(5) -30.               0.               30.               60.             90.
vp(5) -30.               0.               30.               60.             90.
        +-----------------+----------------+-----------------+----------------+
 1.     |                 +                .                 .               *|
 1.2589 |                 +                .                 .               *|
 1.5849 |                 +                .                 .               *|
 1.9953 |                 +                .                 .               *|
 2.5119 |                 +                .                 .               *|
 3.1623 |                 +                .                 .               *|
 3.9811 |                 +                .                 .               *|
 5.0119 |                 +                .                 .               *|
 6.3096 |                 +                .                 .               *|
 7.9433 |                 +                .                 .               *|
 10.    |                 +                .                 .               *|
 12.589 |                 +                .                 .               *|
 15.849 |                 +                .                 .               *|
 19.953 |                 +                .                 .               *|
 25.119 |                 +                .                 .               *|
 31.623 |                 +                .                 .               *|
 39.811 |                 +                .                 .               *|
 50.119 |                 +                .                 .               *|
 63.096 |                 +                .                 .               *|
 79.433 |                 +                .                 .               *|
 100.   |                 +                .                 .               *|
 125.89 |                 +                .                 .               *|
 158.49 |                 +                .                 .               *|
 199.53 |                 +                .                 .               *|
 251.19 |                 +                .                 .               *|
 316.23 |                 +                .                 .               *|
 398.11 |                 +                .                 .               *|
 501.19 |                 +                .                 .               *|
 630.96 |                 +                .                 .               *|
 794.33 |                 +                .                 .               *|
 1.K    |                 +                .                 .               *|
 1.2589K|                 +                .                 .               *|
 1.5849K|                 +                .                 .               *|
 1.9953K|                 +                .                 .               *|
 2.5119K|                 +                .                 .               *|
 3.1623K|                 +                .                 .               *|
 3.9811K|                 +                .                 .               *|
 5.0119K|                 +                .                 .               *|
 6.3096K|                 +                .                 .               *|
 7.9433K|                 +                .                 .               *|
 10.K   |                 +                .                 .               *|
 12.589K|                 +                .                 .               *|
 15.849K|                 +                .                 .               *|
 19.953K|                 +                .                 .               *|
 25.119K|                 +                .                 .               *|
 31.623K|                 +                .                 .               *|
 39.811K|                 +                .                 .               *|
 50.119K|                 +                .                 .               *|
 63.096K|                 +                .                 .               *|
 79.433K|                 +                .                 .               *|
 100.K  |                 +                .                 .               *|
 125.89K|                 +                .                 .               *|
 158.49K|                 +                .                 .               *|
 199.53K|                 +                .                 .               *|
 251.19K|                 +                .                 .               *|
 316.23K|                 +                .                 .               *|
 398.11K|                 +                .                 .               *|
 501.19K|                 +                .                 .               *|
 630.96K|                 +                .                 .               *|
 794.33K|                 +                .                 .               *|
 1.Meg  |                 +                .                 .               *|
 1.2589M|                 +                .                 .               *|
 1.5849M|                 +                .                 .               *|
 1.9953M|                 +                .                 .               *|
 2.5119M|                 +                .                 .               *|
 3.1623M|                 +                .                 .               *|
 3.9811M|                 +                .                 .               *|
 5.0119M|                 +                .                 .               *|
 6.3096M|                 +                .                 .               *|
 7.9433M|                 +                .                 .               *|
 10.Meg |                 +                .                 .               *|
 12.589M|                 +                .                 .               *|
 15.849M|                 +                .                 .               *|
 19.953M|                 +                .                 .               *|
 25.119M|                 +                .                 .               *|
 31.623M|                 +                .                 .               *|
 39.811M|                 +                .                 .               *|
 50.119M|                 +                .                 .               *|
 63.096M|                 +                .                 .               *|
 79.433M|                 +                .                 .               *|
 100.Meg|                 +                .                 .               *|
 125.89M|                 +                .                 .               *|
 158.49M|                 +                .                 .               *|
 199.53M|                 +                .                 .               *|
 251.19M|                 +                .                 .               *|
 316.23M|                 +                .                 .               *|
 398.11M|                 +                .                 .               *|
 501.19M|                 +                .                 .               *|
 630.96M|                 +                .                 .               *|
 794.33M|                 +                .                 .               *|
 1.G    |                 +                .                 .               *|
 1.2589G|                 +                .                 .               *|
 1.5849G|                 +                .                 .               *|
 1.9953G|                 +                .                 .               *|
 2.5119G|                 +                .                 .               *|
 3.1623G|                 +                .                 .               *|
 3.9811G|                 +                .                 .               *|
