Mutual inductance test circuit 
V1  1  0  PULSE  iv= 0.  pv= 1.  delay= 0.002  rise= 0.002  fall= 0.002  width= 0.002  period= 0.01  AC   1.
R1a  1  2  22.
K1  L1a  L1b  0.75
L1a  2  0  0.56
L1b  3  0  0.79
R1b  3  0  75.
V2  4  0  PULSE  iv= 0.  pv= 1.  delay= 0.002  rise= 0.002  fall= 0.002  width= 0.002  period= 0.01  AC   1.
R2a  4  5  22.
L2a  5  6  0.06115133  
L2b  6  0  0.4988487   
L2c  6  7  0.2911513   
R2b  7  0  75.
V3  8  0  PULSE  iv= 0.  pv= 1.  delay= 0.002  rise= 0.002  fall= 0.002  width= 0.002  period= 0.01  AC   1.
R3a  8  9  22.
L3a  10  0  0.56
L3b  11  0  0.79
E3a  9  10  11  0  0.631454
E3b  12  11  10  0  0.8908012   
R3b  12  0  75.
.options nopage 
#Freq       v(2)       v(3)       v(5)       v(7)       v(9)       v(12)     
 0.1        0.01599    0.014244   0.01599    0.014244   0.01599    0.014244  
 0.31623    0.050473   0.044959   0.050473   0.044959   0.050473   0.044959  
 1.         0.15675    0.13958    0.15675    0.13958    0.15675    0.13958   
 3.1623     0.42608    0.37797    0.42608    0.37797    0.42608    0.37797   
 10.        0.71644    0.61303    0.71644    0.61303    0.71644    0.61303   
 31.623     0.85509    0.56179    0.85509    0.56179    0.85509    0.56179   
 100.       0.96752    0.28135    0.96752    0.28135    0.96752    0.28135   
 316.23     0.99627    0.096351   0.99627    0.096351   0.99627    0.096351  
 1.K        0.99962    0.030735   0.99962    0.030735   0.99962    0.030735  
#Time       v(2)       v(3)       v(5)       v(7)       v(9)       v(12)     
 0.         0.         0.         0.         0.         0.         0.        
 0.001      0.         0.         0.         0.         0.         0.        
 0.002      0.         0.         0.         0.         0.         0.        
 0.003      0.47904    0.043691   0.47904    0.043691   0.47904    0.043691  
 0.004      0.92138    0.1587     0.92138    0.1587     0.92138    0.1587    
 0.005      0.85441    0.28164    0.85441    0.28164    0.85441    0.28164   
 0.006      0.79887    0.37003    0.79887    0.37003    0.79887    0.37003   
 0.007      0.2731     0.38866    0.2731     0.38866    0.2731     0.38866   
 0.008     -0.20913    0.31634   -0.20913    0.31634   -0.20913    0.31634   
 0.009     -0.17675    0.22132   -0.17675    0.22132   -0.17675    0.22132   
 0.01      -0.15163    0.14978   -0.15163    0.14978   -0.15163    0.14978   
V1  1  0  PULSE  iv= 0.  pv= 1.  delay= 0.002  rise= 0.002  fall= 0.002  width= 0.002  period= 0.01  AC   1.
R1a  1  2  22.
K1 L1a L1b  0.75
L1a  2  0  0.56
L1b  3  0  0.79
R1b  3  0  75.
V2  4  0  PULSE  iv= 0.  pv= 1.  delay= 0.002  rise= 0.002  fall= 0.002  width= 0.002  period= 0.01  AC   1.
R2a  4  5  22.
L2a  5  6  0.06115133  
L2b  6  0  0.4988487   
L2c  6  7  0.2911513   
R2b  7  0  75.
V3  8  0  PULSE  iv= 0.  pv= 1.  delay= 0.002  rise= 0.002  fall= 0.002  width= 0.002  period= 0.01  AC   1.
R3a  8  9  22.
L3a  10  0  0.56
L3b  11  0  0.79
E3a  9  10  11  0  0.631454
E3b  12  11  10  0  0.8908012   
R3b  12  0  75.
.options nopage 
.list 
.width out=132 
.print ac v(2) v(3) v(5) v(7) v(9) v(12) 
.ac dec 2 .1 1k 
.print tran v(2) v(3) v(5) v(7) v(9) v(12) 
.tran .001 .01 0 .0001 
