.title mos7 inverter 
#          
 300.15    
#           v(1)       v(2)       v(3)       v(4)       v(5)       v(6)       v(7)      
 0.         5.         0.         5.         4.656      5.         4.3833     5.        
 0.25       5.         0.25       5.         4.6379     5.         4.345      5.        
 0.5        5.         0.5        5.         4.6164     5.         4.2976     5.        
 0.75       5.         0.75       5.         4.5903     5.         4.237      4.9999    
 1.         5.         1.         4.9962     4.5534     4.9962     4.1551     4.9725    
 1.25       5.         1.25       4.9449     4.4416     4.9449     4.0333     4.6524    
 1.5        5.         1.5        4.8334     4.1831     4.8334     3.8079     4.1054    
 1.75       5.         1.75       4.6434     3.251      4.6434     3.3929     3.4404    
 2.         5.         2.         4.1824     1.5689     4.1824     2.9042     2.689     
 2.25       5.         2.25       0.50019    0.40069    0.50019    2.403      1.8867    
 2.5        5.         2.5        0.23364    0.21562    0.23364    1.9146     1.1001    
 2.75       5.         2.75       0.13874    0.13114    0.13874    1.4539     0.6237    
 3.         5.         3.         0.083035   0.079361   0.083035   1.033      0.47852   
 3.25       5.         3.25       0.046572   0.044802   0.046572   0.6636     0.4039    
 3.5        5.         3.5        0.022212   0.021459   0.022212   0.3558     0.35527   
 3.75       5.         3.75       0.0068481  0.0066359  0.0068481  0.12194    0.32024   
 4.         5.         4.         378.95u    368.u      378.95u    0.0073666  0.29353   
 4.25       5.         4.25       1.6913u    1.645u     1.6913u    34.874u    0.27237   
 4.5        5.         4.5        5.0867n    4.9542n    5.0867n    110.38n    0.25514   
 4.75       5.         4.75       3.3392n    3.2561n    3.3392n    75.888n    0.24081   
 5.         5.         5.         3.2016n    3.1251n    3.2016n    75.888n    0.22868   
#Time       v(1)       v(2)       v(3)       v(4)       v(5)       v(6)       v(7)      
 0.         5.         0.         5.         4.656      5.         4.3833     5.        
 100.p      5.         0.         5.         4.656      5.         4.3833     5.        
 200.p      5.         0.         5.         4.656      5.         4.3833     5.        
 300.p      5.         0.         5.         4.656      5.         4.3833     5.        
 400.p      5.         0.         5.         4.656      5.         4.3833     5.        
 500.p      5.         0.         5.         4.656      5.         4.3833     5.        
 600.p      5.         0.         5.         4.656      5.         4.3833     5.        
 700.p      5.         0.         5.         4.656      5.         4.3833     5.        
 800.p      5.         0.         5.         4.656      5.         4.3833     5.        
 900.p      5.         0.         5.         4.656      5.         4.3833     5.        
 1.n        5.         1.f        5.         4.656      5.         4.3833     5.        
 1.1n       5.         0.25       5.0192     4.6704     5.0014     4.3762     5.0403    
 1.2n       5.         0.5        5.0056     4.6365     5.002      4.3173     5.024     
 1.3n       5.         0.75       5.006      4.6124     5.0025     4.2596     5.0239    
 1.4n       5.         1.         5.0032     4.5789     5.0028     4.1823     5.0007    
 1.5n       5.         1.25       4.9716     4.4825     5.0004     4.0686     4.717     
 1.6n       5.         1.5        4.8659     4.2591     4.9906     3.853      4.1809    
 1.7n       5.         1.75       4.6981     3.5915     4.971      3.4472     3.5236    
 1.8n       5.         2.         4.3561     2.0237     4.9392     2.9674     2.7771    
 1.9n       5.         2.25       2.3317     0.50878    4.8941     2.4682     1.9744    
 2.n        5.         2.5        0.23843    0.23822    4.8342     1.9793     1.1718    
 2.1n       5.         2.75       0.14913    0.14579    4.7578     1.5166     0.64751   
 2.2n       5.         3.         0.092837   0.090596   4.6627     1.0922     0.49506   
 2.3n       5.         3.25       0.05791    0.054128   4.5449     0.71812    0.41591   
 2.4n       5.         3.5        0.029379   0.029516   4.4025     0.4047     0.36525   
 2.5n       5.         3.75       0.015258   0.013824   4.2358     0.16433    0.32862   
 2.6n       5.         4.         0.0062234  0.0068289  4.046      0.036603   0.30106   
 2.7n       5.         4.25       0.0069156  0.0060521  3.8342     0.021673   0.27906   
 2.8n       5.         4.5        0.005351   0.0057902  3.6008     0.025662   0.26136   
 2.9n       5.         4.75       0.0061621  0.0055026  3.3458     0.022931   0.2465    
 3.n        5.         5.         0.0049835  0.0053067  3.0692     0.024781   0.23408   
 3.1n       5.         5.        -0.0046908 -0.005002   2.782     -0.016788   0.22374   
 3.2n       5.         5.         0.0044221  0.0047223  2.4968     0.011374   0.23327   
 3.3n       5.         5.        -0.0041628 -0.0044516  2.2139    -0.0077053  0.22449   
 3.4n       5.         5.         0.0039241  0.0042024  1.9339     0.0052203  0.23257   
 3.5n       5.         5.        -0.0036944 -0.0039619  1.6578    -0.0035364  0.22512   
 3.6n       5.         5.         0.0034824  0.00374    1.3881     0.002396   0.23198   
 3.7n       5.         5.        -0.0032789 -0.0035263  1.1309    -0.0016231  0.22566   
 3.8n       5.         5.         0.0030906  0.0033286  0.89487    0.0010997  0.23148   
 3.9n       5.         5.        -0.0029102 -0.0031386  0.68753   -744.89u    0.22612   
 4.n        5.         5.         0.0027429  0.0029625  0.51334    504.77u    0.23106   
 4.1n       5.         5.        -0.002583  -0.0027937  0.37335   -341.84u    0.2265    
 4.2n       5.         5.         0.0024345  0.0026369  0.26542    231.71u    0.2307    
 4.3n       5.         5.        -0.0022927 -0.0024868  0.1852    -156.85u    0.22683   
 4.4n       5.         5.         0.0021608  0.0023471  0.12735    106.39u    0.23039   
 4.5n       5.         5.        -0.002035  -0.0022136  0.086616  -71.944u    0.22711   
 4.6n       5.         5.         0.0019179  0.0020892  0.058448   48.866u    0.23013   
 4.7n       5.         5.        -0.0018064 -0.0019705  0.039221  -32.976u    0.22735   
 4.8n       5.         5.         0.0017024  0.0018597  0.026218   22.466u    0.22991   
 4.9n       5.         5.        -0.0016035 -0.0017541  0.01748   -15.091u    0.22755   
 5.n        5.         5.         0.0015111  0.0016554  0.011633   10.349u    0.22973   
