nmos n gate, linear, lambda specified 
cmosn: rsh - rs - rd conflict: using rsh
cmosn: is - js conflict
#           v(1)       v(2)       v(3)       v(4)       iter(0)   
 300.15     3.2367     0.0099992  0.01      -1.2349     5.        
#           i(Vgs)     i(Vds)     i(Vbs)     ps(Vgs)    ps(Vds)    ps(Vbs)   
 300.15     0.        -847.7n     0.         0.         8.477n     0.        
#           id(M1)     vgs(M1)    vds(M1)    vbs(M1)    vth(M1)    vdsat(M1) 
 300.15     847.7n     3.2367     0.0099992 -1.2349     1.5263     1.5205    
#           gm(M1)     gds(M1)    gmb(M1)    cbd(M1)    cbs(M1)   
 300.15     442.01n    84.498u    133.8n     0.         0.        
#           cgsovl(M1) cgdovl(M1) cgbovl(M1) cgate(M1)  region(M1)
 300.15     1.9707f    1.9707f    0.         62.973f    3.        
#           cgs(M1)    cgd(M1)    cgb(M1)    vgst(M1)   von(M1)   
 300.15     31.556f    31.417f    0.         1.7104     1.5263    
#           cgst(M1)   cgdt(M1)   cgbt(M1)   is(M1)     ig(M1)     ib(M1)    
 300.15     33.527f    33.388f    0.        -847.7n     0.         0.        
#           p(M1)      pd(M1)     ps(M1)     ids(M1)    idstray(M1 iderror(M1
 300.15     8.4763n    8.4763n    0.         847.7n     0.         ??        
#           vdm(M1)    vgm(M1)    vbm(M1)    vsm(M1)   
 300.15     0.0049996  3.2317    -1.2399    -0.0049996 
#           vd(M1)     vg(M1)     vb(M1)     vs(M1)    
 300.15     0.0099992  3.2367    -1.2349     0.        
#           v(1)       v(2)       v(3)       i(Vds)    
-10.       -10.        0.01       0.01       0.        
-9.        -9.         0.01       0.01       0.        
-8.        -8.         0.01       0.01       0.        
-7.        -7.         0.01       0.01       0.        
-6.        -6.         0.01       0.01       0.        
-5.        -5.         0.01       0.01       0.        
-4.        -4.         0.01       0.01       0.        
-3.        -3.         0.01       0.01       0.        
-2.        -2.         0.01       0.01       0.        
-1.        -1.         0.01       0.01       0.        
 0.         0.         0.01       0.01       0.        
 1.         1.         0.01       0.01      -7.8342n   
 2.         2.         0.0099997  0.01      -301.07n   
 3.         3.         0.0099993  0.01      -743.07n   
 4.         4.         0.0099989  0.01      -1.1464u   
 5.         5.         0.0099985  0.01      -1.4888u   
 6.         6.         0.0099982  0.01      -1.8162u   
 7.         7.         0.0099979  0.01      -2.1324u   
 8.         8.         0.0099976  0.01      -2.4397u   
 9.         9.         0.0099973  0.01      -2.7395u   
 10.        10.        0.009997   0.01      -3.033u    
Vgs  1  0  DC   3.236734    
M1  2  1  0  4  cmosn  l= 9.u  w= 9.u
Vds  3  0  DC   0.01
Rds  2  3  1.
Vbs  4  0  DC  -1.234875    
.model  cmosn  nmos  (level=2  tnom= 27.  fc= 0.5  pb= 0.7  cj= 384.4u
+  mj= 0.4884  cjsw= 527.2p  mjsw= 0.3002  kf= 0.  af= 1.  is= 0.
+  js= 0.  rsh= 0.  rd= 0.  rs= 0.  cbd= 0.  cbs= 0.  cgso= 218.971p
+  cgdo= 218.971p  cgbo= 0.  vto= 0.844345  gamma= 0.863074  phi= 0.6
+  lambda= 0.01  tox= 41.8n  nsub= 15.3142E+15  nss= 1.E+12  xj= 400.n
+  ld= 265.073n  uo= 503.521  tpg=1  kp= 41.5964u  nfs= 3.5934E+12
+  neff= 1.001  ucrit= 161.166K  uexp= 0.163917  delta= 0.36745
+)
*+(* cox= 826.111u)
*    vmax= 55.9035K 
.print op v(nodes) iter(0) 
.op 
.print op i(v*) ps(v*) 
.op 
.print op id(m1) vgs(m1) vds(m1) vbs(m1) vth(m1) vdsat(m1) 
.op 
.print op gm(m1) gds(m1) gmb(m1) cbd(m1) cbs(m1) 
.op 
.print op cgsovl(m1) cgdovl(m1) cgbovl(m1) cgate(m1) region(m1) 
.op 
.print op cgs(m1) cgd(m1) cgb(m1) vgst(m1) von(m1) 
.op 
.print op cgst(m1) cgdt(m1) cgbt(m1) is(m1) ig(m1) ib(m1) 
.op 
.print op p(m1) pd(m1) ps(m1) ids(m1) idstray(m1) iderror(m1) 
.op 
.print op vdm(m1) vgm(m1) vbm(m1) vsm(m1) 
.op 
.print op vd(m1) vg(m1) vb(m1) vs(m1) 
.op 
.print dc v(1) v(2) v(3) i(vds) 
.dc vgs -10 10 1 
.width out=80 
