.title mos7 inverter 
#          
 300.15    
#           v(1)       v(2)       v(3)       v(4)       v(5)       v(6)       v(7)      
 0.         5.         0.         5.         4.656      5.         4.3833     5.        
 0.25       5.         0.25       5.         4.6379     5.         4.345      5.        
 0.5        5.         0.5        5.         4.6164     5.         4.2976     5.        
 0.75       5.         0.75       5.         4.5903     5.         4.237      4.9999    
 1.         5.         1.         4.9962     4.5534     4.9962     4.1551     4.9725    
 1.25       5.         1.25       4.9449     4.4416     4.9449     4.0333     4.6524    
 1.5        5.         1.5        4.8334     4.1831     4.8334     3.8079     4.1054    
 1.75       5.         1.75       4.6434     3.251      4.6434     3.3929     3.4404    
 2.         5.         2.         4.1824     1.5689     4.1824     2.9042     2.689     
 2.25       5.         2.25       0.50019    0.40069    0.50019    2.403      1.8867    
 2.5        5.         2.5        0.23364    0.21562    0.23364    1.9146     1.1001    
 2.75       5.         2.75       0.13874    0.13114    0.13874    1.4539     0.6237    
 3.         5.         3.         0.083035   0.079361   0.083035   1.033      0.47852   
 3.25       5.         3.25       0.046572   0.044802   0.046572   0.6636     0.4039    
 3.5        5.         3.5        0.022212   0.021459   0.022212   0.3558     0.35527   
 3.75       5.         3.75       0.0068481  0.0066359  0.0068481  0.12194    0.32024   
 4.         5.         4.         378.95u    368.u      378.95u    0.0073666  0.29353   
 4.25       5.         4.25       1.6913u    1.645u     1.6913u    34.874u    0.27237   
 4.5        5.         4.5        5.0867n    4.9542n    5.0867n    110.38n    0.25514   
 4.75       5.         4.75      -8.18n     -7.9764n   -8.18n     -185.9n     0.24081   
 5.         5.         5.        -19.978n   -19.501n   -19.978n   -473.54n    0.22868   
#Time       v(1)       v(2)       v(3)       v(4)       v(5)       v(6)       v(7)      
 0.         5.         0.         5.         4.656      5.         4.3833     5.        
 100.p      5.         0.         5.         4.656      5.         4.3833     5.        
 200.p      5.         0.         5.         4.656      5.         4.3833     5.        
 300.p      5.         0.         5.         4.656      5.         4.3833     5.        
 400.p      5.         0.         5.         4.656      5.         4.3833     5.        
 500.p      5.         0.         5.         4.656      5.         4.3833     5.        
 600.p      5.         0.         5.         4.656      5.         4.3833     5.        
 700.p      5.         0.         5.         4.656      5.         4.3833     5.        
 800.p      5.         0.         5.         4.656      5.         4.3833     5.        
 900.p      5.         0.         5.         4.656      5.         4.3833     5.        
 1.n        5.         1.f        5.         4.656      5.         4.3833     5.        
 1.1n       5.         0.25       5.0108     4.6704     5.0008     4.3762     5.0403    
 1.2n       5.         0.5        5.001      4.6251     5.0014     4.3052     5.013     
 1.3n       5.         0.75       5.0109     4.6214     5.002      4.27       5.0314    
 1.4n       5.         1.         5.0064     4.5818     5.0024     4.186      5.0045    
 1.5n       5.         1.25       4.9728     4.4832     5.0001     4.0698     4.7178    
 1.6n       5.         1.5        4.8648     4.2584     4.9904     3.8514     4.1804    
 1.7n       5.         1.75       4.6991     3.5926     4.9708     3.4484     3.5239    
 1.8n       5.         2.         4.3549     2.0232     4.939      2.9664     2.7769    
 1.9n       5.         2.25       2.3315     0.50878    4.8939     2.4679     1.9743    
 2.n        5.         2.5        0.2384     0.23822    4.834      1.9793     1.1718    
 2.1n       5.         2.75       0.14912    0.14579    4.7576     1.5166     0.64751   
 2.2n       5.         3.         0.092833   0.090596   4.6625     1.0922     0.49506   
 2.3n       5.         3.25       0.057912   0.054128   4.5447     0.71812    0.41591   
 2.4n       5.         3.5        0.029378   0.029516   4.4023     0.4047     0.36525   
 2.5n       5.         3.75       0.01526    0.013824   4.2357     0.16433    0.32862   
 2.6n       5.         4.         0.0062222  0.0068289  4.0458     0.036603   0.30106   
 2.7n       5.         4.25       0.0069166  0.0060521  3.834      0.021673   0.27906   
 2.8n       5.         4.5        0.0053501  0.0057902  3.6006     0.025662   0.26136   
 2.9n       5.         4.75       0.0061629  0.0055026  3.3456     0.022931   0.2465    
 3.n        5.         5.         0.0049828  0.0053067  3.069      0.024781   0.23408   
 3.1n       5.         5.        -0.0046851 -0.0049963  2.7819    -0.016789   0.22374   
 3.2n       5.         5.         0.0044217  0.0047226  2.4967     0.011373   0.23327   
 3.3n       5.         5.        -0.0041585 -0.0044474  2.2138    -0.0077059  0.22449   
 3.4n       5.         5.         0.003924   0.0042029  1.9337     0.0052197  0.23257   
 3.5n       5.         5.        -0.0036912 -0.0039589  1.6576    -0.003537   0.22512   
 3.6n       5.         5.         0.0034825  0.0037406  1.388      0.0023954  0.23198   
 3.7n       5.         5.        -0.0032765 -0.0035241  1.1308    -0.0016236  0.22566   
 3.8n       5.         5.         0.0030908  0.0033293  0.89474    0.0010992  0.23148   
 3.9n       5.         5.        -0.0029085 -0.0031372  0.68742   -745.44u    0.22612   
 4.n        5.         5.         0.0027433  0.0029633  0.51325    504.22u    0.23106   
 4.1n       5.         5.        -0.0025818 -0.0027927  0.37328   -342.39u    0.2265    
 4.2n       5.         5.         0.0024349  0.0026377  0.26537    231.16u    0.2307    
 4.3n       5.         5.        -0.0022919 -0.0024861  0.18516   -157.4u     0.22683   
 4.4n       5.         5.         0.0021612  0.0023479  0.12732    105.84u    0.23039   
 4.5n       5.         5.        -0.0020345 -0.0022133  0.086597  -72.494u    0.22711   
 4.6n       5.         5.         0.0019183  0.0020899  0.058435   48.316u    0.23013   
 4.7n       5.         5.        -0.0018061 -0.0019703  0.039213  -33.525u    0.22735   
 4.8n       5.         5.         0.0017028  0.0018604  0.026212   21.916u    0.22991   
 4.9n       5.         5.        -0.0016033 -0.0017541  0.017476  -15.64u     0.22755   
 5.n        5.         5.         0.0015115  0.0016561  0.011631   9.7996u    0.22973   
