' 
#Time       v(1)       v(2)       v(3)       q(C1)      q(C2)      dq(C1)     dq(C2)     dqdt(C1)   dqdt(C2)   i(C1)      i(C2)      timef(C1)  timef(C2) 
 0.         0.         0.         0.         0.         0.         0.         0.         0.         0.         0.         0.         Inf        Inf       
 0.001      0.0061599 -12.32     -12.32      0.0061599  0.0061599  0.0061599  0.0061599  6.1599     6.1599     12.32      12.32      Inf        Inf       
 0.003      0.018845  -0.36495   -0.36495    0.018845   0.018845   0.012685   0.012685   6.3424     6.3424     0.36495    0.36495    Inf        Inf       
 0.007      0.043847  -12.136    -12.136     0.043847   0.043847   0.025002   0.025002   6.2505     6.2505     12.136     12.136     Inf        Inf       
 0.015      0.094104  -0.42829   -0.42829    0.094104   0.094104   0.050257   0.050257   6.2822     6.2822     0.42829    0.42829    0.043189   0.043189  
 0.031      0.19343   -11.987    -11.987     0.19343    0.19343    0.099326   0.099326   6.2078     6.2078     11.987     11.987     0.10141    0.10141   
 0.063      0.38558   -0.02223   -0.02223    0.38558    0.38558    0.19215    0.19215    6.0048     6.0048     0.02223    0.02223    0.28662    0.28662   
 0.1        0.58768   -10.902    -10.902     0.58768    0.58768    0.20209    0.20209    5.462      5.462      10.902     10.902     0.27656    0.27656   
 0.15       0.80904    2.0472     2.0472     0.80904    0.80904    0.22136    0.22136    4.4272     4.4272    -2.0472    -2.0472     0.35044    0.35044   
 0.2        0.95098   -7.7249    -7.7249     0.95098    0.95098    0.14194    0.14194    2.8388     2.8388     7.7249     7.7249     0.4342     0.4342    
 0.3        0.95113    7.7218     7.7218     0.95113    0.95113    154.47u    154.47u    0.0015447  0.0015447 -7.7218    -7.7218     0.52959    0.52959   
 0.4        0.58778   -0.45476   -0.45476    0.58778    0.58778   -0.36335   -0.36335   -3.6335    -3.6335     0.45476    0.45476    0.91957    0.91957   
 0.5        122.08u    12.208     12.208     122.08u    122.08u   -0.58766   -0.58766   -5.8766    -5.8766    -12.208    -12.208     0.71024    0.71024   
 0.6       -0.58779   -0.4497    -0.4497    -0.58779   -0.58779   -0.58791   -0.58791   -5.8791    -5.8791     0.4497     0.4497     0.76571    0.76571   
 0.7       -0.95098    7.7135     7.7135    -0.95098   -0.95098   -0.36319   -0.36319   -3.6319    -3.6319    -7.7135    -7.7135     0.84596    0.84596   
 0.8       -0.95113   -7.7104    -7.7104    -0.95113   -0.95113   -154.24u   -154.24u   -0.0015424 -0.0015424  7.7104     7.7104     0.98617    0.98617   
 0.9       -0.58778    0.44335    0.44335   -0.58778   -0.58778    0.36335    0.36335    3.6335     3.6335    -0.44335   -0.44335    4.0881     4.0881    
 1.        -121.97u   -12.197    -12.197    -121.97u   -121.97u    0.58766    0.58766    5.8766     5.8766     12.197     12.197     1.2101     1.2101    
#Time       v(1)       v(2)       v(3)       q(C1)      q(C2)      dq(C1)     dq(C2)     dqdt(C1)   dqdt(C2)   i(C1)      i(C2)      timef(C1)  timef(C2) 
 0.         0.         0.         0.         0.         0.         0.58778    0.58778    0.         0.         0.         0.         Inf        Inf       
 0.001      0.0061599 -12.32     -12.32      0.0061599  0.0061599  0.0061599  0.0061599  6.1599     6.1599     12.32      12.32      Inf        Inf       
 0.003      0.018845  -0.36495   -0.36495    0.018845   0.018845   0.012685   0.012685   6.3424     6.3424     0.36495    0.36495    Inf        Inf       
 0.007      0.043847  -12.136    -12.136     0.043847   0.043847   0.025002   0.025002   6.2505     6.2505     12.136     12.136     Inf        Inf       
 0.015      0.094104  -0.42829   -0.42829    0.094104   0.094104   0.050257   0.050257   6.2822     6.2822     0.42829    0.42829    0.0080654  0.0080654 
 0.0080654  0.050649  -0.63219   -0.63219    0.050649   0.050649   0.0068019  0.0068019  6.3841     6.3841     0.63219    0.63219    0.0090486  0.0090486 
 0.0090486  0.056706  -11.691    -11.691     0.056706   0.056706   0.0060577  0.0060577  6.1616     6.1616     11.691     11.691     0.0096055  0.0096055 
 0.0096055  0.060304  -1.2295    -1.2295     0.060304   0.060304   0.0035977  0.0035977  6.4602     6.4602     1.2295     1.2295     0.00994    0.00994   
 0.00994    0.062307  -10.744    -10.744     0.062307   0.062307   0.0020028  0.0020028  5.9869     5.9869     10.744     10.744     0.01018    0.01018   
 0.01018    0.063897  -2.4841    -2.4841     0.063897   0.063897   0.0015901  0.0015901  6.6142     6.6142     2.4841     2.4841     0.01033    0.01033   
 0.01033    0.064766  -9.161     -9.161      0.064766   0.064766   868.61u    868.61u    5.8226     5.8226     9.161      9.161      0.010439   0.010439  
 0.010439   0.065504  -4.2688    -4.2688     0.065504   0.065504   738.01u    738.01u    6.7149     6.7149     4.2688     4.2688     0.01052    0.01052   
 0.01052    0.065978  -7.4761    -7.4761     0.065978   0.065978   474.3u     474.3u     5.8725     5.8725     7.4761     7.4761     0.010585   0.010585  
 0.010585   0.066404  -5.6299    -5.6299     0.066404   0.066404   426.55u    426.55u    6.553      6.553      5.6299     5.6299     0.010644   0.010644  
 0.010644   0.066763  -6.5836    -6.5836     0.066763   0.066763   358.52u    358.52u    6.1068     6.1068     6.5836     6.5836     0.010702   0.010702  
 0.010702   0.067132  -6.1156    -6.1156     0.067132   0.067132   368.91u    368.91u    6.3496     6.3496     6.1156     6.1156     0.010769   0.010769  
 0.010769   0.067547  -6.3514    -6.3514     0.067547   0.067547   415.25u    415.25u    6.2335     6.2335     6.3514     6.3514     0.010855   0.010855  
 0.010855   0.068088  -6.2172    -6.2172     0.068088   0.068088   541.13u    541.13u    6.2843     6.2843     6.2172     6.2172     0.010981   0.010981  
 0.010981   0.068876  -6.3056    -6.3056     0.068876   0.068876   787.85u    787.85u    6.2614     6.2614     6.3056     6.3056     0.011185   0.011185  
 0.011185   0.070154  -6.237     -6.237      0.070154   0.070154   0.0012781  0.0012781  6.2713     6.2713     6.237      6.237      0.011537   0.011537  
 0.011537   0.072363  -6.2941    -6.2941     0.072363   0.072363   0.0022085  0.0022085  6.2656     6.2656     6.2941     6.2941     0.012181   0.012181  
 0.012181   0.076399  -6.2391    -6.2391     0.076399   0.076399   0.0040362  0.0040362  6.2666     6.2666     6.2391     6.2391     0.013406   0.013406  
 0.013406   0.084071  -6.2859    -6.2859     0.084071   0.084071   0.0076719  0.0076719  6.2625     6.2625     6.2859     6.2859     0.015785   0.015785  
 0.015785   0.098957  -6.2281    -6.2281     0.098957   0.098957   0.014886   0.014886   6.257      6.257      6.2281     6.2281     0.021457   0.021457  
 0.021457   0.13435   -6.2517    -6.2517     0.13435    0.13435    0.035393   0.035393   6.2399     6.2399     6.2517     6.2517     0.028141   0.028141  
 0.028141   0.17583   -6.1618    -6.1618     0.17583    0.17583    0.041481   0.041481   6.2067     6.2067     6.1618     6.1618     0.037297   0.037297  
 0.037297   0.23215   -6.1383    -6.1383     0.23215    0.23215    0.056314   0.056314   6.1501     6.1501     6.1383     6.1383     0.045831   0.045831  
 0.045831   0.28394   -6.0009    -6.0009     0.28394    0.28394    0.051796   0.051796   6.0696     6.0696     6.0009     6.0009     0.055842   0.055842  
 0.055842   0.34365   -5.9281    -5.9281     0.34365    0.34365    0.059712   0.059712   5.9645     5.9645     5.9281     5.9281     0.065945   0.065945  
 0.065945   0.40253   -5.7281    -5.7281     0.40253    0.40253    0.058881   0.058881   5.8281     5.8281     5.7281     5.7281     0.077044   0.077044  
 0.077044   0.46534   -5.5895    -5.5895     0.46534    0.46534    0.062803   0.062803   5.6588     5.6588     5.5895     5.5895     0.088458   0.088458  
 0.088458   0.52757   -5.3144    -5.3144     0.52757    0.52757    0.062232   0.062232   5.4519     5.4519     5.3144     5.3144     0.10072    0.10072   
 0.1        0.58773   -5.1112    -5.1112     0.58773    0.58773    0.060164   0.060164   5.2128     5.2128     5.1112     5.1112     0.11301    0.11301   
 0.11301    0.65186   -4.7426    -4.7426     0.65186    0.65186    0.064123   0.064123   4.9269     4.9269     4.7426     4.7426     0.12631    0.12631   
 0.12631    0.71284   -4.434     -4.434      0.71284    0.71284    0.060984   0.060984   4.5883     4.5883     4.434      4.434      0.14038    0.14038   
 0.14038    0.77199   -3.9719    -3.9719     0.77199    0.77199    0.05915    0.05915    4.203      4.203      3.9719     3.9719     0.1552     0.1552    
 0.1552     0.82773   -3.5529    -3.5529     0.82773    0.82773    0.055743   0.055743   3.7624     3.7624     3.5529     3.5529     0.17076    0.17076   
 0.17076    0.87856   -2.9791    -2.9791     0.87856    0.87856    0.050827   0.050827   3.266      3.266      2.9791     2.9791     0.18737    0.18737   
 0.18538    0.91867   -2.5078    -2.5078     0.91867    0.91867    0.040112   0.040112   2.7434     2.7434     2.5078     2.5078     0.20407    0.20407   
 0.2        0.95104   -1.9194    -1.9194     0.95104    0.95104    0.032365   0.032365   2.2136     2.2136     1.9194     1.9194     0.22083    0.22083   
 0.22083    0.98324   -1.1726    -1.1726     0.98324    0.98324    0.032198   0.032198   1.546      1.546      1.1726     1.1726     0.24077    0.24077   
 0.24077    0.99831   -0.3398    -0.3398     0.99831    0.99831    0.015078   0.015078   0.75621    0.75621    0.3398     0.3398     0.26556    0.26556   
 0.26556    0.99523    0.58835    0.58835    0.99523    0.99523   -0.0030808 -0.0030808 -0.12428   -0.12428   -0.58835   -0.58835    0.29746    0.29746   
 0.28278    0.97888    1.3107     1.3107     0.97888    0.97888   -0.016353  -0.016353  -0.94953   -0.94953   -1.3107    -1.3107     0.38405    0.38405   
 0.3        0.95108    1.9183     1.9183     0.95108    0.95108   -0.027805  -0.027805  -1.6145    -1.6145    -1.9183    -1.9183     0.33457    0.33457   
 0.33457    0.86213    3.2268     3.2268     0.86213    0.86213   -0.088943  -0.088943  -2.5725    -2.5725    -3.2268    -3.2268     0.31678    0.31678   
 0.31678    0.91327    2.5865     2.5865     0.91327    0.91327   -0.037802  -0.037802  -2.2524    -2.2524    -2.5865    -2.5865     0.34205    0.34205   
 0.34205    0.83739    3.42       3.42       0.83739    0.83739   -0.075885  -0.075885  -3.0033    -3.0033    -3.42      -3.42       0.35892    0.35892   
 0.35892    0.77485    3.9932     3.9932     0.77485    0.77485   -0.062537  -0.062537  -3.7066    -3.7066    -3.9932    -3.9932     0.37627    0.37627   
 0.37627    0.70147    4.4651     4.4651     0.70147    0.70147   -0.073386  -0.073386  -4.2292    -4.2292    -4.4651    -4.4651     0.39125    0.39125   
 0.38814    0.64645    4.811      4.811      0.64645    0.64645   -0.05502   -0.05502   -4.6381    -4.6381    -4.811     -4.811      0.40416    0.40416   
 0.4        0.58784    5.0704     5.0704     0.58784    0.58784   -0.05861   -0.05861   -4.9407    -4.9407    -5.0704    -5.0704     0.41472    0.41472   
 0.41472    0.51059    5.4224     5.4224     0.51059    0.51059   -0.077245  -0.077245  -5.2464    -5.2464    -5.4224    -5.4224     0.42683    0.42683   
 0.42683    0.44379    5.6159     5.6159     0.44379    0.44379   -0.066801  -0.066801  -5.5192    -5.5192    -5.6159    -5.6159     0.43895    0.43895   
 0.43895    0.37428    5.8466     5.8466     0.37428    0.37428   -0.069508  -0.069508  -5.7313    -5.7313    -5.8466    -5.8466     0.44995    0.44995   
 0.44995    0.30938    5.9596     5.9596     0.30938    0.30938   -0.064906  -0.064906  -5.9031    -5.9031    -5.9596    -5.9596     0.46038    0.46038   
 0.46038    0.24642    6.109      6.109      0.24642    0.24642   -0.062961  -0.062961  -6.0343    -6.0343    -6.109     -6.109      0.46994    0.46994   
 0.46994    0.18781    6.1555     6.1555     0.18781    0.18781   -0.058607  -0.058607  -6.1323    -6.1323    -6.1555    -6.1555     0.4788     0.4788    
 0.4788     0.13289    6.2464     6.2464     0.13289    0.13289   -0.054915  -0.054915  -6.201     -6.201     -6.2464    -6.2464     0.48672    0.48672   
 0.48672    0.083434   6.245      6.245      0.083434   0.083434  -0.049461  -0.049461  -6.2457    -6.2457    -6.245     -6.245      0.49377    0.49377   
 0.49336    0.041785   6.2957     6.2957     0.041785   0.041785  -0.041649  -0.041649  -6.2703    -6.2703    -6.2957    -6.2957     0.49938    0.49938   
 0.49668    0.020928   6.2645     6.2645     0.020928   0.020928  -0.020857  -0.020857  -6.2801    -6.2801    -6.2645    -6.2645     0.50282    0.50282   
 0.5        63.008u    6.3008     6.3008     63.008u    63.008u   -0.020865  -0.020865  -6.2826    -6.2826    -6.3008    -6.3008     0.5041     0.5041    
 0.5041    -0.025719   6.2644     6.2644    -0.025719  -0.025719  -0.025782  -0.025782  -6.2826    -6.2826    -6.2644    -6.2644     0.50869    0.50869   
 0.50869   -0.054487   6.2913     6.2913    -0.054487  -0.054487  -0.028767  -0.028767  -6.2778    -6.2778    -6.2913    -6.2913     0.51432    0.51432   
 0.51432   -0.089786   6.2418     6.2418    -0.089786  -0.089786  -0.0353    -0.0353    -6.2665    -6.2665    -6.2418    -6.2418     0.52131    0.52131   
 0.52131   -0.13345    6.2449     6.2449    -0.13345   -0.13345   -0.04366   -0.04366   -6.2434    -6.2434    -6.2449    -6.2449     0.52865    0.52865   
 0.52865   -0.17901    6.1661     6.1661    -0.17901   -0.17901   -0.045564  -0.045564  -6.2055    -6.2055    -6.1661    -6.1661     0.53717    0.53717   
 0.53717   -0.2314     6.1311     6.1311    -0.2314    -0.2314    -0.052385  -0.052385  -6.1486    -6.1486    -6.1311    -6.1311     0.54605    0.54605   
 0.54605   -0.28529    6.0068     6.0068    -0.28529   -0.28529   -0.053893  -0.053893  -6.069     -6.069     -6.0068    -6.0068     0.55587    0.55587   
 0.55587   -0.34381    5.9191     5.9191    -0.34381   -0.34381   -0.058521  -0.058521  -5.963     -5.963     -5.9191    -5.9191     0.56609    0.56609   
 0.56609   -0.40339    5.7344     5.7344    -0.40339   -0.40339   -0.05958   -0.05958   -5.8268    -5.8268    -5.7344    -5.7344     0.57712    0.57712   
 0.57712   -0.46576    5.5794     5.5794    -0.46576   -0.46576   -0.06237   -0.06237   -5.6569    -5.6569    -5.5794    -5.5794     0.58859    0.58859   
 0.58856   -0.52811    5.3209     5.3209    -0.52811   -0.52811   -0.062352  -0.062352  -5.4502    -5.4502    -5.3209    -5.3209     0.6008     0.6008    
 0.6       -0.58773    5.1025     5.1025    -0.58773   -0.58773   -0.059623  -0.059623  -5.2117    -5.2117    -5.1025    -5.1025     0.61309    0.61309   
 0.61309   -0.65221    4.7495     4.7495    -0.65221   -0.65221   -0.064473  -0.064473  -4.926     -4.926     -4.7495    -4.7495     0.62633    0.62633   
 0.62633   -0.71297    4.4244     4.4244    -0.71297   -0.71297   -0.060758  -0.060758  -4.587     -4.587     -4.4244    -4.4244     0.64045    0.64045   
 0.64045   -0.77226    3.9786     3.9786    -0.77226   -0.77226   -0.059295  -0.059295  -4.2015    -4.2015    -3.9786    -3.9786     0.65523    0.65523   
 0.65523   -0.82787    3.5428     3.5428    -0.82787   -0.82787   -0.055612  -0.055612  -3.7607    -3.7607    -3.5428    -3.5428     0.67083    0.67083   
 0.67083   -0.87877    2.9854     2.9854    -0.87877   -0.87877   -0.050899  -0.050899  -3.2641    -3.2641    -2.9854    -2.9854     0.68741    0.68741   
 0.68541   -0.91876    2.4977     2.4977    -0.91876   -0.91876   -0.039989  -0.039989  -2.7416    -2.7416    -2.4977    -2.4977     0.70415    0.70415   
 0.7       -0.95104    1.9281     1.9281    -0.95104   -0.95104   -0.032278  -0.032278  -2.2129    -2.2129    -1.9281    -1.9281     0.72084    0.72084   
 0.72084   -0.98325    1.1636     1.1636    -0.98325   -0.98325   -0.03221   -0.03221   -1.5458    -1.5458    -1.1636    -1.1636     0.7408     0.7408    
 0.7408    -0.99832    0.34732    0.34732   -0.99832   -0.99832   -0.015078  -0.015078  -0.75545   -0.75545   -0.34732   -0.34732    0.76556    0.76556   
 0.76556   -0.99523   -0.59703   -0.59703   -0.99523   -0.99523    0.0030915  0.0030915  0.12485    0.12485    0.59703    0.59703    0.79753    0.79753   
 0.78278   -0.97888   -1.3021    -1.3021    -0.97888   -0.97888    0.016353   0.016353   0.94955    0.94955    1.3021     1.3021     0.88478    0.88478   
 0.8       -0.95108   -1.9269    -1.9269    -0.95108   -0.95108    0.027804   0.027804   1.6145     1.6145     1.9269     1.9269     0.83452    0.83452   
 0.83452   -0.86231   -3.2162    -3.2162    -0.86231   -0.86231    0.088765   0.088765   2.5715     2.5715     3.2162     3.2162     0.81681    0.81681   
 0.81681   -0.91321   -2.5788    -2.5788    -0.91321   -0.91321    0.037866   0.037866   2.2529     2.2529     2.5788     2.5788     0.84208    0.84208   
 0.84208   -0.83728   -3.4296    -3.4296    -0.83728   -0.83728    0.07593    0.07593    3.0042     3.0042     3.4296     3.4296     0.85894    0.85894   
 0.85894   -0.77478   -3.9852    -3.9852    -0.77478   -0.77478    0.062498   0.062498   3.7074     3.7074     3.9852     3.9852     0.8763     0.8763    
 0.8763    -0.70134   -4.4745    -4.4745    -0.70134   -0.70134    0.073441   0.073441   4.2298     4.2298     4.4745     4.4745     0.89126    0.89126   
 0.88815   -0.64638   -4.8028    -4.8028    -0.64638   -0.64638    0.054962   0.054962   4.6386     4.6386     4.8028     4.8028     0.90419    0.90419   
 0.9       -0.58784   -5.0789    -5.0789    -0.58784   -0.58784    0.058543   0.058543   4.9409     4.9409     5.0789     5.0789     0.91472    0.91472   
 0.91472   -0.51062   -5.4138    -5.4138    -0.51062   -0.51062    0.077219   0.077219   5.2464     5.2464     5.4138     5.4138     0.92683    0.92683   
 0.92683   -0.44375   -5.6246    -5.6246    -0.44375   -0.44375    0.066868   0.066868   5.5192     5.5192     5.6246     5.6246     0.93895    0.93895   
 0.93895   -0.37432   -5.838     -5.838     -0.37432   -0.37432    0.069424   0.069424   5.7313     5.7313     5.838      5.838      0.94996    0.94996   
 0.94996   -0.30933   -5.9681    -5.9681    -0.30933   -0.30933    0.06499    0.06499    5.9031     5.9031     5.9681     5.9681     0.96037    0.96037   
 0.96037   -0.24647   -6.1005    -6.1005    -0.24647   -0.24647    0.062866   0.062866   6.0343     6.0343     6.1005     6.1005     0.96995    0.96995   
 0.96995   -0.18776   -6.164     -6.164     -0.18776   -0.18776    0.058708   0.058708   6.1323     6.1323     6.164      6.164      0.97879    0.97879   
 0.97879   -0.13296   -6.238     -6.238     -0.13296   -0.13296    0.054802   0.054802   6.201      6.201      6.238      6.238      0.98672    0.98672   
 0.98672   -0.083376  -6.2534    -6.2534    -0.083376  -0.083376   0.049583   0.049583   6.2457     6.2457     6.2534     6.2534     0.99376    0.99376   
 0.99336   -0.041756  -6.2874    -6.2874    -0.041756  -0.041756   0.04162    0.04162    6.2704     6.2704     6.2874     6.2874     0.9994     0.9994    
 0.99668   -0.020914  -6.2727    -6.2727    -0.020914  -0.020914   0.020842   0.020842   6.28       6.28       6.2727     6.2727     1.0028     1.0028    
 1.        -62.927u   -6.2927    -6.2927    -62.927u   -62.927u    0.020851   0.020851   6.2827     6.2827     6.2927     6.2927     1.0042     1.0042    
