' 
#           v(2)       v(3)       v(4)       v(5)       v(6)       iter(0)   
 0.         0.         0.         0.         0.         0.         0.        
-1.         0.5        1.         1.n        2.         500.p      1.        
-2.         0.5        1.         0.5        2.         0.5        2.        
-3.         0.5        1.         0.5        2.         0.5        3.        
 300.15     0.5        1.         0.5        2.         0.5        4.        
#Time       v(2)       v(3)       v(4)       v(5)       v(6)       iter(0)   
 0.         0.         0.         0.         0.         0.         0.        
-1.         0.5        1.         1.n        1.         1.n        1.        
-2.         0.5        1.         0.5        1.         0.5        2.        
-3.         0.5        1.         0.5        1.         0.5        3.        
 0.         0.5        1.         0.5        1.         0.5        4.        
 0.         0.5        1.         0.5        1.         0.5        0.        
-1.         0.5        1.         0.5        1.0063     0.50157    1.        
-2.         0.5        1.         0.5        1.0063     0.50157    2.        
-3.         0.5        1.         0.5        1.0063     0.50157    3.        
 1.u        0.5        1.         0.5        1.0063     0.50157    4.        
 0.         0.5        1.         0.5        1.0063     0.50157    0.        
-1.         0.5        1.         0.5        1.0188     0.50469    1.        
-2.         0.5        1.         0.5        1.0188     0.50467    2.        
-3.         0.5        1.         0.5        1.0188     0.50467    3.        
 3.u        0.5        1.         0.5        1.0188     0.50467    4.        
 0.         0.5        1.         0.5        1.0188     0.50467    0.        
-1.         0.5        1.         0.5        1.044      0.51083    1.        
-2.         0.5        1.         0.5        1.044      0.51076    2.        
-3.         0.5        1.         0.5        1.044      0.51076    3.        
 7.u        0.5        1.         0.5        1.044      0.51076    4.        
 0.         0.5        1.         0.5        1.044      0.51076    0.        
-1.         0.5        1.         0.5        1.0941     0.52276    1.        
-2.         0.5        1.         0.5        1.0941     0.52247    2.        
-3.         0.5        1.         0.5        1.0941     0.52247    3.        
 15.u       0.5        1.         0.5        1.0941     0.52247    4.        
 0.         0.5        1.         0.5        1.0941     0.52247    0.        
-1.         0.5        1.         0.5        1.1935     0.54515    1.        
-2.         0.5        1.         0.5        1.1935     0.54412    2.        
-3.         0.5        1.         0.5        1.1935     0.54412    3.        
 31.u       0.5        1.         0.5        1.1935     0.54412    4.        
 0.         0.5        1.         0.5        1.1935     0.54412    0.        
-1.         0.5        1.         0.5        1.3856     0.58403    1.        
-2.         0.5        1.         0.5        1.3856     0.58082    2.        
-3.         0.5        1.         0.5        1.3856     0.58082    3.        
 63.u       0.5        1.         0.5        1.3856     0.58082    4.        
 0.         0.5        1.         0.5        1.3856     0.58082    0.        
-1.         0.5        1.         0.5        1.5878     0.61635    1.        
-2.         0.5        1.         0.5        1.5878     0.61357    2.        
-3.         0.5        1.         0.5        1.5878     0.61357    3.        
 100.u      0.5        1.         0.5        1.5878     0.61357    4.        
 0.         0.5        1.         0.5        1.5878     0.61357    0.        
-1.         0.5        1.         0.5        1.809      0.64661    1.        
-2.         0.5        1.         0.5        1.809      0.644      2.        
-3.         0.5        1.         0.5        1.809      0.644      3.        
 150.u      0.5        1.         0.5        1.809      0.644      4.        
 0.         0.5        1.         0.5        1.809      0.644      0.        
-1.         0.5        1.         0.5        1.9511     0.662      1.        
-2.         0.5        1.         0.5        1.9511     0.66114    2.        
-3.         0.5        1.         0.5        1.9511     0.66114    3.        
 200.u      0.5        1.         0.5        1.9511     0.66114    4.        
 0.         0.5        1.         0.5        1.9511     0.66114    0.        
-1.         0.5        1.         0.5        1.9511     0.66114    1.        
-2.         0.5        1.         0.5        1.9511     0.66114    2.        
 300.u      0.5        1.         0.5        1.9511     0.66114    3.        
 0.         0.5        1.         0.5        1.9511     0.66114    0.        
-1.         0.5        1.         0.5        1.5878     0.61942    1.        
-2.         0.5        1.         0.5        1.5878     0.61357    2.        
-3.         0.5        1.         0.5        1.5878     0.61357    3.        
 400.u      0.5        1.         0.5        1.5878     0.61357    4.        
 0.         0.5        1.         0.5        1.5878     0.61357    0.        
-1.         0.5        1.         0.5        1.         0.5258     1.        
-2.         0.5        1.         0.5        1.         0.5        2.        
-3.         0.5        1.         0.5        1.         0.5        3.        
 500.u      0.5        1.         0.5        1.         0.5        4.        
 0.         0.5        1.         0.5        1.         0.5        0.        
-1.         0.5        1.         0.5        0.41221    0.35305    1.        
-2.         0.5        1.         0.5        0.41221    0.29189    2.        
-3.         0.5        1.         0.5        0.41221    0.29189    3.        
 600.u      0.5        1.         0.5        0.41221    0.29189    4.        
 0.         0.5        1.         0.5        0.41221    0.29189    0.        
-1.         0.5        1.         0.5        0.048943   0.10974    1.        
-2.         0.5        1.         0.5        0.048943   0.04666    2.        
-3.         0.5        1.         0.5        0.048943   0.04666    3.        
 700.u      0.5        1.         0.5        0.048943   0.04666    4.        
 0.         0.5        1.         0.5        0.048943   0.04666    0.        
-1.         0.5        1.         0.5        0.048943   0.04666    1.        
-2.         0.5        1.         0.5        0.048943   0.04666    2.        
 800.u      0.5        1.         0.5        0.048943   0.04666    3.        
 0.         0.5        1.         0.5        0.048943   0.04666    0.        
-1.         0.5        1.         0.5        0.41221    0.37682    1.        
-2.         0.5        1.         0.5        0.41221    0.29189    2.        
-3.         0.5        1.         0.5        0.41221    0.29189    3.        
 900.u      0.5        1.         0.5        0.41221    0.29189    4.        
 0.         0.5        1.         0.5        0.41221    0.29189    0.        
-1.         0.5        1.         0.5        1.         0.58662    1.        
-2.         0.5        1.         0.5        1.         0.5        2.        
-3.         0.5        1.         0.5        1.         0.5        3.        
 0.001      0.5        1.         0.5        1.         0.5        4.        
