' 
#           v(1)       v(2)       v(3)       iter(0)   
 300.15     20.        7.071      1.         4.        
#Time       v(1)       v(2)       v(3)       iter(0)   
 0.         20.        7.071      1.         4.        
 50.u       20.        7.2895     1.0309     26.       
 100.u      20.        7.4866     1.0588     8.        
 150.u      20.        7.6431     1.0809     4.        
 200.u      20.        7.7435     1.0951     4.        
 250.u      20.        7.7781     1.1        4.        
 300.u      20.        7.7435     1.0951     4.        
 350.u      20.        7.6431     1.0809     4.        
 400.u      20.        7.4866     1.0588     4.        
 450.u      20.        7.2895     1.0309     4.        
 500.u      20.        7.071      1.         4.        
 550.u      20.        6.8525     0.9691     4.        
 600.u      20.        6.6554     0.94122    4.        
 650.u      20.        6.4989     0.9191     4.        
 700.u      20.        6.3985     0.90489    4.        
 750.u      20.        6.3639     0.9        4.        
 800.u      20.        6.3985     0.90489    4.        
 850.u      20.        6.4989     0.9191     4.        
 900.u      20.        6.6554     0.94122    4.        
 950.u      20.        6.8525     0.9691     4.        
 0.001      20.        7.071      1.         4.        
#Freq       v(1)       v(2)       v(3)      
 1.K        0.         2.         0.2       
#Freq       vp(1)      vp(2)      vp(3)     
 1.K        0.         45.        0.        
