' 
#           v(2)       v(3)       v(4)       v(5)       v(6)       iter(0)   
 0.         0.         0.         0.         0.         0.         0.        
-1.         0.5        1.         1.         2.         1.         1.        
-2.         0.5        1.         0.5        2.         0.5        2.        
-3.         0.5        1.         0.5        2.         0.5        3.        
 300.15     0.5        1.         0.5        2.         0.5        4.        
#Time       v(2)       v(3)       v(4)       v(5)       v(6)       iter(0)   
 0.         0.         0.         0.         0.         0.         0.        
-1.         0.5        1.         1.         1.         1.         1.        
-2.         0.5        1.         0.5        1.         0.5        2.        
-3.         0.5        1.         0.5        1.         0.5        3.        
 0.         0.5        1.         0.5        1.         0.5        4.        
 0.         0.5        1.         0.5        1.         0.5        0.        
-1.         0.5        1.         0.5        1.0063     0.49843    1.        
-2.         0.5        1.         0.5        1.0063     0.49843    2.        
-3.         0.5        1.         0.5        1.0063     0.49843    3.        
 1.u        0.5        1.         0.5        1.0063     0.49843    4.        
 0.         0.5        1.         0.5        1.0063     0.49843    0.        
-1.         0.5        1.         0.5        1.0188     0.49531    1.        
-2.         0.5        1.         0.5        1.0188     0.49533    2.        
-3.         0.5        1.         0.5        1.0188     0.49533    3.        
 3.u        0.5        1.         0.5        1.0188     0.49533    4.        
 0.         0.5        1.         0.5        1.0188     0.49533    0.        
-1.         0.5        1.         0.5        1.044      0.48917    1.        
-2.         0.5        1.         0.5        1.044      0.48924    2.        
-3.         0.5        1.         0.5        1.044      0.48924    3.        
 7.u        0.5        1.         0.5        1.044      0.48924    4.        
 0.         0.5        1.         0.5        1.044      0.48924    0.        
-1.         0.5        1.         0.5        1.0941     0.47724    1.        
-2.         0.5        1.         0.5        1.0941     0.47753    2.        
-3.         0.5        1.         0.5        1.0941     0.47753    3.        
 15.u       0.5        1.         0.5        1.0941     0.47753    4.        
 0.         0.5        1.         0.5        1.0941     0.47753    0.        
-1.         0.5        1.         0.5        1.1935     0.45485    1.        
-2.         0.5        1.         0.5        1.1935     0.45588    2.        
-3.         0.5        1.         0.5        1.1935     0.45588    3.        
 31.u       0.5        1.         0.5        1.1935     0.45588    4.        
 0.         0.5        1.         0.5        1.1935     0.45588    0.        
-1.         0.5        1.         0.5        1.3856     0.41597    1.        
-2.         0.5        1.         0.5        1.3856     0.41918    2.        
-3.         0.5        1.         0.5        1.3856     0.41918    3.        
 63.u       0.5        1.         0.5        1.3856     0.41918    4.        
 0.         0.5        1.         0.5        1.3856     0.41918    0.        
-1.         0.5        1.         0.5        1.5878     0.38365    1.        
-2.         0.5        1.         0.5        1.5878     0.38643    2.        
-3.         0.5        1.         0.5        1.5878     0.38643    3.        
 100.u      0.5        1.         0.5        1.5878     0.38643    4.        
 0.         0.5        1.         0.5        1.5878     0.38643    0.        
-1.         0.5        1.         0.5        1.809      0.35339    1.        
-2.         0.5        1.         0.5        1.809      0.356      2.        
-3.         0.5        1.         0.5        1.809      0.356      3.        
 150.u      0.5        1.         0.5        1.809      0.356      4.        
 0.         0.5        1.         0.5        1.809      0.356      0.        
-1.         0.5        1.         0.5        1.9511     0.338      1.        
-2.         0.5        1.         0.5        1.9511     0.33886    2.        
-3.         0.5        1.         0.5        1.9511     0.33886    3.        
 200.u      0.5        1.         0.5        1.9511     0.33886    4.        
 0.         0.5        1.         0.5        1.9511     0.33886    0.        
-1.         0.5        1.         0.5        1.9511     0.33886    1.        
-2.         0.5        1.         0.5        1.9511     0.33886    2.        
 300.u      0.5        1.         0.5        1.9511     0.33886    3.        
 0.         0.5        1.         0.5        1.9511     0.33886    0.        
-1.         0.5        1.         0.5        1.5878     0.38058    1.        
-2.         0.5        1.         0.5        1.5878     0.38643    2.        
-3.         0.5        1.         0.5        1.5878     0.38643    3.        
 400.u      0.5        1.         0.5        1.5878     0.38643    4.        
 0.         0.5        1.         0.5        1.5878     0.38643    0.        
-1.         0.5        1.         0.5        1.         0.4742     1.        
-2.         0.5        1.         0.5        1.         0.5        2.        
-3.         0.5        1.         0.5        1.         0.5        3.        
 500.u      0.5        1.         0.5        1.         0.5        4.        
 0.         0.5        1.         0.5        1.         0.5        0.        
-1.         0.5        1.         0.5        0.41221    0.64695    1.        
-2.         0.5        1.         0.5        0.41221    0.70811    2.        
-3.         0.5        1.         0.5        0.41221    0.70811    3.        
 600.u      0.5        1.         0.5        0.41221    0.70811    4.        
 0.         0.5        1.         0.5        0.41221    0.70811    0.        
-1.         0.5        1.         0.5        0.048943   0.89026    1.        
-2.         0.5        1.         0.5        0.048943   0.95334    2.        
-3.         0.5        1.         0.5        0.048943   0.95334    3.        
 700.u      0.5        1.         0.5        0.048943   0.95334    4.        
 0.         0.5        1.         0.5        0.048943   0.95334    0.        
-1.         0.5        1.         0.5        0.048943   0.95334    1.        
-2.         0.5        1.         0.5        0.048943   0.95334    2.        
 800.u      0.5        1.         0.5        0.048943   0.95334    3.        
 0.         0.5        1.         0.5        0.048943   0.95334    0.        
-1.         0.5        1.         0.5        0.41221    0.62318    1.        
-2.         0.5        1.         0.5        0.41221    0.70811    2.        
-3.         0.5        1.         0.5        0.41221    0.70811    3.        
 900.u      0.5        1.         0.5        0.41221    0.70811    4.        
 0.         0.5        1.         0.5        0.41221    0.70811    0.        
-1.         0.5        1.         0.5        1.         0.41338    1.        
-2.         0.5        1.         0.5        1.         0.5        2.        
-3.         0.5        1.         0.5        1.         0.5        3.        
 0.001      0.5        1.         0.5        1.         0.5        4.        
