' 
#           v(Vcc)     v(Vin)     i(Vcc)     i(Vin)     i(Mamp)    iter(0)   
 300.15     10.        1.        -0.01       0.         0.01       4.        
#Time       v(Vcc)     v(Vin)     i(Vcc)     i(Vin)     i(Mamp)    iter(0)   
 0.         10.        1.        -0.01       0.         0.01       4.        
 50.u       10.        1.0309    -0.010309   0.         0.010309   26.       
 100.u      10.        1.0588    -0.010588   0.         0.010588   8.        
 150.u      10.        1.0809    -0.010809   0.         0.010809   4.        
 200.u      10.        1.0951    -0.010951   0.         0.010951   4.        
 250.u      10.        1.1       -0.011      0.         0.011      4.        
 300.u      10.        1.0951    -0.010951   0.         0.010951   4.        
 350.u      10.        1.0809    -0.010809   0.         0.010809   4.        
 400.u      10.        1.0588    -0.010588   0.         0.010588   4.        
 450.u      10.        1.0309    -0.010309   0.         0.010309   4.        
 500.u      10.        1.        -0.01       0.         0.01       4.        
 550.u      10.        0.9691    -0.009691   0.         0.009691   4.        
 600.u      10.        0.94122   -0.0094122  0.         0.0094122  4.        
 650.u      10.        0.9191    -0.009191   0.         0.009191   4.        
 700.u      10.        0.90489   -0.0090489  0.         0.0090489  4.        
 750.u      10.        0.9       -0.009      0.         0.009      4.        
 800.u      10.        0.90489   -0.0090489  0.         0.0090489  4.        
 850.u      10.        0.9191    -0.009191   0.         0.009191   4.        
 900.u      10.        0.94122   -0.0094122  0.         0.0094122  4.        
 950.u      10.        0.9691    -0.009691   0.         0.009691   4.        
 0.001      10.        1.        -0.01       0.         0.01       4.        
#Freq       v(Vcc)     v(Vin)     i(Vcc)     i(Vin)     i(Mamp)   
 1.K        20.n       0.2        0.002      975.22f    0.002     
#Freq       vp(Vcc)    vp(Vin)    ip(Vcc)    ip(Vin)    ip(Mamp)  
 1.K        180.       0.         180.       0.         0.        
