Graphic equalizer -- all bands flat, modify test 
#Freq       vdb(37)    vdb(31)    vdb(34)   
 31.25     -0.0033177 -2.1364n   -0.0016588 
 33.493    -0.0033177 -2.1846n   -0.0016588 
 35.897    -0.0033177 -2.2316n   -0.0016588 
 38.473    -0.0033177 -2.2772n   -0.0016588 
 41.235    -0.0033177 -2.3216n   -0.0016588 
 44.194    -0.0033177 -2.3648n   -0.0016588 
 47.366    -0.0033177 -2.4069n   -0.0016588 
 50.766    -0.0033177 -2.4479n   -0.0016588 
 54.409    -0.0033177 -2.488n    -0.0016588 
 58.315    -0.0033177 -2.5272n   -0.0016588 
 62.5      -0.0033177 -2.5656n   -0.0016588 
 66.986    -0.0033177 -2.6034n   -0.0016588 
 71.794    -0.0033177 -2.6406n   -0.0016588 
 76.947    -0.0033177 -2.6771n   -0.0016588 
 82.469    -0.0033177 -2.7131n   -0.0016588 
 88.388    -0.0033177 -2.7484n   -0.0016588 
 94.732    -0.0033177 -2.783n    -0.0016588 
 101.53    -0.0033177 -2.8168n   -0.0016588 
 108.82    -0.0033177 -2.8497n   -0.0016588 
 116.63    -0.0033177 -2.8815n   -0.0016588 
 125.      -0.0033177 -2.9121n   -0.0016588 
 133.97    -0.0033177 -2.9415n   -0.0016588 
 143.59    -0.0033177 -2.9694n   -0.0016588 
 153.89    -0.0033177 -2.9958n   -0.0016588 
 164.94    -0.0033177 -3.0207n   -0.0016588 
 176.78    -0.0033177 -3.044n    -0.0016588 
 189.46    -0.0033177 -3.0657n   -0.0016588 
 203.06    -0.0033177 -3.0858n   -0.0016588 
 217.64    -0.0033177 -3.1043n   -0.0016588 
 233.26    -0.0033177 -3.1213n   -0.0016588 
 250.      -0.0033177 -3.1368n   -0.0016588 
 267.94    -0.0033177 -3.151n    -0.0016588 
 287.17    -0.0033177 -3.164n    -0.0016588 
 307.79    -0.0033177 -3.1757n   -0.0016588 
 329.88    -0.0033177 -3.1864n   -0.0016588 
 353.55    -0.0033177 -3.1961n   -0.0016588 
 378.93    -0.0033177 -3.2049n   -0.0016588 
 406.13    -0.0033177 -3.2128n   -0.0016588 
 435.28    -0.0033177 -3.22n     -0.0016588 
 466.52    -0.0033177 -3.2265n   -0.0016588 
 500.      -0.0033177 -3.2324n   -0.0016588 
 535.89    -0.0033177 -3.2377n   -0.0016588 
 574.35    -0.0033177 -3.2426n   -0.0016588 
 615.57    -0.0033177 -3.2469n   -0.0016588 
 659.75    -0.0033176 -3.2509n   -0.0016588 
 707.11    -0.0033176 -3.2544n   -0.0016588 
 757.86    -0.0033176 -3.2576n   -0.0016588 
 812.25    -0.0033176 -3.2605n   -0.0016588 
 870.55    -0.0033176 -3.2631n   -0.0016588 
 933.03    -0.0033176 -3.2653n   -0.0016588 
 1.K       -0.0033176 -3.2673n   -0.0016588 
 1.0718K   -0.0033176 -3.269n    -0.0016588 
 1.1487K   -0.0033175 -3.2704n   -0.0016588 
 1.2311K   -0.0033175 -3.2714n   -0.0016588 
 1.3195K   -0.0033175 -3.2721n   -0.0016587 
 1.4142K   -0.0033175 -3.2725n   -0.0016587 
 1.5157K   -0.0033174 -3.2725n   -0.0016587 
 1.6245K   -0.0033174 -3.272n    -0.0016587 
 1.7411K   -0.0033173 -3.271n    -0.0016587 
 1.8661K   -0.0033173 -3.2695n   -0.0016586 
 2.K       -0.0033172 -3.2674n   -0.0016586 
 2.1435K   -0.0033172 -3.2647n   -0.0016586 
 2.2974K   -0.0033171 -3.2612n   -0.0016585 
 2.4623K   -0.003317  -3.2569n   -0.0016585 
 2.639K    -0.0033169 -3.2518n   -0.0016584 
 2.8284K   -0.0033168 -3.2458n   -0.0016584 
 3.0314K   -0.0033166 -3.2388n   -0.0016583 
 3.249K    -0.0033165 -3.2307n   -0.0016582 
 3.4822K   -0.0033163 -3.2215n   -0.0016581 
 3.7321K   -0.0033161 -3.2111n   -0.001658  
 4.K       -0.0033158 -3.1994n   -0.0016579 
 4.2871K   -0.0033156 -3.1864n   -0.0016578 
 4.5948K   -0.0033152 -3.1721n   -0.0016576 
 4.9246K   -0.0033149 -3.1563n   -0.0016574 
 5.278K    -0.0033145 -3.1391n   -0.0016572 
 5.6569K   -0.003314  -3.1205n   -0.001657  
 6.0629K   -0.0033134 -3.1004n   -0.0016567 
 6.498K    -0.0033128 -3.079n    -0.0016564 
 6.9644K   -0.0033121 -3.0562n   -0.001656  
 7.4643K   -0.0033112 -3.0323n   -0.0016556 
 8.K       -0.0033103 -3.0072n   -0.0016551 
 8.5742K   -0.0033092 -2.9811n   -0.0016546 
 9.1896K   -0.0033079 -2.9541n   -0.001654  
 9.8492K   -0.0033065 -2.9264n   -0.0016533 
 10.556K   -0.0033048 -2.8981n   -0.0016524 
 11.314K   -0.003303  -2.8693n   -0.0016515 
 12.126K   -0.0033008 -2.8401n   -0.0016504 
 12.996K   -0.0032983 -2.8106n   -0.0016492 
 13.929K   -0.0032955 -2.7807n   -0.0016477 
 14.929K   -0.0032922 -2.7506n   -0.0016461 
 16.K      -0.0032885 -2.7202n   -0.0016442 
 17.148K   -0.0032842 -2.6894n   -0.0016421 
 18.379K   -0.0032794 -2.6583n   -0.0016397 
 19.698K   -0.0032738 -2.6267n   -0.0016369 
 21.112K   -0.0032675 -2.5946n   -0.0016338 
 22.627K   -0.0032603 -2.5619n   -0.0016302 
 24.251K   -0.0032522 -2.5285n   -0.0016261 
 25.992K   -0.0032429 -2.4945n   -0.0016214 
 27.858K   -0.0032323 -2.4597n   -0.0016162 
 29.857K   -0.0032204 -2.4242n   -0.0016102 
 32.K      -0.003207  -2.388n    -0.0016035 
R101a  35  1  50.K
R101b  36  1  50.K
R102a  32  4  50.K
R102b  33  4  50.K
R103a  35  7  50.K
R103b  36  7  50.K
R104a  32  10  50.K
R104b  33  10  50.K
R105a  35  13  50.K
R105b  36  13  50.K
R106a  32  16  50.K
R106b  33  16  50.K
R107a  35  19  50.K
R107b  36  19  50.K
R108a  32  22  50.K
R108b  33  22  50.K
R109a  35  25  50.K
R109b  36  25  50.K
R110a  32  28  50.K
R110b  33  28  50.K
C1  1  2  1.5u
C2  4  5  748.n
C3  7  8  408.n
C4  10  11  206.n
C5  13  14  100.n
C6  16  17  50.9n
C7  19  20  25.3n
C8  22  23  12.7n
C9  25  26  5.9n
C10  28  29  2.95n
C11  2  3  15.n
C12  5  6  6.8n
C13  8  9  3.3n
C14  11  12  1.8n
C15  14  15  1.n
C16  17  18  470.p
C17  20  21  220.p
C18  23  24  120.p
C19  26  27  68.p
C20  29  30  33.p
R1  3  0  475.K
R2  6  0  536.K
R3  9  0  549.K
R4  12  0  499.K
R5  15  0  464.K
R6  18  0  475.K
R7  21  0  523.K
R8  24  0  475.K
R9  27  0  412.K
R10  30  0  422.K
G5a  2  0  3  0 -416.666u
R11  2  0  2.4K
G5b  5  0  6  0 -416.666u
R12  5  0  2.4K
G6a  8  0  9  0 -454.545u
R13  8  0  2.2K
G6b  11  0  12  0 -454.545u
R14  11  0  2.2K
G7a  14  0  15  0 -454.545u
R15  14  0  2.2K
G7b  17  0  18  0 -454.545u
R16  17  0  2.2K
G8a  20  0  21  0 -454.545u
R17  20  0  2.2K
G8b  23  0  24  0 -454.545u
R18  23  0  2.2K
G9a  26  0  27  0 -416.666u
R19  26  0  2.4K
G9b  29  0  30  0 -416.666u
R20  29  0  2.4K
R29  31  32  9.1K
R30  33  34  9.1K
R31  34  35  9.1K
R32  36  37  9.1K
C25  31  32  150.p
C26  33  34  150.p
C27  34  35  150.p
C28  36  37  150.p
Vin  31  0  DC   1.  AC   1.
E2  34  0  32  33  10.K
E3  37  0  35  36  10.K
.print ac vdb(37) vdb(31) vdb(34) 
.ac oct 10 31.25 32k 
