'inductance check, no tolerance 
V1  1  0  GENERATOR
L3  1  2  1.
R4  2  0  1.
R5  1  3  0.97
C6  3  0  1.
.options short=1p 
.width out=170 
Node:  Branches
   0: V1 R4 C6
   1: V1 L3 R5
   2: L3 R4
   3: R5 C6
Node:  Branches
   2: L3 R4
#Time       iter(0)    v(1)       v(2)       v(3)       z(C6)      zraw(C6)   z(3)      
 0.         3.         0.         0.         0.         0.97       0.97       0.97      
 0.1        28.        1.         0.095169   0.097964   0.97       0.018154   0.018154  
 0.2        8.         1.         0.18129    0.18634    0.97       0.024372   0.024372  
 0.3        4.         1.         0.25926    0.26611    0.97       0.047549   0.047549  
 0.4        4.         1.         0.32981    0.33806    0.97       0.047549   0.047549  
 0.5        4.         1.         0.39364    0.40296    0.97       0.047549   0.047549  
 0.6        4.         1.         0.45139    0.46149    0.97       0.047549   0.047549  
 0.7        4.         1.         0.50364    0.51429    0.97       0.047549   0.047549  
 0.8        4.         1.         0.55091    0.56191    0.97       0.047549   0.047549  
 0.9        4.         1.         0.59368    0.60486    0.97       0.047549   0.047549  
 1.         4.         1.         0.63238    0.6436     0.97       0.047549   0.047549  
#Freq       v(2)       v(3)       vp(2)      vp(3)      z(C6)      zraw(C6)   z(3)      
 0.001      0.99998    0.99998   -0.36      -0.3492     0.97       0.96998    0.96998   
 0.0031623  0.9998     0.99981   -1.1383    -1.1041     0.97       0.96982    0.96982   
 0.01       0.99803    0.99815   -3.5953    -3.4877     0.97       0.9682     0.9682    
 0.031623   0.98083    0.98193   -11.238    -10.909     0.97       0.95247    0.95247   
 0.1        0.84673    0.85391   -32.142    -31.361     0.97       0.82829    0.82829   
 0.31623    0.44956    0.46055   -63.284    -62.577     0.97       0.44674    0.44674   
 1.         0.15718    0.16191   -80.957    -80.682     0.97       0.15705    0.15705   
 3.1623     0.050266   0.051816  -87.119    -87.03      0.97       0.050262   0.050262  
 10.        0.015913   0.016406  -89.088    -89.06      0.97       0.015913   0.015913  
V1  1  0  GENERATOR
L3  1  2  1.
R4  2  0  1.
R5  1  3  0.97
C6  3  0  1.
.options short=1p 
.width out=170 
.list 
.print tran iter(0)  v(nodes) z(c6) zraw(c6) z(3) 
.fanout 
.fanout 2 
.tran 0 1 .1 
.print ac v(2) v(3) vp(2) vp(3) z(c6) zraw(c6) z(3) 
.ac .001 10 decade 2 
