2 stage op-amp open loop  02/16/88 
#           iter(0)    v(1)       v(2)       v(3)       v(4)       v(5)      
+ v(6)       v(7)       v(8)       v(9)      
 300.15     13.        0.         0.         0.87496    0.87523   -1.1707    
+-0.06232   -1.6303    -2.5        2.5       
vdb(6) 0.                20.              40.               60.             80.
vp(6)-180.              -90.              0.                90.            180.
        +-----------------+----------------+-----------------+----------------+
 1.     |                 .                +                 *                |
 1.5849 |                 .               +.                 *                |
 2.5119 |                 .               +.                 *                |
 3.9811 |                 .              + .                 *                |
 6.3096 |                 .             +  .                 *                |
 10.    |                 .            +   .                *.                |
 15.849 |                 .          +     .                *.                |
 25.119 |                 .       +        .              *  .                |
 39.811 |                 .     +          .            *    .                |
 63.096 |                 .   +            .         *       .                |
 100.   |                 . +              .      *          .                |
 158.49 |                 .+               .   *             .                |
 251.19 |                 +                *                 .                |
 398.11 |                 +             *  .                 .                |
 630.96 |                 +         *      .                 .                |
 1.K    |                +.      *         .                 .                |
 1.5849K|                +.  *             .                 .                |
 2.5119K|                +*                .                 .                |
 3.9811K|             * + .                .                 .                |
 6.3096K|          *   +  .                .                 .                |
 10.K   |      *      +   .                .                 .                |
 15.849K|  *        +     .                .                 .                |
 25.119K*        +        .                .                 .                |
 39.811K*    +            .                .                 .                |
 63.096K*+                .                .                 .                |
 100.K  *                 .                .                 .             +  |
 158.49K*                 .                .                 .         +      |
 251.19K*                 .                .                 .      +         |
 398.11K*                 .                .                 .   +            |
 630.96K*                 .                .                 . +              |
 1.Meg  *                 .                .                 .+               |
 1.5849M*                 .                .                +.                |
 2.5119M*                 .                .               + .                |
 3.9811M*                 .                .              +  .                |
 6.3096M*                 .                .             +   .                |
 10.Meg *                 .                .            +    .                |
        +-----------------+----------------+-----------------+----------------+
v(6)  -4.               -2.               0.                2.               4.
        +-----------------+----------------+-----------------+----------------+
-500.u  |                 .  *             .                 .                |
-480.u  |                 .   *            .                 .                |
-460.u  |                 .   *            .                 .                |
-440.u  |                 .    *           .                 .                |
-420.u  |                 .    *           .                 .                |
-400.u  |                 .     *          .                 .                |
-380.u  |                 .     *          .                 .                |
-360.u  |                 .      *         .                 .                |
-340.u  |                 .      *         .                 .                |
-320.u  |                 .       *        .                 .                |
-300.u  |                 .       *        .                 .                |
-280.u  |                 .        *       .                 .                |
-260.u  |                 .        *       .                 .                |
-240.u  |                 .         *      .                 .                |
-220.u  |                 .         *      .                 .                |
-200.u  |                 .          *     .                 .                |
-180.u  |                 .          *     .                 .                |
-160.u  |                 .           *    .                 .                |
-140.u  |                 .            *   .                 .                |
-120.u  |                 .            *   .                 .                |
-100.u  |                 .             *  .                 .                |
-80.u   |                 .             *  .                 .                |
-60.u   |                 .              * .                 .                |
-40.u   |                 .              * .                 .                |
-20.u   |                 .               *.                 .                |
 0.     |                 .               *.                 .                |
 20.u   |                 .                *                 .                |
 40.u   |                 .                .*                .                |
 60.u   |                 .                .*                .                |
 80.u   |                 .                . *               .                |
 100.u  |                 .                . *               .                |
 120.u  |                 .                .  *              .                |
 140.u  |                 .                .   *             .                |
 160.u  |                 .                .   *             .                |
 180.u  |                 .                .    *            .                |
 200.u  |                 .                .    *            .                |
 220.u  |                 .                .     *           .                |
 240.u  |                 .                .      *          .                |
 260.u  |                 .                .      *          .                |
 280.u  |                 .                .       *         .                |
 300.u  |                 .                .        *        .                |
 320.u  |                 .                .        *        .                |
 340.u  |                 .                .         *       .                |
 360.u  |                 .                .         *       .                |
 380.u  |                 .                .          *      .                |
 400.u  |                 .                .           *     .                |
 420.u  |                 .                .           *     .                |
 440.u  |                 .                .            *    .                |
 460.u  |                 .                .             *   .                |
 480.u  |                 .                .             *   .                |
 500.u  |                 .                .              *  .                |
        +-----------------+----------------+-----------------+----------------+
#Time       v(Vin)     v(6)      
 0.         0.        -0.061969  
 31.25u     0.097545   0.31414   
 62.5u      0.19134    1.5447    
 93.75u     0.27779    2.4906    
 125.u      0.35355    2.4983    
 156.25u    0.41573    2.4854    
 187.5u     0.46194    2.4863    
 218.75u    0.49039    2.4944    
 250.u      0.5        2.4867    
 281.25u    0.49039    2.4942    
 312.5u     0.46194    2.487     
 343.75u    0.41573    2.4939    
 375.u      0.35355    2.487     
 406.25u    0.27779    2.4935    
 437.5u     0.19134    2.4869    
 468.75u    0.097545   2.4931    
 500.u      4.7903f    2.4865    
 531.25u   -0.097545   2.4937    
 562.5u    -0.19134    2.3458    
 593.75u   -0.27779    2.0883    
 625.u     -0.35355    1.4183    
 656.25u   -0.41573    0.79415   
 687.5u    -0.46194    0.25046   
 718.75u   -0.49039   -0.22323   
 750.u     -0.5       -0.63751   
 781.25u   -0.49039   -0.99544   
 812.5u    -0.46194   -1.3093    
 843.75u   -0.41573   -1.5801    
 875.u     -0.35355   -1.8171    
 906.25u   -0.27779   -2.0215    
 937.5u    -0.19134   -2.2008    
 968.75u   -0.097545  -2.3571    
 0.001     -4.6308f   -2.441     
#Time       v(Vin)     v(6)      
 0.001     -4.6287f   -2.441     
 0.0010313  0.097545  -2.4766    
 0.0010625  0.19134   -2.0768    
 0.0010938  0.27779   -0.31815   
 0.001125   0.35355    1.6949    
 0.0011563  0.41573    2.4876    
 0.0011875  0.46194    2.4952    
 0.0012188  0.49039    2.4876    
 0.00125    0.5        2.4881    
 0.0012813  0.49039    2.4929    
 0.0013125  0.46194    2.4883    
 0.0013438  0.41573    2.4927    
 0.001375   0.35355    2.4882    
 0.0014063  0.27779    2.4923    
 0.0014375  0.19134    2.4881    
 0.0014688  0.097545   2.492     
 0.0015    -2.3742f    2.4877    
 0.0015313 -0.097545   2.4923    
 0.0015625 -0.19134    2.3548    
 0.0015938 -0.27779    2.0622    
 0.001625  -0.35355    1.3996    
 0.0016563 -0.41573    0.77787   
 0.0016875 -0.46194    0.23626   
 0.0017188 -0.49039   -0.23562   
 0.00175   -0.5       -0.64832   
 0.0017813 -0.49039   -1.0048    
 0.0018125 -0.46194   -1.3175    
 0.0018438 -0.41573   -1.5871    
 0.001875  -0.35355   -1.8233    
 0.0019063 -0.27779   -2.0268    
 0.0019375 -0.19134   -2.2055    
 0.0019688 -0.097545  -2.3607    
 0.002      2.4329f   -2.4418    
# v(Vin)    --------- actual ---------  -------- relative --------
#freq       value        dB      phase  value        dB      phase
 0.         46.14E-18 -326.72   90.000  92.28E-18 -320.70   90.000
 1.K        0.5         -6.02    0.000  1.           0.00    0.000
 2.K        854.6E-18 -301.36  117.972  1.7092f   -295.34  117.972
 3.K        1.207f    -298.37  -60.106  2.4141f   -292.35  -60.106
 4.K        1.3126f   -297.64  -20.800  2.6252f   -291.62  -20.800
 5.K        988.1E-18 -300.10  -94.488  1.9763f   -294.08  -94.488
 6.K        1.2226f   -298.25  -88.587  2.4452f   -292.23  -88.587
 7.K        972.4E-18 -300.24  -64.475  1.9447f   -294.22  -64.475
 8.K        552.5E-18 -305.15 -120.889  1.1049f   -299.13 -120.889
 9.K        880.6E-18 -301.10 -103.789  1.7613f   -295.08 -103.789
 10.K       131.9E-18 -317.59   35.564  263.9E-18 -311.57   35.564
# v(6)      --------- actual ---------  -------- relative --------
#freq       value        dB      phase  value        dB      phase
 0.         0.63676     -3.92   90.000  0.24599    -12.18  144.285
 1.K        2.5886       8.26  -54.285  1.           0.00    0.000
 2.K        0.68078     -3.34  -49.045  0.26299    -11.60    5.239
 3.K        0.57032     -4.88 -115.774  0.22032    -13.14  -61.489
 4.K        0.29273    -10.67 -129.069  0.11308    -18.93  -74.784
 5.K        0.25659    -11.82  177.510  0.09912    -20.08 -128.205
 6.K        0.14683    -16.66  154.621  0.05672    -24.93 -151.095
 7.K        0.12774    -17.87  106.489  0.049348   -26.13  160.774
 8.K        0.075013   -22.50   80.311  0.028978   -30.76  134.596
 9.K        0.060665   -24.34   34.367  0.023435   -32.60   88.652
 10.K       0.034516   -29.24   13.910  0.013334   -37.50   68.195
