2 stage op-amp open loop  02/16/88 
#           iter(0)    v(1)       v(2)       v(3)       v(4)       v(5)      
+ v(6)       v(7)       v(8)       v(9)      
 300.15     16.        0.         0.         0.87501    0.87512   -1.1707    
+-0.055362  -1.6303    -2.5        2.5       
vdb(6) 0.                20.              40.               60.             80.
vp(6)-180.              -90.              0.                90.            180.
        +-----------------+----------------+-----------------+----------------+
 1.     |                 .                +                 *                |
 1.5849 |                 .               +.                 *                |
 2.5119 |                 .               +.                 *                |
 3.9811 |                 .              + .                 *                |
 6.3096 |                 .             +  .                 *                |
 10.    |                 .            +   .                *.                |
 15.849 |                 .          +     .                *.                |
 25.119 |                 .       +        .              *  .                |
 39.811 |                 .     +          .            *    .                |
 63.096 |                 .   +            .         *       .                |
 100.   |                 . +              .      *          .                |
 158.49 |                 .+               .   *             .                |
 251.19 |                 +                *                 .                |
 398.11 |                 +             *  .                 .                |
 630.96 |                 +         *      .                 .                |
 1.K    |                +.      *         .                 .                |
 1.5849K|                +.  *             .                 .                |
 2.5119K|                +*                .                 .                |
 3.9811K|             * + .                .                 .                |
 6.3096K|          *   +  .                .                 .                |
 10.K   |      *      +   .                .                 .                |
 15.849K|  *        +     .                .                 .                |
 25.119K*        +        .                .                 .                |
 39.811K*    +            .                .                 .                |
 63.096K*+                .                .                 .                |
 100.K  *                 .                .                 .             +  |
 158.49K*                 .                .                 .         +      |
 251.19K*                 .                .                 .      +         |
 398.11K*                 .                .                 .   +            |
 630.96K*                 .                .                 . +              |
 1.Meg  *                 .                .                 .+               |
 1.5849M*                 .                .                +.                |
 2.5119M*                 .                .               + .                |
 3.9811M*                 .                .              +  .                |
 6.3096M*                 .                .             +   .                |
 10.Meg *                 .                .            +    .                |
        +-----------------+----------------+-----------------+----------------+
v(6)  -4.               -2.               0.                2.               4.
        +-----------------+----------------+-----------------+----------------+
-500.u  |                 .  *             .                 .                |
-480.u  |                 .   *            .                 .                |
-460.u  |                 .   *            .                 .                |
-440.u  |                 .    *           .                 .                |
-420.u  |                 .    *           .                 .                |
-400.u  |                 .     *          .                 .                |
-380.u  |                 .     *          .                 .                |
-360.u  |                 .      *         .                 .                |
-340.u  |                 .      *         .                 .                |
-320.u  |                 .       *        .                 .                |
-300.u  |                 .       *        .                 .                |
-280.u  |                 .        *       .                 .                |
-260.u  |                 .        *       .                 .                |
-240.u  |                 .         *      .                 .                |
-220.u  |                 .         *      .                 .                |
-200.u  |                 .          *     .                 .                |
-180.u  |                 .          *     .                 .                |
-160.u  |                 .           *    .                 .                |
-140.u  |                 .            *   .                 .                |
-120.u  |                 .            *   .                 .                |
-100.u  |                 .             *  .                 .                |
-80.u   |                 .             *  .                 .                |
-60.u   |                 .              * .                 .                |
-40.u   |                 .              * .                 .                |
-20.u   |                 .               *.                 .                |
 0.     |                 .               *.                 .                |
 20.u   |                 .                *                 .                |
 40.u   |                 .                .*                .                |
 60.u   |                 .                .*                .                |
 80.u   |                 .                . *               .                |
 100.u  |                 .                . *               .                |
 120.u  |                 .                .  *              .                |
 140.u  |                 .                .   *             .                |
 160.u  |                 .                .   *             .                |
 180.u  |                 .                .    *            .                |
 200.u  |                 .                .    *            .                |
 220.u  |                 .                .     *           .                |
 240.u  |                 .                .      *          .                |
 260.u  |                 .                .      *          .                |
 280.u  |                 .                .       *         .                |
 300.u  |                 .                .        *        .                |
 320.u  |                 .                .        *        .                |
 340.u  |                 .                .         *       .                |
 360.u  |                 .                .         *       .                |
 380.u  |                 .                .          *      .                |
 400.u  |                 .                .           *     .                |
 420.u  |                 .                .           *     .                |
 440.u  |                 .                .            *    .                |
 460.u  |                 .                .             *   .                |
 480.u  |                 .                .             *   .                |
 500.u  |                 .                .              *  .                |
        +-----------------+----------------+-----------------+----------------+
#Time       v(Vin)     v(6)      
 0.         0.        -0.05534   
 31.25u     0.097545   0.32093   
 62.5u      0.19134    1.5518    
 93.75u     0.27779    2.4908    
 125.u      0.35355    2.4985    
 156.25u    0.41573    2.4857    
 187.5u     0.46194    2.4865    
 218.75u    0.49039    2.4946    
 250.u      0.5        2.487     
 281.25u    0.49039    2.4944    
 312.5u     0.46194    2.4872    
 343.75u    0.41573    2.4942    
 375.u      0.35355    2.4873    
 406.25u    0.27779    2.4938    
 437.5u     0.19134    2.4871    
 468.75u    0.097545   2.4934    
 500.u      4.4057f    2.4867    
 531.25u   -0.097545   2.494     
 562.5u    -0.19134    2.3448    
 593.75u   -0.27779    2.0907    
 625.u     -0.35355    1.42      
 656.25u   -0.41573    0.79564   
 687.5u    -0.46194    0.25175   
 718.75u   -0.49039   -0.22211   
 750.u     -0.5       -0.63654   
 781.25u   -0.49039   -0.99459   
 812.5u    -0.46194   -1.3085    
 843.75u   -0.41573   -1.5794    
 875.u     -0.35355   -1.8166    
 906.25u   -0.27779   -2.021     
 937.5u    -0.19134   -2.2004    
 968.75u   -0.097545  -2.3568    
 0.001     -4.2431f   -2.441     
#Time       v(Vin)     v(6)      
 0.001     -4.2431f   -2.441     
 0.0010313  0.097545  -2.4766    
 0.0010625  0.19134   -2.0791    
 0.0010938  0.27779   -0.32055   
 0.001125   0.35355    1.6926    
 0.0011563  0.41573    2.4878    
 0.0011875  0.46194    2.4953    
 0.0012188  0.49039    2.488     
 0.00125    0.5        2.4884    
 0.0012813  0.49039    2.493     
 0.0013125  0.46194    2.4886    
 0.0013438  0.41573    2.4928    
 0.001375   0.35355    2.4886    
 0.0014063  0.27779    2.4925    
 0.0014375  0.19134    2.4884    
 0.0014688  0.097545   2.4922    
 0.0015    -2.8973f    2.4879    
 0.0015313 -0.097545   2.4925    
 0.0015625 -0.19134    2.3551    
 0.0015938 -0.27779    2.0627    
 0.001625  -0.35355    1.4       
 0.0016563 -0.41573    0.77821   
 0.0016875 -0.46194    0.23655   
 0.0017188 -0.49039   -0.23536   
 0.00175   -0.5       -0.6481    
 0.0017813 -0.49039   -1.0046    
 0.0018125 -0.46194   -1.3173    
 0.0018438 -0.41573   -1.587     
 0.001875  -0.35355   -1.8232    
 0.0019063 -0.27779   -2.0267    
 0.0019375 -0.19134   -2.2054    
 0.0019688 -0.097545  -2.3607    
 0.002      2.9586f   -2.4418    
# v(Vin)    --------- actual ---------  -------- relative --------
#freq       value        dB      phase  value        dB      phase
 0.         83.06E-18 -321.61  -90.000  166.1E-18 -315.59  -90.000
 1.K        0.5         -6.02    0.000  1.           0.00    0.000
 2.K        936.E-18  -300.57  124.802  1.8719f   -294.55  124.802
 3.K        1.3012f   -297.71  -65.862  2.6023f   -291.69  -65.862
 4.K        1.2501f   -298.06  -21.836  2.5003f   -292.04  -21.836
 5.K        878.E-18  -301.13 -106.971  1.7559f   -295.11 -106.971
 6.K        1.1256f   -298.97  -89.740  2.2511f   -292.95  -89.740
 7.K        970.6E-18 -300.26  -54.030  1.9413f   -294.24  -54.030
 8.K        531.9E-18 -305.48 -111.523  1.0639f   -299.46 -111.523
 9.K        1.0165f   -299.86 -104.124  2.0331f   -293.84 -104.124
 10.K       86.08E-18 -321.30   78.249  172.2E-18 -315.28   78.249
# v(6)      --------- actual ---------  -------- relative --------
#freq       value        dB      phase  value        dB      phase
 0.         0.63674     -3.92   90.000  0.24595    -12.18  144.296
 1.K        2.5889       8.26  -54.296  1.           0.00    0.000
 2.K        0.6807      -3.34  -49.081  0.26293    -11.60    5.215
 3.K        0.57042     -4.88 -115.817  0.22033    -13.14  -61.521
 4.K        0.2927     -10.67 -129.140  0.11306    -18.93  -74.844
 5.K        0.25664    -11.81  177.436  0.099131   -20.08 -128.268
 6.K        0.14683    -16.66  154.526  0.056717   -24.93 -151.178
 7.K        0.12779    -17.87  106.396  0.049361   -26.13  160.691
 8.K        0.075033   -22.50   80.215  0.028983   -30.76  134.511
 9.K        0.060701   -24.34   34.272  0.023447   -32.60   88.568
 10.K       0.034516   -29.24   13.849  0.013332   -37.50   68.144
