ACS (Al's Circuit Simulator) 0.2808
Never trust any version less than 1.0
Copyright 1982-2000, Albert Davis
ACS comes with ABSOLUTELY NO WARRANTY
This is free software, and you are welcome
to redistribute it under certain conditions
according to the GNU General Public License.
See the file "COPYING" for details
A 145 node circuit 
#           v(2)      
 1.         0.99847   
 2.         1.9969    
 3.         2.9954    
 4.         3.9939    
 5.         4.9924    
 6.         5.9908    
 7.         6.9893    
 8.         7.9878    
 9.         8.9863    
 10.        9.9847    
#Freq       vm(2)      vdb(2)     vp(2)     
 31.25      0.99847   -0.013271   11.171u   
 62.5       0.99847   -0.013271   22.349u   
 125.       0.99847   -0.013271   44.705u   
 250.       0.99847   -0.013271   89.415u   
 500.       0.99847   -0.013271   178.83u   
 1.K        0.99847   -0.01327    357.64u   
 2.K        0.99847   -0.013269   715.13u   
 4.K        0.99847   -0.013263   0.001429  
 8.K        0.99848   -0.013241   0.002848  
 16.K       0.99849   -0.013154   0.005617  
ACS (Al's Circuit Simulator) 0.2808
Never trust any version less than 1.0
Copyright 1982-2000, Albert Davis
ACS comes with ABSOLUTELY NO WARRANTY
This is free software, and you are welcome
to redistribute it under certain conditions
according to the GNU General Public License.
See the file "COPYING" for details
A 289 node circuit 
#           v(2)      
 1.         0.99847   
 2.         1.9969    
 3.         2.9954    
 4.         3.9939    
 5.         4.9924    
 6.         5.9908    
 7.         6.9893    
 8.         7.9878    
 9.         8.9863    
 10.        9.9847    
#Freq       vm(2)      vdb(2)     vp(2)     
 31.25      0.99847   -0.013271   11.171u   
 62.5       0.99847   -0.013271   22.349u   
 125.       0.99847   -0.013271   44.705u   
 250.       0.99847   -0.013271   89.415u   
 500.       0.99847   -0.013271   178.83u   
 1.K        0.99847   -0.01327    357.64u   
 2.K        0.99847   -0.013269   715.13u   
 4.K        0.99847   -0.013263   0.001429  
 8.K        0.99848   -0.013241   0.002848  
 16.K       0.99849   -0.013154   0.005617  
ACS (Al's Circuit Simulator) 0.2808
Never trust any version less than 1.0
Copyright 1982-2000, Albert Davis
ACS comes with ABSOLUTELY NO WARRANTY
This is free software, and you are welcome
to redistribute it under certain conditions
according to the GNU General Public License.
See the file "COPYING" for details
A 577 node circuit 
#           v(2)      
 1.         0.99847   
 2.         1.9969    
 3.         2.9954    
 4.         3.9939    
 5.         4.9924    
 6.         5.9908    
 7.         6.9893    
 8.         7.9878    
 9.         8.9863    
 10.        9.9847    
#Freq       vm(2)      vdb(2)     vp(2)     
 31.25      0.99847   -0.013271   11.171u   
 62.5       0.99847   -0.013271   22.349u   
 125.       0.99847   -0.013271   44.705u   
 250.       0.99847   -0.013271   89.415u   
 500.       0.99847   -0.013271   178.83u   
 1.K        0.99847   -0.01327    357.64u   
 2.K        0.99847   -0.013269   715.13u   
 4.K        0.99847   -0.013263   0.001429  
 8.K        0.99848   -0.013241   0.002848  
 16.K       0.99849   -0.013154   0.005617  
ACS (Al's Circuit Simulator) 0.2808
Never trust any version less than 1.0
Copyright 1982-2000, Albert Davis
ACS comes with ABSOLUTELY NO WARRANTY
This is free software, and you are welcome
to redistribute it under certain conditions
according to the GNU General Public License.
See the file "COPYING" for details
A 1153 node circuit 
#           v(2)      
 1.         0.98785   
 2.         1.9757    
 3.         2.9636    
 4.         3.9514    
 5.         4.9393    
 6.         5.9271    
 7.         6.915     
 8.         7.9028    
 9.         8.8907    
 10.        9.8785    
#Freq       vm(2)      vdb(2)     vp(2)     
 31.25      0.98785   -0.10617    89.411u   
 62.5       0.98785   -0.10617    178.83u   
 125.       0.98785   -0.10617    357.67u   
 250.       0.98785   -0.10617    715.34u   
 500.       0.98785   -0.10617    0.0014307 
 1.K        0.98785   -0.10616    0.0028612 
 2.K        0.98785   -0.10615    0.0057211 
 4.K        0.98786   -0.10611    0.011432  
 8.K        0.98788   -0.10593    0.022784  
 16.K       0.98796   -0.10523    0.044936  
ACS (Al's Circuit Simulator) 0.2808
Never trust any version less than 1.0
Copyright 1982-2000, Albert Davis
ACS comes with ABSOLUTELY NO WARRANTY
This is free software, and you are welcome
to redistribute it under certain conditions
according to the GNU General Public License.
See the file "COPYING" for details
A 2305 node circuit 
#           v(2)      
 1.         0.97585   
 2.         1.9517    
 3.         2.9276    
 4.         3.9034    
 5.         4.8793    
 6.         5.8551    
 7.         6.831     
 8.         7.8068    
 9.         8.7827    
 10.        9.7585    
#Freq       vm(2)      vdb(2)     vp(2)     
 31.25      0.97585   -0.21233    178.83u   
 62.5       0.97585   -0.21233    357.67u   
 125.       0.97585   -0.21233    715.34u   
 250.       0.97585   -0.21233    0.0014307 
 500.       0.97585   -0.21233    0.0028613 
 1.K        0.97585   -0.21232    0.0057223 
 2.K        0.97585   -0.2123     0.011442  
 4.K        0.97586   -0.21221    0.022864  
 8.K        0.9759    -0.21186    0.045567  
 16.K       0.97606   -0.21046    0.089872  
ACS (Al's Circuit Simulator) 0.2808
Never trust any version less than 1.0
Copyright 1982-2000, Albert Davis
ACS comes with ABSOLUTELY NO WARRANTY
This is free software, and you are welcome
to redistribute it under certain conditions
according to the GNU General Public License.
See the file "COPYING" for details
Graphic equalizer -- boost 1k 
#Freq       vdb(37)    vdb(31)    vdb(34)   
 31.25      0.095167  -2.0118n    0.096826  
 37.163     0.11409   -2.1032n    0.11575   
 44.194     0.13781   -2.1809n    0.13947   
 52.556     0.16848   -2.2446n    0.17014   
 62.5       0.20922   -2.2952n    0.21088   
 74.325     0.26444   -2.3344n    0.2661    
 88.388     0.34021   -2.3642n    0.34187   
 105.11     0.44477   -2.3866n    0.44643   
 125.       0.58911   -2.4035n    0.59077   
 148.65     0.78769   -2.4165n    0.78934   
 176.78     1.059     -2.4266n    1.0607    
 210.22     1.4262    -2.4349n    1.4279    
 250.       1.9169    -2.4421n    1.9186    
 297.3      2.5634    -2.4488n    2.565     
 353.55     3.4014    -2.4552n    3.403     
 420.45     4.4697    -2.4615n    4.4714    
 500.       5.8076    -2.4678n    5.8093    
 594.6      7.4426    -2.4741n    7.4443    
 707.11     9.3356    -2.4804n    9.3373    
 840.9      11.183    -2.4867n    11.184    
 1.K        12.091    -2.4928n    12.092    
 1.1892K    11.281    -2.4985n    11.283    
 1.4142K    9.4491    -2.5039n    9.4508    
 1.6818K    7.5303    -2.5088n    7.532     
 2.K        5.8651    -2.5129n    5.8667    
 2.3784K    4.5032    -2.5158n    4.5049    
 2.8284K    3.4187    -2.5174n    3.4204    
 3.3636K    2.5711    -2.5176n    2.5728    
 4.K        1.9198    -2.5164n    1.9214    
 4.7568K    1.427     -2.5136n    1.4286    
 5.6569K    1.0593    -2.5093n    1.061     
 6.7272K    0.78815   -2.5028n    0.78981   
 8.K        0.58993   -2.4938n    0.59159   
 9.5137K    0.44583   -2.4813n    0.44748   
 11.314K    0.34124   -2.4642n    0.34289   
 13.454K    0.26508   -2.4413n    0.26673   
 16.K       0.20907   -2.4112n    0.21072   
 19.027K    0.16712   -2.3724n    0.16876   
 22.627K    0.13481   -2.3241n    0.13644   
 26.909K    0.10904   -2.2657n    0.11066   
 32.K       0.087701  -2.1976n    0.089304  
ACS (Al's Circuit Simulator) 0.2808
Never trust any version less than 1.0
Copyright 1982-2000, Albert Davis
ACS comes with ABSOLUTELY NO WARRANTY
This is free software, and you are welcome
to redistribute it under certain conditions
according to the GNU General Public License.
See the file "COPYING" for details
Graphic equalizer -- all bands flat, modify test 
#Freq       vdb(37)    vdb(31)    vdb(34)   
 31.25     -0.0033177 -2.1364n   -0.0016588 
 37.163    -0.0033177 -2.2546n   -0.0016588 
 44.194    -0.0033177 -2.3648n   -0.0016588 
 52.556    -0.0033177 -2.4681n   -0.0016588 
 62.5      -0.0033177 -2.5656n   -0.0016588 
 74.325    -0.0033177 -2.6589n   -0.0016588 
 88.388    -0.0033177 -2.7484n   -0.0016588 
 105.11    -0.0033177 -2.8333n   -0.0016588 
 125.      -0.0033177 -2.9121n   -0.0016588 
 148.65    -0.0033177 -2.9828n   -0.0016588 
 176.78    -0.0033177 -3.044n    -0.0016588 
 210.22    -0.0033177 -3.0952n   -0.0016588 
 250.      -0.0033177 -3.1368n   -0.0016588 
 297.3     -0.0033177 -3.17n     -0.0016588 
 353.55    -0.0033177 -3.1961n   -0.0016588 
 420.45    -0.0033177 -3.2165n   -0.0016588 
 500.      -0.0033177 -3.2324n   -0.0016588 
 594.6     -0.0033177 -3.2448n   -0.0016588 
 707.11    -0.0033176 -3.2544n   -0.0016588 
 840.9     -0.0033176 -3.2618n   -0.0016588 
 1.K       -0.0033176 -3.2673n   -0.0016588 
 1.1892K   -0.0033175 -3.2709n   -0.0016588 
 1.4142K   -0.0033175 -3.2725n   -0.0016587 
 1.6818K   -0.0033174 -3.2716n   -0.0016587 
 2.K       -0.0033172 -3.2674n   -0.0016586 
 2.3784K   -0.003317  -3.2592n   -0.0016585 
 2.8284K   -0.0033168 -3.2458n   -0.0016584 
 3.3636K   -0.0033164 -3.2263n   -0.0016582 
 4.K       -0.0033158 -3.1994n   -0.0016579 
 4.7568K   -0.0033151 -3.1644n   -0.0016575 
 5.6569K   -0.003314  -3.1205n   -0.001657  
 6.7272K   -0.0033125 -3.0678n   -0.0016562 
 8.K       -0.0033103 -3.0072n   -0.0016551 
 9.5137K   -0.0033072 -2.9404n   -0.0016536 
 11.314K   -0.003303  -2.8693n   -0.0016515 
 13.454K   -0.0032969 -2.7957n   -0.0016485 
 16.K      -0.0032885 -2.7202n   -0.0016442 
 19.027K   -0.0032767 -2.6425n   -0.0016384 
 22.627K   -0.0032603 -2.5619n   -0.0016302 
 26.909K   -0.0032378 -2.4772n   -0.0016189 
 32.K      -0.003207  -2.388n    -0.0016035 
ACS (Al's Circuit Simulator) 0.2808
Never trust any version less than 1.0
Copyright 1982-2000, Albert Davis
ACS comes with ABSOLUTELY NO WARRANTY
This is free software, and you are welcome
to redistribute it under certain conditions
according to the GNU General Public License.
See the file "COPYING" for details
Graphic equalizer -- all bands flat, modify test 
#Freq       vdb(37)    vdb(31)    vdb(34)   
 31.25     -0.0033177 -2.1364n   -0.0016588 
 37.163    -0.0033177 -2.2546n   -0.0016588 
 44.194    -0.0033177 -2.3648n   -0.0016588 
 52.556    -0.0033177 -2.4681n   -0.0016588 
 62.5      -0.0033177 -2.5656n   -0.0016588 
 74.325    -0.0033177 -2.6589n   -0.0016588 
 88.388    -0.0033177 -2.7484n   -0.0016588 
 105.11    -0.0033177 -2.8333n   -0.0016588 
 125.      -0.0033177 -2.9121n   -0.0016588 
 148.65    -0.0033177 -2.9828n   -0.0016588 
 176.78    -0.0033177 -3.044n    -0.0016588 
 210.22    -0.0033177 -3.0952n   -0.0016588 
 250.      -0.0033177 -3.1368n   -0.0016588 
 297.3     -0.0033177 -3.17n     -0.0016588 
 353.55    -0.0033177 -3.1961n   -0.0016588 
 420.45    -0.0033177 -3.2165n   -0.0016588 
 500.      -0.0033177 -3.2324n   -0.0016588 
 594.6     -0.0033177 -3.2448n   -0.0016588 
 707.11    -0.0033176 -3.2544n   -0.0016588 
 840.9     -0.0033176 -3.2618n   -0.0016588 
 1.K       -0.0033176 -3.2673n   -0.0016588 
 1.1892K   -0.0033175 -3.2709n   -0.0016588 
 1.4142K   -0.0033175 -3.2725n   -0.0016587 
 1.6818K   -0.0033174 -3.2716n   -0.0016587 
 2.K       -0.0033172 -3.2674n   -0.0016586 
 2.3784K   -0.003317  -3.2592n   -0.0016585 
 2.8284K   -0.0033168 -3.2458n   -0.0016584 
 3.3636K   -0.0033164 -3.2263n   -0.0016582 
 4.K       -0.0033158 -3.1994n   -0.0016579 
 4.7568K   -0.0033151 -3.1644n   -0.0016575 
 5.6569K   -0.003314  -3.1205n   -0.001657  
 6.7272K   -0.0033125 -3.0678n   -0.0016562 
 8.K       -0.0033103 -3.0072n   -0.0016551 
 9.5137K   -0.0033072 -2.9404n   -0.0016536 
 11.314K   -0.003303  -2.8693n   -0.0016515 
 13.454K   -0.0032969 -2.7957n   -0.0016485 
 16.K      -0.0032885 -2.7202n   -0.0016442 
 19.027K   -0.0032767 -2.6425n   -0.0016384 
 22.627K   -0.0032603 -2.5619n   -0.0016302 
 26.909K   -0.0032378 -2.4772n   -0.0016189 
 32.K      -0.003207  -2.388n    -0.0016035 
#Freq       vdb(37)    vdb(31)    vdb(34)   
 31.25      0.095167  -2.0118n    0.096826  
 37.163     0.11409   -2.1032n    0.11575   
 44.194     0.13781   -2.1809n    0.13947   
 52.556     0.16848   -2.2446n    0.17014   
 62.5       0.20922   -2.2952n    0.21088   
 74.325     0.26444   -2.3344n    0.2661    
 88.388     0.34021   -2.3642n    0.34187   
 105.11     0.44477   -2.3866n    0.44643   
 125.       0.58911   -2.4035n    0.59077   
 148.65     0.78769   -2.4165n    0.78934   
 176.78     1.059     -2.4266n    1.0607    
 210.22     1.4262    -2.4349n    1.4279    
 250.       1.9169    -2.4421n    1.9186    
 297.3      2.5634    -2.4488n    2.565     
 353.55     3.4014    -2.4552n    3.403     
 420.45     4.4697    -2.4615n    4.4714    
 500.       5.8076    -2.4678n    5.8093    
 594.6      7.4426    -2.4741n    7.4443    
 707.11     9.3356    -2.4804n    9.3373    
 840.9      11.183    -2.4867n    11.184    
 1.K        12.091    -2.4928n    12.092    
 1.1892K    11.281    -2.4985n    11.283    
 1.4142K    9.4491    -2.5039n    9.4508    
 1.6818K    7.5303    -2.5088n    7.532     
 2.K        5.8651    -2.5129n    5.8667    
 2.3784K    4.5032    -2.5158n    4.5049    
 2.8284K    3.4187    -2.5174n    3.4204    
 3.3636K    2.5711    -2.5176n    2.5728    
 4.K        1.9198    -2.5164n    1.9214    
 4.7568K    1.427     -2.5136n    1.4286    
 5.6569K    1.0593    -2.5093n    1.061     
 6.7272K    0.78815   -2.5028n    0.78981   
 8.K        0.58993   -2.4938n    0.59159   
 9.5137K    0.44583   -2.4813n    0.44748   
 11.314K    0.34124   -2.4642n    0.34289   
 13.454K    0.26508   -2.4413n    0.26673   
 16.K       0.20907   -2.4112n    0.21072   
 19.027K    0.16712   -2.3724n    0.16876   
 22.627K    0.13481   -2.3241n    0.13644   
 26.909K    0.10904   -2.2657n    0.11066   
 32.K       0.087701  -2.1976n    0.089304  
ACS (Al's Circuit Simulator) 0.2808
Never trust any version less than 1.0
Copyright 1982-2000, Albert Davis
ACS comes with ABSOLUTELY NO WARRANTY
This is free software, and you are welcome
to redistribute it under certain conditions
according to the GNU General Public License.
See the file "COPYING" for details
' 
#Freq       vm(2)      vdb(2)     vp(2)     
 1.p        1.         54.575p    0.        
 10.p       1.         545.76p    0.        
 100.p      1.         5.4576n    0.        
 1.n        1.         54.576n    0.        
 10.n       1.         545.76n    0.        
 100.n      1.         5.4576u    0.        
 1.u        1.         54.576u    0.        
 10.u       1.0001     545.77u    0.        
 100.u      1.0006     0.0054593  0.        
 0.001      1.0063     0.054748   0.        
 0.01       1.067      0.56366    0.        
 0.1        2.6905     8.5967     0.        
 1.         0.18928   -14.458    -180.      
 10.        0.016173  -35.824    -180.      
 100.       0.0015941 -55.95     -180.      
 1.K        159.18u   -75.962    -180.      
 10.K       15.916u   -95.964    -180.      
 100.K      1.5915u   -115.96    -180.      
 1.Meg      159.15n   -135.96    -180.      
 10.Meg     15.915n   -155.96    -180.      
 100.Meg    1.5915n   -175.96    -180.      
 1.G        159.15p   -195.96    -180.      
#Freq       vm(2)      vdb(2)     vp(2)     
 0.1        2.6905     8.5967     0.        
 0.105      2.9389     9.3638     0.        
 0.11       3.2379     10.205     0.        
 0.115      3.6046     11.137     0.        
 0.12       4.0649     12.181     0.        
 0.125      4.66       13.368     0.        
 0.13       5.4592     14.743     0.        
 0.135      6.5893     16.377     0.        
 0.14       8.3094     18.391     0.        
 0.145      11.245     21.019     0.        
 0.15       17.387     24.805     0.        
 0.155      38.319     31.668     0.        
 0.16       187.98     45.482    -180.      
 0.165      27.221     28.698    -180.      
 0.17       14.673     23.33     -180.      
 0.175      10.043     20.038    -180.      
 0.18       7.6345     17.656    -180.      
 0.185      6.1576     15.788    -180.      
 0.19       5.1595     14.252    -180.      
 0.195      4.4398     12.947    -180.      
 0.2        3.8964     11.813    -180.      
ACS (Al's Circuit Simulator) 0.2808
Never trust any version less than 1.0
Copyright 1982-2000, Albert Davis
ACS comes with ABSOLUTELY NO WARRANTY
This is free software, and you are welcome
to redistribute it under certain conditions
according to the GNU General Public License.
See the file "COPYING" for details
100 cascaded NMOS inverters 
#           iter(0)    V(1)       V(2)       V(3)       V(4)       V(5)      
+ V(6)       V(7)       V(8)       V(9)       V(10)      V(11)      V(12)     
+ V(13)      V(14)      V(15)      V(16)      V(17)      V(18)      V(19)     
+ V(20)      V(21)      V(22)      V(23)      V(24)      V(25)      V(26)     
+ V(27)      V(28)      V(29)      V(30)      V(31)      V(32)      V(33)     
+ V(34)      V(35)      V(36)      V(37)      V(38)      V(39)      V(40)     
+ V(41)      V(42)      V(43)      V(44)      V(45)      V(46)      V(47)     
+ V(48)      V(49)      V(50)      V(51)      V(52)      V(53)      V(54)     
+ V(55)      V(56)      V(57)      V(58)      V(59)      V(60)      V(61)     
+ V(62)      V(63)      V(64)      V(65)      V(66)      V(67)      V(68)     
+ V(69)      V(70)      V(71)      V(72)      V(73)      V(74)      V(75)     
+ V(76)      V(77)      V(78)      V(79)      V(80)      V(81)      V(82)     
+ V(83)      V(84)      V(85)      V(86)      V(87)      V(88)      V(89)     
+ V(90)      V(91)      V(92)      V(93)      V(94)      V(95)      V(96)     
+ V(97)      V(98)      V(99)      V(100)     V(101)     V(102)    
 300.15     32.        5.         0.8        3.0455     0.49727    3.2034    
+ 0.46622    3.2034     0.46622    3.2034     0.46622    3.2034     0.46622   
+ 3.2034     0.46622    3.2034     0.46622    3.2034     0.46622    3.2034    
+ 0.46622    3.2034     0.46622    3.2034     0.46622    3.2034     0.46622   
+ 3.2034     0.46622    3.2034     0.46622    3.2034     0.46622    3.2034    
+ 0.46622    3.2034     0.46622    3.2034     0.46622    3.2034     0.46622   
+ 3.2034     0.46622    3.2034     0.46622    3.2034     0.46622    3.2034    
+ 0.46622    3.2034     0.46622    3.2034     0.46622    3.2034     0.46622   
+ 3.2034     0.46622    3.2034     0.46622    3.2034     0.46622    3.2034    
+ 0.46622    3.2034     0.46622    3.2034     0.46622    3.2034     0.46622   
+ 3.2034     0.46622    3.2034     0.46622    3.2034     0.46622    3.2034    
+ 0.46622    3.2034     0.46622    3.2034     0.46622    3.2034     0.46622   
+ 3.2034     0.46622    3.2034     0.46622    3.2034     0.46622    3.2034    
+ 0.46622    3.2034     0.46622    3.2034     0.46622    3.2034     0.46622   
+ 3.2034     0.46622    3.2034     0.46622    3.2034     0.46622   
ACS (Al's Circuit Simulator) 0.2808
Never trust any version less than 1.0
Copyright 1982-2000, Albert Davis
ACS comes with ABSOLUTELY NO WARRANTY
This is free software, and you are welcome
to redistribute it under certain conditions
according to the GNU General Public License.
See the file "COPYING" for details
18 cascaded NMOS inverters 
#           iter(0)    V(1)       V(2)       V(3)       V(4)       V(5)      
+ V(6)       V(7)       V(8)       V(9)       V(10)      V(11)      V(12)     
+ V(13)      V(14)      V(15)      V(16)      V(17)      V(18)      V(19)     
+ V(20)     
 300.15     24.        5.         0.8        3.0455     0.49727    3.2034    
+ 0.46622    3.2034     0.46622    3.2034     0.46622    3.2034     0.46622   
+ 3.2034     0.46622    3.2034     0.46622    3.2034     0.46622    3.2034    
+ 0.46622   
ACS (Al's Circuit Simulator) 0.2808
Never trust any version less than 1.0
