' 
#           v(1)       v(2)       v(3)       v(4)       f(e1)      f(e2)      f(e3)      ev(e1)     ev(e2)     ev(e3)    
-10.       -10.       -7.        -7.        -7.        -7.        -7.        -7.         1.         1.         1.        
-9.5       -9.5       -6.5       -6.5       -6.5       -6.5       -6.5       -6.5        1.         1.         1.        
-9.        -9.        -6.        -6.        -6.        -6.        -6.        -6.         1.         1.         1.        
-8.5       -8.5       -5.5       -5.5       -5.5       -5.5       -5.5       -5.5        1.         1.         1.        
-8.        -8.        -5.        -5.        -5.        -5.        -5.        -5.         1.         1.         1.        
-7.5       -7.5       -4.5       -4.5       -4.5       -4.5       -4.5       -4.5        1.         1.         1.        
-7.        -7.        -4.        -4.        -4.        -4.        -4.        -4.         1.         1.         1.        
-6.5       -6.5       -3.5       -3.5       -3.5       -3.5       -3.5       -3.5        1.         1.         1.        
-6.        -6.        -3.        -3.        -3.        -3.        -3.        -3.         1.         1.         1.        
-5.5       -5.5       -2.5       -2.5       -2.5       -2.5       -2.5       -2.5        1.         1.         1.        
-5.        -5.        -2.        -2.        -2.        -2.        -2.        -2.         1.         1.         1.        
-4.5       -4.5       -1.5       -1.5       -1.5       -1.5       -1.5       -1.5        1.         1.         1.        
-4.        -4.        -1.        -1.        -1.        -1.        -1.        -1.         1.         1.         1.        
-3.5       -3.5       -0.5       -0.5       -0.5       -0.5       -0.5       -0.5        1.         1.         1.        
-3.        -3.         0.         1.         0.         0.         1.         0.         0.        -0.33333   -1.        
-2.5       -2.5        0.         0.83333   -0.5        0.         0.83333   -0.5        0.        -0.33333   -1.        
-2.        -2.         0.         0.66667   -1.         0.         0.66667   -1.         0.        -0.33333   -1.        
-1.5       -1.5        0.         0.5       -1.5        0.         0.5       -1.5        0.        -0.33333   -1.        
-1.        -1.         0.         0.33333   -2.         0.         0.33333   -2.         0.        -0.33333   -1.        
-0.5       -0.5        0.         0.16667   -2.5        0.         0.16667   -2.5        0.        -0.33333   -1.        
 0.         0.         0.         0.        -3.         0.         0.        -3.         0.25       0.25       2.        
 0.5        0.5        0.125      0.125     -2.         0.125      0.125     -2.         0.25       0.25       2.        
 1.         1.         0.25       0.25      -1.         0.25       0.25      -1.         0.25       0.25       2.        
 1.5        1.5        0.375      0.375      0.         0.375      0.375      0.         0.25       0.25       2.        
 2.         2.         0.5        0.5        1.         0.5        0.5        1.         0.25       0.25       2.        
 2.5        2.5        0.625      0.625      2.         0.625      0.625      2.         0.25       0.25       2.        
 3.         3.         0.75       0.75       3.         0.75       0.75       3.         0.25       0.25       2.        
 3.5        3.5        0.875      0.875      4.         0.875      0.875      4.         0.25       0.25       2.        
 4.         4.         1.         1.         5.         1.         1.         5.         0.25       0.25       2.        
 4.5        4.5        1.125      1.125      6.         1.125      1.125      6.         0.25       0.25       2.        
 5.         5.         1.25       1.25       7.         1.25       1.25       7.         0.25       0.25       2.        
 5.5        5.5        1.375      1.375      8.         1.375      1.375      8.         0.25       0.25       2.        
 6.         6.         1.5        1.5        9.         1.5        1.5        9.         0.25       0.25       2.        
 6.5        6.5        1.625      1.625      10.        1.625      1.625      10.        0.25       0.25       2.        
 7.         7.         1.75       1.75       11.        1.75       1.75       11.        0.25       0.25       2.        
 7.5        7.5        1.875      1.875      12.        1.875      1.875      12.        0.25       0.25       2.        
 8.         8.         2.         2.         13.        2.         2.         13.        0.25       0.25       2.        
 8.5        8.5        2.125      2.125      14.        2.125      2.125      14.        0.25       0.25       2.        
 9.         9.         2.25       2.25       15.        2.25       2.25       15.        0.25       0.25       2.        
 9.5        9.5        2.375      2.375      16.        2.375      2.375      16.        0.25       0.25       2.        
 10.        10.        2.5        2.5        17.        2.5        2.5        17.        0.25       0.25       2.        
