# PWL sources 
v1 ( 1 0 ) pwl( 0., 0.  1., 1.  4., 2.  9., 3.  16., 4.  25., 5. )
i1 ( 2 0 ) pwl( 0., 0.  1.,-1.  4., 2.  9.,-3.  16., 4.  25.,-5. )
r4 ( 2 0 )  10.K
#           v(1)       v(2)      
 27.        0.         0.        
#           v(1)       v(2)      
-10.       -10.        0.        
-9.        -9.         0.        
-8.        -8.         0.        
-7.        -7.         0.        
-6.        -6.         0.        
-5.        -5.         0.        
-4.        -4.         0.        
-3.        -3.         0.        
-2.        -2.         0.        
-1.        -1.         0.        
 0.         0.         0.        
 1.         1.         0.        
 2.         2.         0.        
 3.         3.         0.        
 4.         4.         0.        
 5.         5.         0.        
 6.         6.         0.        
 7.         7.         0.        
 8.         8.         0.        
 9.         9.         0.        
 10.        10.        0.        
#Time       v(1)       v(2)      
 0.         0.         0.        
 1.         1.         10.K      
 2.         1.3333     0.        
 3.         1.6667    -10.K      
 4.         2.        -20.K      
 5.         2.2       -10.K      
 6.         2.4        0.        
 7.         2.6        10.K      
 8.         2.8        20.K      
 9.         3.         30.K      
 10.        3.1429     20.K      
 11.        3.2857     10.K      
 12.        3.4286     0.        
 13.        3.5714    -10.K      
 14.        3.7143    -20.K      
 15.        3.8571    -30.K      
 16.        4.        -40.K      
 17.        4.1111    -30.K      
 18.        4.2222    -20.K      
 19.        4.3333    -10.K      
 20.        4.4444     0.        
 21.        4.5556     10.K      
 22.        4.6667     20.K      
 23.        4.7778     30.K      
 24.        4.8889     40.K      
 25.        5.         50.K      
 26.        5.         50.K      
 27.        5.         50.K      
 28.        5.         50.K      
 29.        5.         50.K      
 30.        5.         50.K      
