''''' 
#Time       v(1)       control(0) eventtime(s1) eventtime(s2) nexttime(C1) eventtime(C1) nexttime(Vv1) eventtime(Vv1) dt(C1)    
 0.         2.         1.         0.         0.         0.         0.         0.         100.p      ??        
 1.p        1.98       9.         35.p       55.p       2.p        0.         2.p        100.p      1.p       
 2.p        1.96       6.         35.p       55.p       3.p        0.         3.p        100.p      1.p       
 3.p        1.94       6.         35.p       55.p       4.p        0.         4.p        100.p      1.p       
 4.p        1.92       6.         35.p       55.p       10.569p    0.         5.p        100.p      1.p       
 5.p        1.9        6.         35.p       55.p       14.475p    0.         13.095n    100.p      1.p       
 14.5p      1.71       6.         35.p       55.p       33.757p    0.         32.732n    100.p      9.5p      
 31.6p      1.368      6.         35.p       55.p       89.079p    0.         47.801n    100.p      17.1p     
 35.p       1.3        7.         35.p       55.p       151.07p    0.         73.295n    100.p      3.4p      
 37.p       1.26       7.         35.p       55.p       112.04p    0.         38.04n     100.p      2.p       
 39.p       1.22       7.         0.         55.p       89.684p    0.         21.428n    100.p      2.p       
 55.p       0.9        7.         0.         55.p       165.72p    0.         20.848n    100.p      16.p      
 57.p       0.86       7.         0.         55.p       10.747n    0.         29.613n    100.p      2.p       
 59.p       0.82       7.         0.         0.         384.84n    0.         39.121n    100.p      2.p       
 100.p      200.n      1.         0.         0.         548.28n    0.         50.537n    500.p      41.p      
 125.p     -170.37n    16.        0.         0.         157.37p    0.         141.29p    500.p      25.p      
 140.p      130.28n    6.         64.859u    44.902u    178.85p    0.         155.64p    500.p      15.p      
 155.p     -99.628n    6.         0.         0.         188.49p    0.         177.22p    500.p      15.p      
 170.p      76.186n    6.         110.91u    76.786u    201.17p    0.         0.         500.p      15.p      
 200.p     -66.662n    1.         0.         0.         240.46p    0.         0.         500.p      30.p      
 230.p      58.329n    6.         312.02u    216.01u    288.85p    0.         0.         500.p      30.p      
 265.p     -52.024n    6.         0.         0.         344.83p    0.         0.         500.p      35.p      
 300.p      46.399n    1.         462.29u    320.05u    389.12p    0.         0.         500.p      35.p      
 350.p     -42.83n     6.         0.         0.         456.44p    0.         0.         500.p      50.p      
 400.p      39.535n    1.         789.17u    546.35u    528.83p    0.         0.         500.p      50.p      
 500.p     -37.985n    1.         0.         0.         677.03p    0.         0.         600.p      100.p     
 545.p      0.9        17.        565.p      545.p      603.65p    0.         609.64p    600.p      45.p      
 547.p      0.94       7.         565.p      545.p      628.05p    0.         599.25p    600.p      2.p       
 549.p      0.98       7.         565.p      0.         564.02p    0.         607.81p    600.p      2.p       
 565.p      1.3        7.         565.p      0.         576.48p    0.         33.348n    600.p      16.p      
 567.p      1.34       7.         565.p      0.         1.675n     0.         27.425n    600.p      2.p       
 569.p      1.38       7.         0.         0.         39.809n    0.         29.292n    600.p      2.p       
 600.p      2.         1.         0.         0.         52.016n    0.         35.009n    1.n        31.p      
 650.p      2.         16.        0.         0.         686.58p    0.         692.3p     1.n        50.p      
 675.p      2.         6.         51.188u    80.438u    716.41p    0.         714.78p    1.n        25.p      
 700.p      2.         1.         0.         0.         756.14p    0.         752.76p    1.n        25.p      
 750.p      2.         6.         135.86u    213.49u    807.65p    0.         0.         1.n        50.p      
 800.p      2.         1.         0.         0.         881.51p    0.         0.         1.n        50.p      
 850.p      2.         6.         159.44u    250.55u    953.29p    0.         0.         1.n        50.p      
 900.p      2.         1.         0.         0.         1.0061n    0.         0.         1.n        50.p      
 1.n        2.         1.         367.05u    576.79u    1.1311n    0.         0.         1.1n       100.p     
 1.035n     1.3        17.        1.035n     1.055n     1.0933n    0.         1.1101n    1.1n       35.p      
 1.037n     1.26       7.         1.035n     1.055n     1.0789n    0.         1.0899n    1.1n       2.p       
 1.039n     1.22       7.         0.         1.055n     1.0504n    0.         1.0959n    1.1n       2.p       
 1.0492n    1.0167     6.         0.         1.055n     1.0576n    0.         45.636n    1.1n       10.167p   
 1.055n     0.9        7.         0.         1.055n     1.8317n    0.         40.383n    1.1n       5.8333p   
 1.057n     0.86       7.         0.         1.055n     40.288n    0.         45.163n    1.1n       2.p       
 1.059n     0.82       7.         0.         0.         30.339n    0.         22.062n    1.1n       2.p       
 1.1n       200.n      1.         0.         0.         62.791n    0.         26.48n     1.5n       41.p      
 1.1143n   -150.88n    16.        0.         0.         1.1436n    0.         1.1226n    1.5n       14.286p   
 1.1221n    89.245n    6.         42.188u    29.207u    1.1731n    0.         1.1293n    1.5n       7.7922p   
 1.1299n   -52.789n    6.         0.         0.         1.1494n    0.         1.1389n    1.5n       7.7922p   
 1.1377n    31.225n    6.         120.57u    83.475u    1.1564n    0.         16.954n    1.5n       7.7922p   
 1.1532n   -24.122n    6.         0.         0.         1.1793n    0.         0.         1.5n       15.584p   
 1.1766n    20.32n     6.         683.8u     473.4u     1.2209n    0.         0.         1.5n       23.377p   
 1.2n      -17.117n    1.         0.         0.         1.2741n    0.         0.         1.5n       23.377p   
 1.25n      15.8n      6.         0.0019747  0.0013671  1.3586n    0.         0.         1.5n       50.p      
 1.3n      -14.585n    1.         0.         0.         1.4584n    0.         0.         1.5n       50.p      
 1.4n       14.013n    1.         0.0045458  0.0031471  1.6468n    0.         0.         1.5n       100.p     
 1.5n      -13.463n    1.         0.         0.         1.8418n    0.         129.78n    1.6n       100.p     
 1.545n     0.9        17.        1.565n     1.545n     1.6087n    0.         1.6167n    1.6n       45.p      
 1.547n     0.94       7.         1.565n     1.545n     1.6149n    0.         1.6021n    1.6n       2.p       
 1.549n     0.98       7.         1.565n     0.         1.5633n    0.         1.6047n    1.6n       2.p       
 1.5618n    1.235      6.         1.565n     0.         1.5721n    0.         37.571n    1.6n       12.75p    
 1.565n     1.3        7.         1.565n     0.         2.5201n    0.         29.839n    1.6n       3.25p     
 1.567n     1.34       7.         0.         0.         41.145n    0.         32.357n    1.6n       2.p       
 1.6n       2.         1.         0.         0.         57.476n    0.         38.625n    2.n        33.p      
 1.7n       2.         1.         0.         0.         1.7504n    0.         1.7611n    2.n        100.p     
 1.75n      2.         6.         94.716u    148.84u    1.8068n    0.         1.8081n    2.n        50.p      
 1.8n       2.         1.         0.         0.         1.9088n    0.         1.8777n    2.n        50.p      
 1.85n      2.         6.         111.16u    174.68u    1.9416n    0.         0.         2.n        50.p      
 1.9n       2.         1.         0.         0.         1.9941n    0.         0.         2.n        50.p      
 1.95n      2.         6.         130.46u    205.u      2.0466n    0.         0.         2.n        50.p      
 2.n        2.         1.         0.         0.         2.0992n    0.         214.29n    2.1n       50.p      
vmax= 2.
t1= 565.p
t2= 55.00001p
vol2= 1.6
vol1= 0.4
vmax= 2.
midpoint= 1.
t3= 550.p
t4= 1.55n
t5= 1.55n
tmin= 125.p
vmin=-170.3701n
slew=(( 1.6- 0.4)/( 580.p- 520.p))
slew= 20.E+9
slew=(( 1.6- 0.4)/( 1.58n- 1.52n))
slew= 20.E+9
slew= 20.G
frequency= 1.E+9
t4= 550.p
t3= 1.55n
frequency=-1.E+9
tvmax= 1.7n
tvmax= 1.7n
