.title mos1 inverter 
#          
 27.       
#           v(1)       v(2)       v(3)       v(4)       v(5)       v(6)       v(7)      
 0.         5.         0.         5.         4.5801     5.         4.2964     5.        
 0.25       5.         0.25       5.         4.5538     5.         4.2521     5.        
 0.5        5.         0.5        5.         4.5237     5.         4.2012     5.        
 0.75       5.         0.75       4.9996     4.4887     4.9996     4.1419     4.9981    
 1.         5.         1.         4.9863     4.434      4.9863     4.0717     4.9304    
 1.25       5.         1.25       4.95       4.3459     4.95       3.9865     4.7661    
 1.5        5.         1.5        4.8833     4.2105     4.8833     3.8801     4.5051    
 1.75       5.         1.75       4.7738     3.9994     4.7738     3.7406     4.1474    
 2.         5.         2.         4.5974     3.6348     4.5974     3.5423     3.6931    
 2.25       5.         2.25       4.2916     2.4        4.2916     3.2012     3.1421    
 2.5        5.         2.5        1.7997     0.95409    1.7997     2.5056     2.4944    
 2.75       5.         2.75       0.70836    0.56003    0.70836    1.8579     1.7988    
 3.         5.         3.         0.40263    0.33713    0.40263    1.3069     1.4577    
 3.25       5.         3.25       0.22621    0.19496    0.22621    0.8526     1.2594    
 3.5        5.         3.5        0.11672    0.10244    0.11672    0.49493    1.1199    
 3.75       5.         3.75       0.05       0.044449   0.05       0.23393    1.0135    
 4.         5.         4.         0.013665   0.012265   0.013665   0.0696     0.92831   
 4.25       5.         4.25       352.14u    318.49u    352.14u    0.0019334  0.85806   
 4.5        5.         4.5        6.842n     6.2274n    6.842n     40.213n    0.79877   
 4.75       5.         4.75       6.4196n    5.8756n    6.4196n    40.213n    0.74787   
 5.         5.         5.         6.0464n    5.5614n    6.0464n    40.213n    0.70357   
#Time       v(1)       v(2)       v(3)       v(4)       v(5)       v(6)       v(7)      
 0.         5.         0.         5.         4.5801     5.         4.2964     5.        
 100.p      5.         0.         5.         4.5801     5.0001     4.2964     5.        
 200.p      5.         0.         5.         4.5801     5.0001     4.2964     5.        
 300.p      5.         0.         5.         4.5801     5.0001     4.2964     5.        
 400.p      5.         0.         5.         4.5801     5.0001     4.2964     5.        
 500.p      5.         0.         5.         4.5801     5.0001     4.2964     5.        
 600.p      5.         0.         5.         4.5801     5.0001     4.2964     5.        
 700.p      5.         0.         5.         4.5801     5.         4.2964     5.        
 800.p      5.         0.         5.         4.5801     5.         4.2964     5.        
 900.p      5.         0.         5.         4.5801     5.         4.2964     5.        
 1.n        5.         1.f        5.         4.5801     5.         4.2964     5.        
 1.1n       5.         0.25       5.         4.5538     5.         4.2521     5.        
 1.2n       5.         0.5        5.         4.5237     5.         4.2012     5.        
 1.3n       5.         0.75       4.9996     4.4887     5.         4.1419     4.9981    
 1.4n       5.         1.         4.9863     4.434      4.9994     4.0717     4.9304    
 1.5n       5.         1.25       4.95       4.3459     4.9977     3.9865     4.7661    
 1.6n       5.         1.5        4.8833     4.2105     4.9926     3.8801     4.5051    
 1.7n       5.         1.75       4.7738     3.9994     4.9827     3.7406     4.1474    
 1.8n       5.         2.         4.5974     3.6348     4.9666     3.5423     3.6931    
 1.9n       5.         2.25       4.2916     2.4        4.9428     3.2012     3.1421    
 2.n        5.         2.5        1.7997     0.95409    4.9098     2.5056     2.4944    
 2.1n       5.         2.75       0.70836    0.56003    4.866      1.8579     1.7988    
 2.2n       5.         3.         0.40263    0.33713    4.8095     1.3069     1.4577    
 2.3n       5.         3.25       0.22621    0.19496    4.7384     0.8526     1.2594    
 2.4n       5.         3.5        0.11672    0.10244    4.6502     0.49493    1.1199    
 2.5n       5.         3.75       0.05       0.044449   4.5423     0.23393    1.0135    
 2.6n       5.         4.         0.013665   0.012265   4.412      0.0696     0.92831   
 2.7n       5.         4.25       352.14u    318.49u    4.2568     0.0019334  0.85806   
 2.8n       5.         4.5        6.842n     6.2274n    4.0765     40.213n    0.79877   
 2.9n       5.         4.75       6.4196n    5.8756n    3.8717     40.213n    0.74787   
 3.n        5.         5.         6.0464n    5.5614n    3.6426     40.213n    0.70357   
 3.1n       5.         5.         6.0464n    5.5614n    3.4021     40.213n    0.70357   
 3.2n       5.         5.         6.0464n    5.5614n    3.1687     40.213n    0.70357   
 3.3n       5.         5.         6.0464n    5.5614n    2.9422     40.213n    0.70357   
 3.4n       5.         5.         6.0464n    5.5614n    2.7239     40.213n    0.70357   
 3.5n       5.         5.         6.0464n    5.5614n    2.5145     40.213n    0.70357   
 3.6n       5.         5.         6.0464n    5.5614n    2.315      40.213n    0.70357   
 3.7n       5.         5.         6.0464n    5.5614n    2.1257     40.213n    0.70357   
 3.8n       5.         5.         6.0464n    5.5614n    1.9471     40.213n    0.70357   
 3.9n       5.         5.         6.0464n    5.5614n    1.7794     40.213n    0.70357   
 4.n        5.         5.         6.0464n    5.5614n    1.6227     40.213n    0.70357   
 4.1n       5.         5.         6.0464n    5.5614n    1.4768     40.213n    0.70357   
 4.2n       5.         5.         6.0464n    5.5614n    1.3414     40.213n    0.70357   
 4.3n       5.         5.         6.0464n    5.5614n    1.2164     40.213n    0.70357   
 4.4n       5.         5.         6.0464n    5.5614n    1.1013     40.213n    0.70357   
 4.5n       5.         5.         6.0464n    5.5614n    0.99558    40.213n    0.70357   
 4.6n       5.         5.         6.0464n    5.5614n    0.89882    40.213n    0.70357   
 4.7n       5.         5.         6.0464n    5.5614n    0.81047    40.213n    0.70357   
 4.8n       5.         5.         6.0464n    5.5614n    0.72998    40.213n    0.70357   
 4.9n       5.         5.         6.0464n    5.5614n    0.65682    40.213n    0.70357   
 5.n        5.         5.         6.0464n    5.5614n    0.59044    40.213n    0.70357   
