' 
#           v(3)       v(4)       v(5)       v(6)       v(7)       v(8)      
-5.         1.         1.         1.         0.5       -5.        -50.n      
-4.         1.         1.         1.         0.5       -4.        -40.n      
-3.         1.         1.         1.         0.5       -3.        -30.n      
-2.         1.         1.         1.         0.5       -2.        -20.n      
-1.         1.         1.         1.         0.5       -1.        -10.n      
 0.         1.         1.         1.         0.5        0.         0.        
 1.         1.         1.         1.         0.5        1.         10.n      
 2.         1.         1.         1.         0.5        2.         20.n      
 3.         1.         0.5        1.         1.         3.         30.n      
 4.         1.         0.5        1.         1.         4.         40.n      
 5.         1.         0.5        1.         1.         5.         50.n      
 5.         1.         0.5        1.         1.         5.         50.n      
 4.         1.         0.5        1.         1.         4.         40.n      
 3.         1.         0.5        1.         1.         3.         30.n      
 2.         1.         0.5        1.         1.         2.         20.n      
 1.         1.         0.5        1.         1.         1.         10.n      
 0.         1.         0.5        1.         1.         0.         0.        
-1.         1.         0.5        1.         1.        -1.        -10.n      
-2.         1.         0.5        1.         1.        -2.        -20.n      
-3.         1.         1.         1.         0.5       -3.        -30.n      
-4.         1.         1.         1.         0.5       -4.        -40.n      
-5.         1.         1.         1.         0.5       -5.        -50.n      
#Freq       v(3)       v(4)       v(5)       v(6)       v(7)       v(8)      
 1.K        1.         1.         1.         0.5        0.         0.        
#Time       v(3)       v(4)       v(5)       v(6)       v(7)       v(8)      
 0.         1.         1.         1.         1.         0.         0.        
 1.         1.         1.         1.         1.         1.         10.n      
 2.         1.         1.         1.         1.         2.         20.n      
 3.         1.         0.5        1.         1.         3.         30.n      
 4.         1.         0.5        1.         1.         4.         40.n      
 5.         1.         0.5        1.         1.         5.         50.n      
 6.         1.         0.5        1.         1.         4.         40.n      
 7.         1.         0.5        1.         1.         3.         30.n      
 8.         1.         0.5        1.         1.         2.         20.n      
 9.         1.         0.5        1.         1.         1.         10.n      
 10.        1.         0.5        1.         1.         0.         0.        
 11.        1.         0.5        1.         1.        -1.        -10.n      
 12.        1.         0.5        1.         1.        -2.        -20.n      
 13.        1.         1.         1.         0.5       -3.        -30.n      
 14.        1.         1.         1.         0.5       -4.        -40.n      
 15.        1.         1.         1.         0.5       -5.        -50.n      
 16.        1.         1.         1.         0.5       -4.        -40.n      
 17.        1.         1.         1.         0.5       -3.        -30.n      
 18.        1.         1.         1.         0.5       -2.        -20.n      
 19.        1.         1.         1.         0.5       -1.        -10.n      
 20.        1.         1.         1.         0.5        0.         0.        
 21.        1.         1.         1.         0.5        1.         10.n      
 22.        1.         1.         1.         0.5        2.         20.n      
 23.        1.         0.5        1.         1.         3.         30.n      
 24.        1.         0.5        1.         1.         4.         40.n      
 25.        1.         0.5        1.         1.         5.         50.n      
#Freq       v(3)       v(4)       v(5)       v(6)       v(7)       v(8)      
 1.K        1.         0.5        1.         1.         0.         0.        
