' 
#Time       v(1)       v(2)       v(3)      
 0.         0.         0.         0.        
 0.001      0.0062209 -6.2209    -6.2209    
 0.002      0.012503  -6.3424    -6.3424    
 0.003      0.018786  -6.2247    -6.2247    
 0.004      0.025067  -6.3364    -6.3364    
 0.005      0.031348  -6.2272    -6.2272    
 0.012917   0.081006  -6.3178    -6.3178    
 0.030333   0.18938   -6.1268    -6.1268    
 0.065167   0.39805   -5.8545    -5.8545    
 0.1        0.58773   -5.0365    -5.0365    
 0.15       0.80898   -3.8132    -3.8132    
 0.2        0.95104   -1.8691    -1.8691    
 0.25       1.        -0.089335  -0.089335  
 0.3        0.95108    2.0462     2.0462    
 0.4        0.58784    5.2186     5.2186    
 0.5        65.369u    6.5369     6.5369    
 0.55      -0.30896    5.8241     5.8241    
 0.575     -0.45393    5.7738     5.7738    
 0.6       -0.58774    4.9304     4.9304    
 0.65      -0.80898    3.9192     3.9192    
 0.7       -0.95104    1.7632     1.7632    
 0.75      -1.         0.19517    0.19517   
 0.8       -0.95108   -2.152     -2.152     
 0.9       -0.58784   -5.1129    -5.1129    
 1.        -66.425u   -6.6425    -6.6425    
#Time       v(1)       v(2)       v(3)      
 0.         0.         0.         0.        
 0.001      0.0062209 -6.2209    -6.2209    
 0.002      0.012503  -6.3424    -6.3424    
 0.003      0.018786  -6.2247    -6.2247    
 0.004      0.025067  -6.3364    -6.3364    
 0.005      0.031348  -6.2272    -6.2272    
 0.006      0.037627  -6.3296    -6.3296    
 0.007      0.043906  -6.2283    -6.2283    
 0.008      0.050181  -6.3223    -6.3223    
 0.009      0.056456  -6.2281    -6.2281    
 0.01       0.062727  -6.3142    -6.3142    
 0.011      0.068998  -6.2266    -6.2266    
 0.012      0.075264  -6.3054    -6.3054    
 0.013      0.081528  -6.2238    -6.2238    
 0.014      0.087788  -6.2959    -6.2959    
 0.015      0.094046  -6.2199    -6.2199    
 0.016574   0.10389   -6.2839    -6.2839    
 0.018148   0.11372   -6.2087    -6.2087    
 0.020706   0.12967   -6.2636    -6.2636    
 0.023264   0.14559   -6.1836    -6.1836    
 0.03179    0.19836   -6.1938    -6.1938    
 0.036053   0.22454   -6.0883    -6.0883    
 0.040316   0.25055   -6.1176    -6.1176    
 0.044579   0.27639   -6.0047    -6.0047    
 0.048843   0.30203   -6.0239    -6.0239    
 0.053106   0.32746   -5.9036    -5.9036    
 0.057369   0.35264   -5.9131    -5.9131    
 0.061632   0.37758   -5.7856    -5.7856    
 0.065895   0.40225   -5.7854    -5.7854    
 0.070158   0.42662   -5.6508    -5.6508    
 0.076127   0.46023   -5.6112    -5.6112    
 0.082095   0.49319   -5.4344    -5.4344    
 0.088063   0.52546   -5.3784    -5.3784    
 0.094032   0.55699   -5.1872    -5.1872    
 0.1        0.58773   -5.1155    -5.1155    
 0.10597    0.61765   -4.9107    -4.9107    
 0.11194    0.6467    -4.8241    -4.8241    
 0.11791    0.67485   -4.6064    -4.6064    
 0.12387    0.70204   -4.5057    -4.5057    
 0.12984    0.72825   -4.276     -4.276     
 0.13581    0.75343   -4.1622    -4.1622    
 0.14178    0.77755   -3.9214    -3.9214    
 0.14775    0.80058   -3.7954    -3.7954    
 0.15372    0.82248   -3.5446    -3.5446    
 0.15968    0.84323   -3.4074    -3.4074    
 0.16565    0.86279   -3.1477    -3.1477    
 0.17424    0.8888    -2.9098    -2.9098    
 0.18283    0.91222   -2.5455    -2.5455    
 0.19141    0.93299   -2.2912    -2.2912    
 0.2        0.95104   -1.9133    -1.9133    
 0.20859    0.96632   -1.6463    -1.6463    
 0.21717    0.97879   -1.2586    -1.2586    
 0.22576    0.98842   -0.98257   -0.98257   
 0.23435    0.99516   -0.58887   -0.58887   
 0.24748    0.99987   -0.1287    -0.1287    
 0.26061    0.99778    0.44697    0.44697   
 0.2803     0.98194    1.162      1.162     
 0.3        0.95108    1.9719     1.9719    
 0.31429    0.91955    2.4414     2.4414    
 0.32857    0.88063    3.0083     3.0083    
 0.33878    0.84846    3.2965     3.2965    
 0.34898    0.81281    3.6914     3.6914    
 0.35918    0.77381    3.9514     3.9514    
 0.36939    0.73164    4.3144     4.3144    
 0.37959    0.68646    4.5409     4.5409    
 0.3898     0.63846    4.867      4.867     
 0.3949     0.61346    4.9319     4.9319    
 0.4        0.58784    5.1137     5.1137    
 0.4051     0.5616     5.1692     5.1692    
 0.4102     0.5348     5.3394     5.3394    
 0.41531    0.50744    5.3851     5.3851    
 0.42041    0.47956    5.5433     5.5433    
 0.42551    0.45119    5.5787     5.5787    
 0.43061    0.42235    5.7246     5.7246    
 0.43571    0.39308    5.7493     5.7493    
 0.44082    0.36341    5.8825     5.8825    
 0.44592    0.33336    5.8961     5.8961    
 0.45102    0.30297    6.0164     6.0164    
 0.45612    0.27227    6.0186     6.0186    
 0.46122    0.24129    6.1256     6.1256    
 0.46633    0.21006    6.1162     6.1162    
 0.47143    0.17862    6.2098     6.2098    
 0.47653    0.14699    6.1886     6.1886    
 0.48163    0.11521    6.2686     6.2686    
 0.48531    0.092256   6.23       6.23      
 0.48898    0.069251   6.2947     6.2947    
 0.49265    0.046208   6.2507     6.2507    
 0.49633    0.023142   6.3076     6.3076    
 0.49816    0.011603   6.2574     6.2574    
 0.5        63.082u    6.3082     6.3082    
 0.50184   -0.011478   6.2585     6.2585    
 0.50367   -0.023016   6.3054     6.3054    
 0.50551   -0.034552   6.2562     6.2562    
 0.50945   -0.059261   6.2958     6.2958    
 0.51196   -0.07503    6.2424     6.2424    
 0.51563   -0.097991   6.2763     6.2763    
 0.5193    -0.1209     6.2146     6.2146    
 0.52297   -0.14375    6.2408     6.2408    
 0.52664   -0.16651    6.1734     6.1734    
 0.5303    -0.18919    6.192      6.192     
 0.53397   -0.21177    6.1191     6.1191    
 0.53764   -0.23424    6.1302     6.1302    
 0.54131   -0.25658    6.0517     6.0517    
 0.54498   -0.27879    6.0555     6.0555    
 0.54864   -0.30085    5.9715     5.9715    
 0.55378   -0.33146    5.9495     5.9495    
 0.55892   -0.36172    5.8374     5.8374    
 0.56405   -0.39161    5.8025     5.8025    
 0.56919   -0.42109    5.6789     5.6789    
 0.57432   -0.45014    5.6315     5.6315    
 0.57946   -0.47871    5.4968     5.4968    
 0.58459   -0.50679    5.4371     5.4371    
 0.58973   -0.53434    5.2916     5.2916    
 0.59486   -0.56133    5.2201     5.2201    
 0.6       -0.58773    5.0643     5.0643    
 0.60514   -0.61353    4.9815     4.9815    
 0.61027   -0.63869    4.8159     4.8159    
 0.61541   -0.66318    4.7222     4.7222    
 0.62054   -0.68698    4.5473     4.5473    
 0.62777   -0.71924    4.3853     4.3853    
 0.63499   -0.75002    4.1373     4.1373    
 0.64221   -0.77926    3.9574     3.9574    
 0.64944   -0.80689    3.6932     3.6932    
 0.65666   -0.83286    3.4971     3.4971    
 0.66388   -0.85712    3.2185     3.2185    
 0.67111   -0.8796     3.0081     3.0081    
 0.67833   -0.90028    2.7171     2.7171    
 0.68555   -0.9191     2.4945     2.4945    
 0.69278   -0.93603    2.1932     2.1932    
 0.7       -0.95104    1.9605     1.9605    
 0.70722   -0.96408    1.651      1.651     
 0.71753   -0.97925    1.2921     1.2921    
 0.72784   -0.99031    0.85443    0.85443   
 0.73815   -0.99722    0.48618    0.48618   
 0.74846   -0.99995    0.043189   0.043189  
 0.76134   -0.99747   -0.4292    -0.4292    
 0.78067   -0.9815    -1.2228    -1.2228    
 0.8       -0.95108   -1.9253    -1.9253    
 0.81429   -0.91955   -2.4879    -2.4879    
 0.82857   -0.88063   -2.9619    -2.9619    
 0.83878   -0.84846   -3.3427    -3.3427    
 0.84898   -0.81281   -3.6454    -3.6454    
 0.85918   -0.77381   -3.9972    -3.9972    
 0.86939   -0.73164   -4.2688    -4.2688    
 0.87959   -0.68646   -4.5863    -4.5863    
 0.88639   -0.65476   -4.7332    -4.7332    
 0.8932    -0.62187   -4.9378    -4.9378    
 0.9       -0.58784   -5.0673    -5.0673    
 0.9068    -0.55273   -5.2533    -5.2533    
 0.91361   -0.51662   -5.3644    -5.3644    
 0.92041   -0.47956   -5.5305    -5.5305    
 0.92721   -0.44163   -5.6221    -5.6221    
 0.93401   -0.40289   -5.7675    -5.7675    
 0.94082   -0.36341   -5.8386    -5.8386    
 0.94762   -0.32327   -5.9625    -5.9625    
 0.95442   -0.28254   -6.0124    -6.0124    
 0.96122   -0.24129   -6.114     -6.114     
 0.96607   -0.21163   -6.1255    -6.1255    
 0.97092   -0.18177   -6.1948    -6.1948    
 0.97577   -0.15175   -6.1953    -6.1953    
 0.98061   -0.12158   -6.2526    -6.2526    
 0.98546   -0.091298  -6.2421    -6.2421    
 0.99031   -0.060934  -6.2872    -6.2872    
 0.99354   -0.040657  -6.2629    -6.2629    
 0.99677   -0.020364  -6.2972    -6.2972    
 1.        -62.684u   -6.2684    -6.2684    
Gnucap   System status
iterations: op=0, dc=0, tran=497, fourier=0, total=762
transient timesteps: accepted=191, rejected=0, total=191
nodes: user=3, subckt=0, model=0, total=3
dctran density=77.8%, ac density=77.8%
