2 stage op-amp open loop  02/16/88 
#           iter(0)    v(1)       v(2)       v(3)       v(4)       v(5)      
+ v(6)       v(7)       v(8)       v(9)      
 27.        13.        0.         0.         1.5708     1.5709    -1.1669    
+ 0.079194  -1.6303    -2.5        2.5       
vdb(6) 0.                20.              40.               60.             80.
vp(6)-180.              -90.              0.                90.            180.
        +-----------------+----------------+-----------------+----------------+
 1.     |                 .                +                 *                |
 1.5849 |                 .               +.                 *                |
 2.5119 |                 .               +.                 *                |
 3.9811 |                 .              + .                 *                |
 6.3096 |                 .             +  .                 *                |
 10.    |                 .            +   .                *.                |
 15.849 |                 .          +     .                *.                |
 25.119 |                 .       +        .              *  .                |
 39.811 |                 .     +          .            *    .                |
 63.096 |                 .   +            .         *       .                |
 100.   |                 . +              .      *          .                |
 158.49 |                 .+               .   *             .                |
 251.19 |                 .+               *                 .                |
 398.11 |                 +             *  .                 .                |
 630.96 |                 +         *      .                 .                |
 1.K    |                +.      *         .                 .                |
 1.5849K|                +.  *             .                 .                |
 2.5119K|                +*                .                 .                |
 3.9811K|             * + .                .                 .                |
 6.3096K|          *   +  .                .                 .                |
 10.K   |      *      +   .                .                 .                |
 15.849K|  *        +     .                .                 .                |
 25.119K*        +        .                .                 .                |
 39.811K*     +           .                .                 .                |
 63.096K* +               .                .                 .                |
 100.K  *                 .                .                 .             +  |
 158.49K*                 .                .                 .         +      |
 251.19K*                 .                .                 .      +         |
 398.11K*                 .                .                 .   +            |
 630.96K*                 .                .                 . +              |
 1.Meg  *                 .                .                 .+               |
 1.5849M*                 .                .                 +                |
 2.5119M*                 .                .                +.                |
 3.9811M*                 .                .               + .                |
 6.3096M*                 .                .              +  .                |
 10.Meg *                 .                .            +    .                |
        +-----------------+----------------+-----------------+----------------+
v(6)  -4.               -2.               0.                2.               4.
        +-----------------+----------------+-----------------+----------------+
-500.u  |                 .     *          .                 .                |
-480.u  |                 .     *          .                 .                |
-460.u  |                 .     *          .                 .                |
-440.u  |                 .      *         .                 .                |
-420.u  |                 .      *         .                 .                |
-400.u  |                 .       *        .                 .                |
-380.u  |                 .       *        .                 .                |
-360.u  |                 .        *       .                 .                |
-340.u  |                 .        *       .                 .                |
-320.u  |                 .        *       .                 .                |
-300.u  |                 .         *      .                 .                |
-280.u  |                 .         *      .                 .                |
-260.u  |                 .          *     .                 .                |
-240.u  |                 .           *    .                 .                |
-220.u  |                 .           *    .                 .                |
-200.u  |                 .           *    .                 .                |
-180.u  |                 .            *   .                 .                |
-160.u  |                 .            *   .                 .                |
-140.u  |                 .             *  .                 .                |
-120.u  |                 .              * .                 .                |
-100.u  |                 .              * .                 .                |
-80.u   |                 .              * .                 .                |
-60.u   |                 .               *.                 .                |
-40.u   |                 .                *                 .                |
-20.u   |                 .                *                 .                |
 0.     |                 .                .*                .                |
 20.u   |                 .                .*                .                |
 40.u   |                 .                . *               .                |
 60.u   |                 .                . *               .                |
 80.u   |                 .                .  *              .                |
 100.u  |                 .                .  *              .                |
 120.u  |                 .                .   *             .                |
 140.u  |                 .                .   *             .                |
 160.u  |                 .                .    *            .                |
 180.u  |                 .                .     *           .                |
 200.u  |                 .                .     *           .                |
 220.u  |                 .                .      *          .                |
 240.u  |                 .                .      *          .                |
 260.u  |                 .                .       *         .                |
 280.u  |                 .                .       *         .                |
 300.u  |                 .                .        *        .                |
 320.u  |                 .                .        *        .                |
 340.u  |                 .                .         *       .                |
 360.u  |                 .                .          *      .                |
 380.u  |                 .                .          *      .                |
 400.u  |                 .                .           *     .                |
 420.u  |                 .                .           *     .                |
 440.u  |                 .                .            *    .                |
 460.u  |                 .                .            *    .                |
 480.u  |                 .                .             *   .                |
 500.u  |                 .                .              *  .                |
        +-----------------+----------------+-----------------+----------------+
#Time       v(vin)     v(6)      
 0.         0.         0.079194  
 31.25u     0.097545   0.45938   
 62.5u      0.19134    1.6936    
 93.75u     0.27779    2.4902    
 125.u      0.35355    2.4856    
 156.25u    0.41573    2.4951    
 187.5u     0.46194    2.4947    
 218.75u    0.49039    2.4944    
 250.u      0.5        2.4893    
 281.25u    0.49039    2.4943    
 312.5u     0.46194    2.4895    
 343.75u    0.41573    2.4942    
 375.u      0.35355    2.4895    
 406.25u    0.27779    2.4939    
 437.5u     0.19134    2.4894    
 468.75u    0.097545   2.4937    
 500.u     -8.0207f    2.4893    
 531.25u   -0.097545   2.4948    
 562.5u    -0.19134    2.4716    
 593.75u   -0.27779    2.2408    
 625.u     -0.35355    1.5193    
 656.25u   -0.41573    0.8864    
 687.5u    -0.46194    0.3321    
 718.75u   -0.49039   -0.15135   
 750.u     -0.5       -0.57278   
 781.25u   -0.49039   -0.9401    
 812.5u    -0.46194   -1.2598    
 843.75u   -0.41573   -1.5371    
 875.u     -0.35355   -1.7787    
 906.25u   -0.27779   -1.9882    
 937.5u    -0.19134   -2.1712    
 968.75u   -0.097545  -2.332     
 0.001      8.0394f   -2.4302    
#Time       v(vin)     v(6)      
 0.001      8.0394f   -2.4302    
 0.0010313  0.097545  -2.4688    
 0.0010625  0.19134   -1.5063    
 0.0010938  0.27779    0.25545   
 0.001125   0.35355    2.2544    
 0.0011563  0.41573    2.492     
 0.0011875  0.46194    2.495     
 0.0012188  0.49039    2.4894    
 0.00125    0.5        2.4897    
 0.0012813  0.49039    2.4939    
 0.0013125  0.46194    2.4898    
 0.0013438  0.41573    2.4938    
 0.001375   0.35355    2.4898    
 0.0014063  0.27779    2.4936    
 0.0014375  0.19134    2.4897    
 0.0014688  0.097545   2.4934    
 0.0015    -7.5291f    2.4896    
 0.0015313 -0.097545   2.4944    
 0.0015625 -0.19134    2.4728    
 0.0015938 -0.27779    2.2279    
 0.001625  -0.35355    1.5083    
 0.0016563 -0.41573    0.87728   
 0.0016875 -0.46194    0.32414   
 0.0017188 -0.49039   -0.1583    
 0.00175   -0.5       -0.57883   
 0.0017813 -0.49039   -0.94536   
 0.0018125 -0.46194   -1.2644    
 0.0018438 -0.41573   -1.5411    
 0.001875  -0.35355   -1.7822    
 0.0019063 -0.27779   -1.9912    
 0.0019375 -0.19134   -2.1738    
 0.0019688 -0.097545  -2.3342    
 0.002      7.6069f   -2.4309    
# v(vin)    --------- actual ---------  -------- relative --------
#freq       value        dB      phase  value        dB      phase
 0.         1.5434f   -296.23   90.000  3.0867f   -290.21   90.000
 1.K        0.5         -6.02    0.000  1.           0.00   -0.000
 2.K        1.4634f   -296.69   -4.612  2.9267f   -290.67   -4.612
 3.K        2.3225f   -292.68   79.151  4.645f    -286.66   79.151
 4.K        1.0155f   -299.87 -176.197  2.031f    -293.85 -176.197
 5.K        620.E-18  -304.15   21.437  1.2399f   -298.13   21.437
 6.K        2.0819f   -293.63   58.813  4.1638f   -287.61   58.813
 7.K        2.7399f   -291.25    8.994  5.4797f   -285.22    8.994
 8.K        1.9175f   -294.35  -23.718  3.835f    -288.32  -23.718
 9.K        3.3773f   -289.43  -90.235  6.7547f   -283.41  -90.235
 10.K       448.4E-18 -306.97  -89.585  896.8E-18 -300.95  -89.585
# v(6)      --------- actual ---------  -------- relative --------
#freq       value        dB      phase  value        dB      phase
 0.         0.72311     -2.82   90.000  0.28488    -10.91  143.092
 1.K        2.5383       8.09  -53.092  1.           0.00   -0.000
 2.K        0.73925     -2.62  -40.806  0.29124    -10.72   12.286
 3.K        0.54829     -5.22 -108.100  0.216      -13.31  -55.008
 4.K        0.32224     -9.84 -111.611  0.12695    -17.93  -58.519
 5.K        0.24886    -12.08 -168.136  0.098041   -20.17 -115.044
 6.K        0.15954    -15.94 -178.255  0.062853   -24.03 -125.163
 7.K        0.12418    -18.12  125.421  0.048922   -26.21  178.513
 8.K        0.07581    -22.41  113.335  0.029866   -30.50  166.427
 9.K        0.059768   -24.47   50.346  0.023546   -32.56  103.438
 10.K       0.029796   -30.52   36.161  0.011738   -38.61   89.253
Gnucap   System status
iterations: op=13, dc=291, tran=312, fourier=285, total=1044
transient timesteps: accepted=107, rejected=0, total=107
nodes: user=9, subckt=0, model=16, total=25
dctran density=47.5%, ac density=47.5%
