'dctran test 
#Time       iter(0)    v(1)       v(2)       v(3)       control(0)
 0.         3.         0.         0.         0.         1.        
 0.001      4.         1.         975.61u    999.u      9.        
 84.u       4.         1.         83.993u    83.993u    16.       
 7.056u     4.         1.         7.056u     7.056u     16.       
 592.7n     4.         1.         592.7n     592.7n     16.       
 49.8n      4.         1.         49.8n      49.8n      16.       
 4.2n       4.         1.         4.2n       4.2n       16.       
 400.p      4.         1.         400.p      400.p      16.       
 200.p      4.         1.         200.p      200.p      16.       
 300.p      4.         1.         300.p      300.p      6.        
 500.p      4.         1.         500.p      500.p      6.        
 700.p      4.         1.         700.p      700.p      6.        
 900.p      4.         1.         900.p      900.p      6.        
 1.1111u    4.         1.         1.1111u    1.1111u    6.        
 11.879u    4.         1.         11.879u    11.879u    6.        
 163.61u    4.         1.         163.59u    163.59u    6.        
 0.0060363  4.         1.         0.0060182  0.0060182  6.        
 0.053018   4.         1.         0.051645   0.051645   6.        
 0.1        4.         1.         0.095178   0.095178   1.        
 0.2        4.         1.         0.18135    0.18135    1.        
 0.3        4.         1.         0.25932    0.25932    1.        
 0.4        4.         1.         0.32986    0.32986    1.        
 0.5        4.         1.         0.39368    0.39368    1.        
 0.6        4.         1.         0.45143    0.45143    1.        
 0.7        4.         1.         0.50367    0.50367    1.        
 0.8        4.         1.         0.55094    0.55094    1.        
 0.9        4.         1.         0.59371    0.59371    1.        
 1.         4.         1.         0.6324     0.6324     1.        
#Freq       v(1)       v(2)       v(3)      
 0.001      1.         0.99998    0.99998   
 0.01       1.         0.99803    0.99803   
 0.1        1.         0.84673    0.84673   
 1.         1.         0.15718    0.15718   
 10.        1.         0.015913   0.015913  
V1 ( 1 0 )  DC generator scale= 1.  AC  1.
L3 ( 1 2 )  DC  1.  AC  1.
R4 ( 2 0 )  DC  1.  AC  1.
R5 ( 1 3 )  DC  1.  AC  1.
C6 ( 3 0 )  DC  1.  AC  1.
Gnucap   System status
iterations: op=0, dc=0, tran=111, fourier=0, total=144
transient timesteps: accepted=21, rejected=7, total=28
nodes: user=3, subckt=0, model=0, total=3
dctran density=77.8%, ac density=77.8%
