'dctran test 
#Time       iter(0)    v(1)       v(2)       v(3)       control(0)
 0.         3.         0.         0.         0.         1.        
 0.001      4.         1.         975.61u    999.u      9.        
 84.u       4.         1.         83.993u    83.993u    16.       
 7.056u     4.         1.         7.056u     7.056u     16.       
 592.7n     4.         1.         592.7n     592.7n     16.       
 49.787n    4.         1.         49.787n    49.787n    16.       
 4.1821n    4.         1.         4.1821n    4.1821n    16.       
 351.3p     4.         1.         351.3p     351.3p     16.       
 200.p      4.         1.         200.p      200.p      16.       
 310.p      4.         1.         310.p      310.p      6.        
 514.12p    4.         1.         514.12p    514.12p    6.        
 718.24p    4.         1.         718.23p    718.23p    6.        
 922.35p    4.         1.         922.35p    922.35p    6.        
 1.251u     4.         1.         1.251u     1.251u     6.        
 56.591u    4.         1.         56.589u    56.589u    6.        
 0.0017223  4.         1.         0.0017208  0.0017208  6.        
 0.034482   4.         1.         0.033897   0.033897   6.        
 0.1        4.         1.         0.095186   0.095186   1.        
 0.2        4.         1.         0.18136    0.18136    1.        
 0.3        4.         1.         0.25932    0.25932    1.        
 0.4        4.         1.         0.32987    0.32987    1.        
 0.5        4.         1.         0.39369    0.39369    1.        
 0.6        4.         1.         0.45143    0.45143    1.        
 0.7        4.         1.         0.50368    0.50368    1.        
 0.8        4.         1.         0.55095    0.55095    1.        
 0.9        4.         1.         0.59371    0.59371    1.        
 1.         4.         1.         0.63241    0.63241    1.        
#Freq       v(1)       v(2)       v(3)      
 0.001      1.         0.99998    0.99998   
 0.01       1.         0.99803    0.99803   
 0.1        1.         0.84673    0.84673   
 1.         1.         0.15718    0.15718   
 10.        1.         0.015913   0.015913  
V1 ( 1 0 )  DC generator scale= 1.  AC  1.
L3 ( 1 2 )  DC  1.  AC  1.
R4 ( 2 0 )  DC  1.  AC  1.
R5 ( 1 3 )  DC  1.  AC  1.
C6 ( 3 0 )  DC  1.  AC  1.
Gnucap   System status
iterations: op=0, dc=0, tran=107, fourier=0, total=139
transient timesteps: accepted=20, rejected=7, total=27
nodes: user=3, subckt=0, model=0, total=3
dctran density=77.8%, ac density=77.8%
