'dctran test 
#Time       iter(0)    v(1)       v(2)       v(3)       control(0)
 0.         3.         0.         0.         0.         1.        
 0.001      4.         1.         975.61u    999.u      9.        
 84.u       4.         1.         83.993u    83.993u    16.       
 7.056u     4.         1.         7.056u     7.056u     16.       
 592.7n     4.         1.         592.7n     592.7n     16.       
 49.8n      4.         1.         49.8n      49.8n      16.       
 4.2n       4.         1.         4.2n       4.2n       16.       
 400.p      4.         1.         400.p      400.p      16.       
 200.p      4.         1.         200.p      200.p      16.       
 300.p      4.         1.         300.p      300.p      6.        
 400.p      4.         1.         400.p      400.p      6.        
 500.p      4.         1.         500.p      500.p      6.        
 600.p      4.         1.         600.p      600.p      6.        
 1.6423u    4.         1.         1.6423u    1.6423u    6.        
 68.846u    4.         1.         68.843u    68.843u    6.        
 0.0018858  4.         1.         0.001884   0.001884   6.        
 0.018238   4.         1.         0.018073   0.018073   6.        
 0.1        4.         1.         0.095204   0.095204   1.        
 0.2        4.         1.         0.18138    0.18138    1.        
 0.3        4.         1.         0.25934    0.25934    1.        
 0.4        4.         1.         0.32988    0.32988    1.        
 0.5        4.         1.         0.3937     0.3937     1.        
 0.6        4.         1.         0.45144    0.45144    1.        
 0.7        4.         1.         0.50369    0.50369    1.        
 0.8        4.         1.         0.55095    0.55096    1.        
 0.9        4.         1.         0.59372    0.59372    1.        
 1.         4.         1.         0.63241    0.63242    1.        
#Freq       v(1)       v(2)       v(3)      
 0.001      1.         0.99998    0.99998   
 0.01       1.         0.99803    0.99803   
 0.1        1.         0.84673    0.84673   
 1.         1.         0.15718    0.15718   
 10.        1.         0.015913   0.015913  
V1 ( 1 0 )  DC generator scale= 1.  AC  1.
L3 ( 1 2 )  DC  1.  AC  1.
R4 ( 2 0 )  DC  1.  AC  1.
R5 ( 1 3 )  DC  1.  AC  1.
C6 ( 3 0 )  DC  1.  AC  1.
Gnucap   System status
iterations: op=0, dc=0, tran=107, fourier=0, total=139
transient timesteps: accepted=20, rejected=7, total=27
nodes: user=3, subckt=0, model=0, total=3
dctran density=77.8%, ac density=77.8%
