# FIT as quadratic 
Vs ( 1 0 )  DC  1.u
v1 ( 2 0 )  DC  1.  AC  1.
e2 ( 6 0 2 0 ) fit( 0., 0.  1., 1.  2., 4.  3., 9.  4., 16.  5., 25. ) order=2 below= 100. above= 10.
e3 ( 7 0 2 1 ) fit( 0., 0.  1., 1.  2., 4.  3., 9.  4., 16.  5., 25. ) order=2 below= 100. above= 10.
e0 ( 5 0 2 0 ) posy( 1., 2. ) odd=1
e1 ( 3 0 5 0 ) fit( 0., 0.  1., 1.  4., 2.  9., 3.  16., 4.  25., 5. ) order=2 below= 100. above= 0.1
e1 ( 4 0 5 1 ) fit( 0., 0.  1., 1.  4., 2.  9., 3.  16., 4.  25., 5. ) order=2 below= 100. above= 0.1
#           v(1)       v(2)       v(3)       v(4)       v(5)       v(6)       v(7)      
 27.        1.u        1.         1.         1.         1.         1.         1.        
#           v(1)       v(2)       v(3)       v(4)       v(5)       v(6)       v(7)      
-10.        1.u       -10.       -10.K      -10.K      -100.      -1.K       -1.K       
-9.75       1.u       -9.75      -9.5062K   -9.5063K   -95.063    -975.      -975.      
-9.5        1.u       -9.5       -9.025K    -9.025K    -90.25     -950.      -950.      
-9.25       1.u       -9.25      -8.5563K   -8.5563K   -85.563    -925.      -925.      
-9.         1.u       -9.        -8.1K      -8.1K      -81.       -900.      -900.      
-8.75       1.u       -8.75      -7.6562K   -7.6563K   -76.562    -875.      -875.      
-8.5        1.u       -8.5       -7.225K    -7.225K    -72.25     -850.      -850.      
-8.25       1.u       -8.25      -6.8062K   -6.8063K   -68.062    -825.      -825.      
-8.         1.u       -8.        -6.4K      -6.4K      -64.       -800.      -800.      
-7.75       1.u       -7.75      -6.0062K   -6.0063K   -60.062    -775.      -775.      
-7.5        1.u       -7.5       -5.625K    -5.625K    -56.25     -750.      -750.      
-7.25       1.u       -7.25      -5.2563K   -5.2563K   -52.562    -725.      -725.      
-7.         1.u       -7.        -4.9K      -4.9K      -49.       -700.      -700.      
-6.75       1.u       -6.75      -4.5563K   -4.5563K   -45.563    -675.      -675.      
-6.5        1.u       -6.5       -4.225K    -4.225K    -42.25     -650.      -650.      
-6.25       1.u       -6.25      -3.9063K   -3.9063K   -39.063    -625.      -625.      
-6.         1.u       -6.        -3.6K      -3.6K      -36.       -600.      -600.      
-5.75       1.u       -5.75      -3.3062K   -3.3063K   -33.063    -575.      -575.      
-5.5        1.u       -5.5       -3.025K    -3.025K    -30.25     -550.      -550.      
-5.25       1.u       -5.25      -2.7562K   -2.7563K   -27.562    -525.      -525.      
-5.         1.u       -5.        -2.5K      -2.5K      -25.       -500.      -500.      
-4.75       1.u       -4.75      -2.2562K   -2.2563K   -22.562    -475.      -475.      
-4.5        1.u       -4.5       -2.025K    -2.025K    -20.25     -450.      -450.      
-4.25       1.u       -4.25      -1.8062K   -1.8063K   -18.062    -425.      -425.      
-4.         1.u       -4.        -1.6K      -1.6K      -16.       -400.      -400.      
-3.75       1.u       -3.75      -1.4062K   -1.4063K   -14.062    -375.      -375.      
-3.5        1.u       -3.5       -1.225K    -1.225K    -12.25     -350.      -350.      
-3.25       1.u       -3.25      -1.0562K   -1.0563K   -10.563    -325.      -325.      
-3.         1.u       -3.        -900.      -900.      -9.        -300.      -300.      
-2.75       1.u       -2.75      -756.25    -756.25    -7.5625    -275.      -275.      
-2.5        1.u       -2.5       -625.      -625.      -6.25      -250.      -250.      
-2.25       1.u       -2.25      -506.25    -506.25    -5.0625    -225.      -225.      
-2.         1.u       -2.        -400.      -400.      -4.        -200.      -200.      
-1.75       1.u       -1.75      -306.25    -306.25    -3.0625    -175.      -175.      
-1.5        1.u       -1.5       -225.      -225.      -2.25      -150.      -150.      
-1.25       1.u       -1.25      -156.25    -156.25    -1.5625    -125.      -125.      
-1.         1.u       -1.        -100.      -100.      -1.        -100.      -100.      
-0.75       1.u       -0.75      -56.25     -56.25     -0.5625    -75.       -75.       
-0.5        1.u       -0.5       -25.       -25.       -0.25      -50.       -50.       
-0.25       1.u       -0.25      -6.25      -6.2501    -0.0625    -25.       -25.       
 0.         1.u        0.        -1.f       -100.u      0.         0.        -100.u     
 0.25       1.u        0.25       0.095889   0.095888   0.0625     0.0625     0.0625    
 0.5        1.u        0.5        0.35685    0.35684    0.25       0.25       0.25      
 0.75       1.u        0.75       0.70273    0.70273    0.5625     0.5625     0.5625    
 1.         1.u        1.         1.         1.         1.         1.         1.        
 1.25       1.u        1.25       1.2318     1.2318     1.5625     1.5625     1.5625    
 1.5        1.u        1.5        1.4873     1.4873     2.25       2.25       2.25      
 1.75       1.u        1.75       1.7499     1.7499     3.0625     3.0625     3.0625    
 2.         1.u        2.         2.         2.         4.         4.         4.        
 2.25       1.u        2.25       2.243      2.243      5.0625     5.0625     5.0625    
 2.5        1.u        2.5        2.4952     2.4952     6.25       6.25       6.25      
 2.75       1.u        2.75       2.7499     2.7499     7.5625     7.5625     7.5625    
 3.         1.u        3.         3.         3.         9.         9.         9.        
 3.25       1.u        3.25       3.2483     3.2483     10.563     10.563     10.562    
 3.5        1.u        3.5        3.5002     3.5002     12.25      12.25      12.25     
 3.75       1.u        3.75       3.7521     3.7521     14.063     14.063     14.062    
 4.         1.u        4.         4.         4.         16.        16.        16.       
 4.25       1.u        4.25       4.2468     4.2468     18.063     18.063     18.062    
 4.5        1.u        4.5        4.4971     4.4971     20.25      20.25      20.25     
 4.75       1.u        4.75       4.7489     4.7489     22.563     22.563     22.562    
 5.         1.u        5.         5.         5.         25.        25.        25.       
 5.25       1.u        5.25       5.2563     5.2562     27.563     27.5       27.5      
 5.5        1.u        5.5        5.525      5.525      30.25      30.        30.       
 5.75       1.u        5.75       5.8063     5.8062     33.063     32.5       32.5      
 6.         1.u        6.         6.1        6.1        36.        35.        35.       
 6.25       1.u        6.25       6.4063     6.4062     39.063     37.5       37.5      
 6.5        1.u        6.5        6.725      6.725      42.25      40.        40.       
 6.75       1.u        6.75       7.0563     7.0562     45.563     42.5       42.5      
 7.         1.u        7.         7.4        7.4        49.        45.        45.       
 7.25       1.u        7.25       7.7563     7.7562     52.563     47.5       47.5      
 7.5        1.u        7.5        8.125      8.125      56.25      50.        50.       
 7.75       1.u        7.75       8.5063     8.5062     60.063     52.5       52.5      
 8.         1.u        8.         8.9        8.9        64.        55.        55.       
 8.25       1.u        8.25       9.3063     9.3062     68.063     57.5       57.5      
 8.5        1.u        8.5        9.725      9.725      72.25      60.        60.       
 8.75       1.u        8.75       10.156     10.156     76.563     62.5       62.5      
 9.         1.u        9.         10.6       10.6       81.        65.        65.       
 9.25       1.u        9.25       11.056     11.056     85.563     67.5       67.5      
 9.5        1.u        9.5        11.525     11.525     90.25      70.        70.       
 9.75       1.u        9.75       12.006     12.006     95.063     72.5       72.5      
 10.        1.u        10.        12.5       12.5       100.       75.        75.       
