'switch capacitor filter.  Use tr 0 50u .1u.  Gen freq 100k 
#Time       v(1)       v(2)       v(3)       stepcause(0)
 0.         0.         0.         0.         ??        
 1.n        628.32u    616.24u    12.083u    ??        
 2.n        0.0012566  0.0012265  30.089u    ??        
 5.267n     0.0033093  0.0031429  166.42u    ??        
 13.879n    0.0087203  0.007719   0.0010013  ??        
 22.491n    0.014131   0.011745   0.0023858  ??        
 41.868n    0.026303   0.019604   0.0066998  ??        
 70.934n    0.044554   0.029756   0.014798   ??        
 100.n      0.062791   0.039142   0.023649   ??        
 133.33n    0.083678   0.049654   0.034023   ??        
 166.67n    0.10453    0.060083   0.044446   ??        
 200.n      0.12533    0.070472   0.054862   ??        
 250.n      0.15643    0.085993   0.070442   ??        
 300.n      0.18738    0.10143    0.085954   ??        
 400.n      0.24869    0.13198    0.11671    ??        
 500.n      0.30902    0.16202    0.147      ??        
 600.n      0.36812    0.20611    0.081008   ??        
 606.24n    0.37176    0.20975    0.071499   ??        
 612.47n    0.3754     0.21338    0.063107   ??        
 616.45n    0.37771    0.2157     0.058277   ??        
 620.43n    0.38003    0.21801    0.053817   ??        
 660.21n    0.40303    0.24101    0.023182   ??        
 700.n      0.42578    0.26376    0.0099858  ??        
 739.79n    0.44826    0.28625    0.0043015  ??        
 800.n      0.48175    0.31974    0.0010682  ??        
 833.33n    0.5        0.33798    534.1u     ??        
 866.67n    0.51803    0.35601    267.05u    ??        
 900.n      0.53583    0.37381    133.52u    ??        
 933.33n    0.55339    0.39138    66.761u    ??        
 966.67n    0.57071    0.4087     33.38u     ??        
 1.u        0.58779    0.42577    16.69u     ??        
 1.0333u    0.6046     0.35407    0.088523   ??        
 1.0459u    0.61086    0.30641    0.14245    ??        
 1.0584u    0.61709    0.2791     0.17598    ??        
 1.0668u    0.62119    0.26821    0.19097    ??        
 1.0751u    0.62528    0.261      0.20227    ??        
 1.1u       0.63742    0.25158    0.22383    ??        
 1.1249u    0.64942    0.25235    0.23506    ??        
 1.1499u    0.66125    0.25646    0.24278    ??        
 1.1748u    0.67292    0.26164    0.24928    ??        
 1.2u       0.68455    0.26717    0.25537    ??        
 1.2333u    0.69966    0.27454    0.26311    ??        
 1.2667u    0.71447    0.28182    0.27065    ??        
 1.3u       0.72897    0.28895    0.27802    ??        
 1.35u      0.75011    0.29934    0.28877    ??        
 1.4u       0.77051    0.30935    0.29915    ??        
 1.5u       0.80902    0.33766    0.15468    ??        
 1.5052u    0.81093    0.33957    0.13943    ??        
 1.5104u    0.81283    0.34147    0.12569    ??        
 1.5143u    0.81425    0.34289    0.11626    ??        
 1.5182u    0.81567    0.34431    0.10754    ??        
 1.6u       0.84433    0.37297    0.01074    ??        
 1.65u      0.86074    0.38938    0.00358    ??        
 1.675u     0.86863    0.39727    0.002148   ??        
 1.7u       0.87631    0.40495    0.0012888  ??        
 1.725u     0.88377    0.41241    773.27u    ??        
 1.7625u    0.89454    0.42318    351.49u    ??        
 1.8u       0.90483    0.43347    159.77u    ??        
 1.8375u    0.91461    0.44325    72.622u    ??        
 1.875u     0.92388    0.45252    33.01u     ??        
 1.9u       0.92978    0.45842    19.806u    ??        
 1.9333u    0.93728    0.46592    9.903u     ??        
 1.9667u    0.94438    0.47302    4.9515u    ??        
 2.u        0.95106    0.4797     2.4757u    ??        
 2.0333u    0.95732    0.38877    0.097194   ??        
 2.0667u    0.96316    0.27681    0.21499    ??        
 2.0833u    0.96593    0.26377    0.23079    ??        
 2.1u       0.96858    0.25785    0.23937    ??        
 2.1167u    0.97113    0.25547    0.24431    ??        
 2.1333u    0.97358    0.25482    0.2474     ??        
 2.15u      0.97592    0.25501    0.24955    ??        
 2.175u     0.97922    0.25594    0.25192    ??        
 2.2u       0.98229    0.25716    0.25377    ??        
 2.225u     0.98511    0.25838    0.25537    ??        
 2.2625u    0.98889    0.26006    0.25747    ??        
 2.3u       0.99211    0.26149    0.25927    ??        
 2.35u      0.99556    0.26296    0.26124    ??        
 2.4u       0.99803    0.26395    0.26272    ??        
 2.5u       1.         0.26444    0.2642     ??        
 2.6u       0.99803    0.26222    0.13222    ??        
 2.6138u    0.99744    0.26164    0.10011    ??        
 2.6276u    0.99679    0.26098    0.075802   ??        
 2.6415u    0.99605    0.26025    0.057394   ??        
 2.6553u    0.99524    0.25944    0.043457   ??        
 2.7u       0.99211    0.25631    0.016599   ??        
 2.7447u    0.9882     0.2524     0.0063407  ??        
 2.7894u    0.98351    0.24771    0.002422   ??        
 2.8u       0.98229    0.24648    0.0019593  ??        
 2.8333u    0.97815    0.24234    979.67u    ??        
 2.8667u    0.97358    0.23778    489.84u    ??        
 2.9u       0.96858    0.23278    244.92u    ??        
 2.95u      0.96029    0.22449    81.639u    ??        
 3.u        0.95106    0.21525    27.213u    ??        
 3.0333u    0.94438    0.16686    0.041729   ??        
 3.0455u    0.94184    0.14015    0.065907   ??        
 3.0576u    0.93926    0.12332    0.080147   ??        
 3.0661u    0.93741    0.11535    0.086276   ??        
 3.0746u    0.93554    0.1094     0.090358   ??        
 3.0873u    0.93269    0.10297    0.093931   ??        
 3.1u       0.92978    0.098522   0.09547    ??        
 3.1167u    0.92587    0.094341   0.095745   ??        
 3.1333u    0.92186    0.091185   0.094893   ??        
 3.15u      0.91775    0.088517   0.093452   ??        
 3.175u     0.9114     0.084869   0.090749   ??        
 3.2u       0.90483    0.081349   0.087693   ??        
 3.2333u    0.89571    0.076594   0.083332   ??        
 3.2667u    0.8862     0.071683   0.078735   ??        
 3.3u       0.87631    0.066587   0.073935   ??        
 3.35u      0.86074    0.058587   0.06637    ??        
 3.4u       0.84433    0.050168   0.058375   ??        
 3.5u       0.80902    0.023064   0.025084   ??        
 3.5053u    0.80705    0.021096   0.022552   ??        
 3.5106u    0.80507    0.019119   0.020275   ??        
 3.5147u    0.80356    0.017603   0.018692   ??        
 3.5188u    0.80203    0.016081   0.017233   ??        
 3.6u       0.77051   -0.01544    0.0017833  ??        
 3.65u      0.75011   -0.035842   594.45u    ??        
 3.675u     0.73963   -0.046322   356.67u    ??        
 3.7u       0.72897   -0.056984   214.u      ??        
 3.725u     0.71813   -0.067827   128.4u     ??        
 3.7625u    0.70153   -0.084422   58.364u    ??        
 3.8u       0.68455   -0.10141    26.529u    ??        
 3.8375u    0.66718   -0.11877    12.059u    ??        
 3.875u     0.64945   -0.1365     5.4812u    ??        
 3.9u       0.63742   -0.14853    3.2887u    ??        
 3.9333u    0.62115   -0.1648     1.6444u    ??        
 3.9667u    0.6046    -0.18135    822.19n    ??        
 4.u        0.58779   -0.19817    411.09n    ??        
 4.0333u    0.57071   -0.17219   -0.043048   ??        
 4.0667u    0.55339   -0.13439   -0.098171   ??        
 4.0833u    0.54464   -0.13299   -0.10832    ??        
 4.1u       0.53583   -0.13454   -0.11559    ??        
 4.1167u    0.52696   -0.13756   -0.12143    ??        
 4.1333u    0.51803   -0.14134   -0.12658    ??        
 4.1556u    0.50603   -0.14695   -0.13297    ??        
 4.1778u    0.49394   -0.15288   -0.13913    ??        
 4.2u       0.48175   -0.15896   -0.14524    ??        
 4.25u      0.45399   -0.17292   -0.15904    ??        
 4.3u       0.42578   -0.18714   -0.17303    ??        
 4.35u      0.39715   -0.20156   -0.18724    ??        
 4.4u       0.36812   -0.21617   -0.20166    ??        
 4.5u       0.30902   -0.26077   -0.10808    ??        
 4.5052u    0.30593   -0.26385   -0.097474   ??        
 4.5091u    0.30357   -0.26622   -0.090063   ??        
 4.5131u    0.3012    -0.26858   -0.083215   ??        
 4.517u     0.29883   -0.27095   -0.076887   ??        
 4.5585u    0.27385   -0.29593   -0.031794   ??        
 4.6u       0.24869   -0.32109   -0.013147   ??        
 4.6415u    0.22336   -0.34642   -0.0054367  ??        
 4.7u       0.18738   -0.3824    -0.0014231  ??        
 4.7333u    0.16677   -0.40301   -711.56u    ??        
 4.7667u    0.14608   -0.4237    -355.78u    ??        
 4.8u       0.12533   -0.44445   -177.89u    ??        
 4.8333u    0.10453   -0.46525   -88.943u    ??        
 4.8667u    0.083677  -0.48611   -44.471u    ??        
 4.9u       0.062791  -0.50699   -22.236u    ??        
 4.9333u    0.041876  -0.52791   -11.118u    ??        
 4.9667u    0.020944  -0.54884   -5.5593u    ??        
 5.u        1.f       -0.56978   -2.7795u    ??        
 5.0333u   -0.020944  -0.47258   -0.11815    ??        
 5.0667u   -0.041879  -0.34755   -0.26412    ??        
 5.0833u   -0.052338  -0.33584   -0.28628    ??        
 5.1u      -0.062791  -0.3326    -0.29997    ??        
 5.1167u   -0.073237  -0.33359   -0.30944    ??        
 5.1333u   -0.083675  -0.33668   -0.31678    ??        
 5.1556u   -0.097581  -0.34232   -0.32504    ??        
 5.1778u   -0.11147   -0.34876   -0.3325     ??        
 5.2u      -0.12533   -0.35548   -0.33963    ??        
 5.2333u   -0.14608   -0.36574   -0.35012    ??        
 5.2667u   -0.16677   -0.37604   -0.36051    ??        
 5.3u      -0.18738   -0.38632   -0.37085    ??        
 5.4u      -0.24869   -0.41688   -0.4016     ??        
 5.5u      -0.30902   -0.44691   -0.43189    ??        
 5.6u      -0.36812   -0.491     -0.22345    ??        
 5.6062u   -0.37176   -0.49464   -0.19722    ??        
 5.6125u   -0.3754    -0.49827   -0.17407    ??        
 5.6164u   -0.37771   -0.50059   -0.16075    ??        
 5.6204u   -0.38003   -0.5029    -0.14845    ??        
 5.6602u   -0.40303   -0.5259    -0.063945   ??        
 5.7u      -0.42578   -0.54865   -0.027545   ??        
 5.7398u   -0.44826   -0.57114   -0.011865   ??        
 5.8u      -0.48175   -0.60463   -0.0029465  ??        
 5.8333u   -0.5       -0.62287   -0.0014733  ??        
 5.8667u   -0.51803   -0.6409    -736.64u    ??        
 5.9u      -0.53583   -0.6587    -368.31u    ??        
 5.9333u   -0.55339   -0.67627   -184.15u    ??        
 5.9667u   -0.57071   -0.69359   -92.076u    ??        
 6.u       -0.58779   -0.71066   -46.039u    ??        
 6.0333u   -0.6046    -0.58199   -0.14552    ??        
 6.0431u   -0.60946   -0.51528   -0.21709    ??        
 6.0528u   -0.6143    -0.4711    -0.26611    ??        
 6.0596u   -0.61764   -0.44989   -0.29066    ??        
 6.0663u   -0.62097   -0.4341    -0.30977    ??        
 6.0831u   -0.62923   -0.40998   -0.34215    ??        
 6.1u      -0.63742   -0.40005   -0.36028    ??        
 6.1169u   -0.64555   -0.39712   -0.37133    ??        
 6.1446u   -0.65875   -0.39877   -0.38288    ??        
 6.1723u   -0.67175   -0.40379   -0.39087    ??        
 6.2u      -0.68455   -0.4097    -0.39776    ??        
 6.2277u   -0.69714   -0.41578   -0.40426    ??        
 6.2554u   -0.70952   -0.42185   -0.41058    ??        
 6.3u      -0.72897   -0.4314    -0.42047    ??        
 6.35u     -0.75011   -0.44179   -0.43122    ??        
 6.4u      -0.77051   -0.45181   -0.44161    ??        
 6.5u      -0.80902   -0.47068   -0.46124    ??        
 6.6u      -0.84433   -0.49655   -0.23534    ??        
 6.6067u   -0.84659   -0.49882   -0.20561    ??        
 6.6135u   -0.84884   -0.50106   -0.17964    ??        
 6.6178u   -0.85027   -0.5025    -0.16474    ??        
 6.6221u   -0.8517    -0.50393   -0.15108    ??        
 6.6611u   -0.86426   -0.51649   -0.066406   ??        
 6.7u      -0.87631   -0.52853   -0.029189   ??        
 6.7389u   -0.88783   -0.54005   -0.01283    ??        
 6.8u      -0.90483   -0.55705   -0.0031012  ??        
 6.8333u   -0.91355   -0.56577   -0.0015506  ??        
 6.8667u   -0.92186   -0.57409   -775.31u    ??        
 6.9u      -0.92978   -0.582     -387.65u    ??        
 6.9333u   -0.93728   -0.58951   -193.82u    ??        
 6.9667u   -0.94438   -0.5966    -96.91u     ??        
 7.u       -0.95106   -0.60328   -48.456u    ??        
 7.0333u   -0.95732   -0.48765   -0.12193    ??        
 7.043u    -0.95905   -0.43023   -0.18108    ??        
 7.0526u   -0.96074   -0.39159   -0.22141    ??        
 7.0593u   -0.96192   -0.37238   -0.24179    ??        
 7.0661u   -0.96307   -0.35788   -0.25745    ??        
 7.0831u   -0.96588   -0.33492   -0.28322    ??        
 7.1u      -0.96858   -0.3242    -0.29664    ??        
 7.1169u   -0.97118   -0.31949   -0.30394    ??        
 7.1377u   -0.9742    -0.31751   -0.30895    ??        
 7.1585u   -0.97706   -0.31744   -0.31188    ??        
 7.1792u   -0.97976   -0.31811   -0.31391    ??        
 7.2u      -0.98229   -0.31903   -0.31551    ??        
 7.2208u   -0.98465   -0.32002   -0.31689    ??        
 7.2472u   -0.98741   -0.32122   -0.31845    ??        
 7.2736u   -0.9899    -0.32232   -0.31984    ??        
 7.3u      -0.99211   -0.3233    -0.32108    ??        
 7.35u     -0.99556   -0.32477   -0.32305    ??        
 7.4u      -0.99803   -0.32576   -0.32453    ??        
 7.5u      -1.        -0.3265    -0.16288    ??        
 7.5105u   -0.99998   -0.32648   -0.13197    ??        
 7.521u    -0.99991   -0.32641   -0.10693    ??        
 7.5282u   -0.99984   -0.32634   -0.092591   ??        
 7.5353u   -0.99975   -0.32625   -0.080178   ??        
 7.6u      -0.99803   -0.32453   -0.017206   ??        
 7.6647u   -0.99465   -0.32115   -0.0036923  ??        
 7.7u      -0.99211   -0.31861   -0.0017642  ??        
 7.7353u   -0.98909   -0.31559   -842.93u    ??        
 7.7707u   -0.98557   -0.31207   -402.75u    ??        
 7.8u      -0.98229   -0.30879   -220.09u    ??        
 7.8293u   -0.97867   -0.30517   -120.27u    ??        
 7.8587u   -0.97472   -0.30122   -65.721u    ??        
 7.9u      -0.96858   -0.29508   -27.273u    ??        
 7.9413u   -0.9618    -0.2883    -11.318u    ??        
 7.9827u   -0.95436   -0.28086   -4.6969u    ??        
 8.u       -0.95106   -0.27756   -3.3106u    ??        
 8.0333u   -0.94438   -0.2167    -0.054177   ??        
 8.0667u   -0.93728   -0.14602   -0.11777    ??        
 8.0833u   -0.93358   -0.13572   -0.12437    ??        
 8.0917u   -0.93169   -0.13234   -0.12585    ??        
 8.1u      -0.92978   -0.12964   -0.12664    ??        
 8.1143u   -0.92643   -0.126     -0.12694    ??        
 8.1286u   -0.92302   -0.12317   -0.12635    ??        
 8.1429u   -0.91953   -0.12077   -0.12525    ??        
 8.1714u   -0.91232   -0.11651   -0.12232    ??        
 8.2u      -0.90483   -0.11249   -0.11884    ??        
 8.2286u   -0.89704   -0.10843   -0.11511    ??        
 8.2643u   -0.8869    -0.10318   -0.11021    ??        
 8.3u      -0.87631   -0.09773   -0.10508    ??        
 8.35u     -0.86074   -0.089731  -0.097513   ??        
 8.4u      -0.84433   -0.081311  -0.089518   ??        
 8.5u      -0.80902   -0.054207  -0.040656   ??        
 8.5053u   -0.80705   -0.05224   -0.036551   ??        
 8.5106u   -0.80507   -0.050263  -0.032861   ??        
 8.5147u   -0.80356   -0.048746  -0.030296   ??        
 8.5188u   -0.80203   -0.047225  -0.027931   ??        
 8.6u      -0.77051   -0.015704  -0.0028904  ??        
 8.65u     -0.75011    0.0046985 -963.47u    ??        
 8.675u    -0.73963    0.015178  -578.08u    ??        
 8.7u      -0.72897    0.025841  -346.85u    ??        
 8.725u    -0.71813    0.036683  -208.11u    ??        
 8.7625u   -0.70153    0.053278  -94.595u    ??        
 8.8u      -0.68455    0.070262  -42.998u    ??        
 8.8375u   -0.66718    0.087627  -19.544u    ??        
 8.875u    -0.64945    0.10536   -8.8838u    ??        
 8.9u      -0.63742    0.11739   -5.3303u    ??        
 8.9333u   -0.62115    0.13366   -2.6652u    ??        
 8.9667u   -0.6046     0.15021   -1.3326u    ??        
 9.u       -0.58779    0.13362    0.033405   ??        
 9.0333u   -0.57071    0.10719    0.076905   ??        
 9.0556u   -0.55919    0.10762    0.087996   ??        
 9.0704u   -0.55145    0.10999    0.093366   ??        
 9.0852u   -0.54366    0.11309    0.098056   ??        
 9.1u      -0.53583    0.11659    0.10239    ??        
 9.125u    -0.5225     0.12297    0.10934    ??        
 9.1625u   -0.50227    0.13303    0.11952    ??        
 9.2u      -0.48175    0.14335    0.1297     ??        
 9.25u     -0.45399    0.15735    0.14347    ??        
 9.3u      -0.42578    0.17157    0.15746    ??        
 9.4u      -0.36812    0.2006     0.18608    ??        
 9.5u      -0.30902    0.24519    0.1003     ??        
 9.5059u   -0.30547    0.24874    0.089056   ??        
 9.5119u   -0.30191    0.2523     0.079073   ??        
 9.5159u   -0.29951    0.2547     0.072981   ??        
 9.5199u   -0.29711    0.2571     0.067359   ??        
 9.5599u   -0.27299    0.28122    0.02883    ??        
 9.6u      -0.24869    0.30552    0.012339   ??        
 9.6401u   -0.22424    0.32997    0.0052812  ??        
 9.7u      -0.18738    0.36683    0.0013226  ??        
 9.7333u   -0.16677    0.38744    661.31u    ??        
 9.7667u   -0.14608    0.40812    330.66u    ??        
 9.8u      -0.12533    0.42887    165.33u    ??        
 9.8333u   -0.10453    0.44968    82.661u    ??        
 9.8667u   -0.083677   0.47053    41.33u     ??        
 9.9u      -0.062791   0.49142    20.666u    ??        
 9.9333u   -0.041876   0.51233    10.333u    ??        
 9.9667u   -0.020944   0.53326    5.1667u    ??        
 10.u      -1.f        0.55421    2.5832u    ??        
 10.033u    0.020944   0.46012    0.11504    ??        
 10.067u    0.041879   0.33883    0.25726    ??        
 10.083u    0.052338   0.32759    0.27896    ??        
 10.1u      0.062791   0.32458    0.29242    ??        
 10.117u    0.073237   0.32568    0.30177    ??        
 10.133u    0.083675   0.32884    0.30905    ??        
 10.156u    0.097581   0.33451    0.31728    ??        
 10.178u    0.11147    0.34096    0.32472    ??        
 10.2u      0.12533    0.34769    0.33185    ??        
 10.233u    0.14608    0.35796    0.34234    ??        
 10.267u    0.16677    0.36826    0.35272    ??        
 10.3u      0.18738    0.37853    0.36306    ??        
 10.4u      0.24869    0.40909    0.39381    ??        
 10.5u      0.30902    0.43912    0.42411    ??        
 10.6u      0.36812    0.48321    0.21956    ??        
 10.606u    0.37176    0.48685    0.19379    ??        
 10.612u    0.3754     0.49049    0.17104    ??        
 10.616u    0.37771    0.4928     0.15795    ??        
 10.62u     0.38003    0.49512    0.14586    ??        
 10.66u     0.40303    0.51812    0.062831   ??        
 10.7u      0.42578    0.54087    0.027065   ??        
 10.74u     0.44826    0.56335    0.011659   ??        
 10.8u      0.48175    0.59684    0.0028952  ??        
 10.833u    0.5        0.61509    0.0014476  ??        
 10.867u    0.51803    0.63311    723.8u     ??        
 10.9u      0.53583    0.65091    361.9u     ??        
 10.933u    0.55339    0.66848    180.95u    ??        
 10.967u    0.57071    0.6858     90.471u    ??        
 11.u       0.58779    0.70287    45.237u    ??        
 11.033u    0.6046     0.57576    0.14396    ??        
 11.043u    0.60948    0.50957    0.21503    ??        
 11.053u    0.61435    0.46583    0.26364    ??        
 11.06u     0.61768    0.44498    0.28781    ??        
 11.066u    0.621      0.42946    0.30665    ??        
 11.083u    0.62925    0.40576    0.3386     ??        
 11.1u      0.63742    0.396      0.35654    ??        
 11.117u    0.64553    0.39316    0.36749    ??        
 11.145u    0.65874    0.39485    0.379      ??        
