# HSPICE style PWL, out of order, bogus answers 
v1 ( 1 0 )  DC  1.  AC  1.
r1 ( 1 2 )  1.K
r2 ( 2 0 )  1.K
e1 ( 3 0 2 0 ) pwl( 0., 0.  1., 1.  4., 2.  9., 3.  160., 4.  25., 5. )
r3 ( 3 0 )  10.K
e1: PWL is out of order: ( 160.,  25.)
#           v(1)       v(2)       v(3)      
e1: PWL is out of order: ( 160.,  25.)
 27.        1.         0.5        0.5       
e1: PWL is out of order: ( 160.,  25.)
#           v(1)       v(2)       v(3)      
e1: PWL is out of order: ( 160.,  25.)
-10.       -10.       -5.        -5.        
e1: PWL is out of order: ( 160.,  25.)
-9.        -9.        -4.5       -4.5       
e1: PWL is out of order: ( 160.,  25.)
-8.        -8.        -4.        -4.        
e1: PWL is out of order: ( 160.,  25.)
-7.        -7.        -3.5       -3.5       
e1: PWL is out of order: ( 160.,  25.)
-6.        -6.        -3.        -3.        
e1: PWL is out of order: ( 160.,  25.)
-5.        -5.        -2.5       -2.5       
e1: PWL is out of order: ( 160.,  25.)
-4.        -4.        -2.        -2.        
e1: PWL is out of order: ( 160.,  25.)
-3.        -3.        -1.5       -1.5       
e1: PWL is out of order: ( 160.,  25.)
-2.        -2.        -1.        -1.        
e1: PWL is out of order: ( 160.,  25.)
-1.        -1.        -0.5       -0.5       
e1: PWL is out of order: ( 160.,  25.)
 0.         0.         0.         0.        
e1: PWL is out of order: ( 160.,  25.)
 1.         1.         0.5        0.5       
e1: PWL is out of order: ( 160.,  25.)
 2.         2.         1.         1.        
e1: PWL is out of order: ( 160.,  25.)
 3.         3.         1.5        1.1667    
e1: PWL is out of order: ( 160.,  25.)
 4.         4.         2.         1.3333    
e1: PWL is out of order: ( 160.,  25.)
 5.         5.         2.5        1.5       
e1: PWL is out of order: ( 160.,  25.)
 6.         6.         3.         1.6667    
e1: PWL is out of order: ( 160.,  25.)
 7.         7.         3.5        1.8333    
e1: PWL is out of order: ( 160.,  25.)
 8.         8.         4.         2.        
e1: PWL is out of order: ( 160.,  25.)
 9.         9.         4.5        2.1       
e1: PWL is out of order: ( 160.,  25.)
 10.        10.        5.         2.2       
e1: PWL is out of order: ( 160.,  25.)
#           v(1)       v(2)       v(3)      
e1: PWL is out of order: ( 160.,  25.)
 1.         1.         0.5        0.5       
e1: PWL is out of order: ( 160.,  25.)
 1.5849     1.5849     0.79245    0.79245   
e1: PWL is out of order: ( 160.,  25.)
 2.5119     2.5119     1.2559     1.0853    
e1: PWL is out of order: ( 160.,  25.)
 3.9811     3.9811     1.9905     1.3302    
e1: PWL is out of order: ( 160.,  25.)
 6.3096     6.3096     3.1548     1.7183    
e1: PWL is out of order: ( 160.,  25.)
 10.        10.        5.         2.2       
e1: PWL is out of order: ( 160.,  25.)
 15.849     15.849     7.9245     2.7849    
e1: PWL is out of order: ( 160.,  25.)
 25.119     25.119     12.559     3.0236    
e1: PWL is out of order: ( 160.,  25.)
 39.811     39.811     19.905     3.0722    
e1: PWL is out of order: ( 160.,  25.)
 63.096     63.096     31.548     3.1493    
e1: PWL is out of order: ( 160.,  25.)
 100.       100.       50.        3.2715    
e1: PWL is out of order: ( 160.,  25.)
 158.49     158.49     79.245     3.4652    
e1: PWL is out of order: ( 160.,  25.)
 251.19     251.19     125.59     3.7721    
e1: PWL is out of order: ( 160.,  25.)
 398.11     398.11     199.05     4.2586    
e1: PWL is out of order: ( 160.,  25.)
 630.96     630.96     315.48     5.0297    
e1: PWL is out of order: ( 160.,  25.)
 1.K        1.K        500.       6.2517    
e1: PWL is out of order: ( 160.,  25.)
#           v(1)       v(2)       v(3)      
e1: PWL is out of order: ( 160.,  25.)
 32.        32.        16.        3.0464    
e1: PWL is out of order: ( 160.,  25.)
 41.        41.        20.5       3.0762    
e1: PWL is out of order: ( 160.,  25.)
 50.        50.        25.        3.106     
e1: PWL is out of order: ( 160.,  25.)
 59.        59.        29.5       3.1358    
e1: PWL is out of order: ( 160.,  25.)
 68.        68.        34.        3.1656    
