# HSPICE style PWL, out of order, bogus answers 
v1 ( 1 0 )  DC  1.  AC  1.
r1 ( 1 2 )  1.K
r2 ( 2 0 )  1.K
e1 ( 3 0 2 0 ) pwl( 0., 0.  1., 1.  4., 2.  9., 3.  160., 4.  25., 5. )
r3 ( 3 0 )  10.K
e1: PWL is out of order: ( 160.,  25.)
#           v(1)       v(2)       v(3)      
 27.        1.         0.5        0.5       
e1: PWL is out of order: ( 160.,  25.)
#           v(1)       v(2)       v(3)      
-10.       -10.       -5.        -5.        
-9.        -9.        -4.5       -4.5       
-8.        -8.        -4.        -4.        
-7.        -7.        -3.5       -3.5       
-6.        -6.        -3.        -3.        
-5.        -5.        -2.5       -2.5       
-4.        -4.        -2.        -2.        
-3.        -3.        -1.5       -1.5       
-2.        -2.        -1.        -1.        
-1.        -1.        -0.5       -0.5       
 0.         0.         0.         0.        
 1.         1.         0.5        0.5       
 2.         2.         1.         1.        
 3.         3.         1.5        1.1667    
 4.         4.         2.         1.3333    
 5.         5.         2.5        1.5       
 6.         6.         3.         1.6667    
 7.         7.         3.5        1.8333    
 8.         8.         4.         2.        
 9.         9.         4.5        2.1       
 10.        10.        5.         2.2       
e1: PWL is out of order: ( 160.,  25.)
#           v(1)       v(2)       v(3)      
 1.         1.         0.5        0.5       
 1.5849     1.5849     0.79245    0.79245   
 2.5119     2.5119     1.2559     1.0853    
 3.9811     3.9811     1.9905     1.3302    
 6.3096     6.3096     3.1548     1.7183    
 10.        10.        5.         2.2       
 15.849     15.849     7.9245     2.7849    
 25.119     25.119     12.559     3.0236    
 39.811     39.811     19.905     3.0722    
 63.096     63.096     31.548     3.1493    
 100.       100.       50.        3.2715    
 158.49     158.49     79.245     3.4652    
 251.19     251.19     125.59     3.7721    
 398.11     398.11     199.05     4.2586    
 630.96     630.96     315.48     5.0297    
 1.K        1.K        500.       6.2517    
e1: PWL is out of order: ( 160.,  25.)
#           v(1)       v(2)       v(3)      
 32.        32.        16.        3.0464    
 41.        41.        20.5       3.0762    
 50.        50.        25.        3.106     
 59.        59.        29.5       3.1358    
 68.        68.        34.        3.1656    
