'switch capacitor filter.  Use tr 0 50u .1u.  Gen freq 100k 
#Time       v(1)       v(2)       v(3)       stepcause(0)
 0.         0.         0.         0.         ??        
 990.1p     622.1u     610.25u    11.849u    ??        
 1.9802n    0.0012442  0.0012147  29.509u    ??        
 5.2475n    0.0032971  0.0031319  165.17u    ??        
 13.861n    0.0087093  0.0077104  998.85u    ??        
 22.475n    0.014121   0.011738   0.0023828  ??        
 41.856n    0.026296   0.019599   0.0066967  ??        
 70.928n    0.044551   0.029754   0.014796   ??        
 100.n      0.062791   0.039142   0.023649   ??        
 133.33n    0.083678   0.049654   0.034023   ??        
 166.67n    0.10453    0.060083   0.044446   ??        
 200.n      0.12533    0.070472   0.054862   ??        
 250.n      0.15643    0.085993   0.070442   ??        
 300.n      0.18738    0.10143    0.085954   ??        
 400.n      0.24869    0.13198    0.11671    ??        
 500.n      0.30902    0.16202    0.147      ??        
 600.n      0.36812    0.20611    0.081008   ??        
 606.24n    0.37176    0.20975    0.071499   ??        
 612.47n    0.3754     0.21338    0.063106   ??        
 616.45n    0.37771    0.2157     0.058277   ??        
 620.43n    0.38003    0.21801    0.053817   ??        
 660.21n    0.40303    0.24101    0.023182   ??        
 700.n      0.42578    0.26376    0.0099858  ??        
 739.79n    0.44826    0.28625    0.0043015  ??        
 800.n      0.48175    0.31974    0.0010682  ??        
 833.33n    0.5        0.33798    534.09u    ??        
 866.67n    0.51803    0.35601    267.05u    ??        
 900.n      0.53583    0.37381    133.52u    ??        
 933.33n    0.55339    0.39137    66.762u    ??        
 966.67n    0.57071    0.4087     33.381u    ??        
 1.u        0.58779    0.42577    16.69u     ??        
 1.0333u    0.6046     0.35407    0.088525   ??        
 1.0459u    0.61086    0.30641    0.14245    ??        
 1.0584u    0.61709    0.2791     0.17599    ??        
 1.0668u    0.62119    0.26821    0.19097    ??        
 1.0751u    0.62528    0.261      0.20227    ??        
 1.1u       0.63742    0.25158    0.22383    ??        
 1.1249u    0.64942    0.25235    0.23506    ??        
 1.1499u    0.66125    0.25646    0.24278    ??        
 1.1748u    0.67292    0.26164    0.24928    ??        
 1.2u       0.68455    0.26717    0.25537    ??        
 1.2333u    0.69966    0.27454    0.26311    ??        
 1.2667u    0.71447    0.28182    0.27065    ??        
 1.3u       0.72897    0.28895    0.27802    ??        
 1.35u      0.75011    0.29934    0.28877    ??        
 1.4u       0.77051    0.30935    0.29915    ??        
 1.5u       0.80902    0.32822    0.31879    ??        
 1.6u       0.84433    0.3541     0.16411    ??        
 1.6067u    0.84659    0.35636    0.14338    ??        
 1.6135u    0.84884    0.35861    0.12527    ??        
 1.6178u    0.85027    0.36004    0.11488    ??        
 1.6221u    0.8517     0.36147    0.10535    ??        
 1.6611u    0.86426    0.37403    0.046308   ??        
 1.7u       0.87631    0.38608    0.020355   ??        
 1.7389u    0.88783    0.3976     0.0089469  ??        
 1.8u       0.90483    0.4146     0.0021626  ??        
 1.8333u    0.91355    0.42332    0.0010813  ??        
 1.8667u    0.92186    0.43163    540.65u    ??        
 1.9u       0.92978    0.43955    270.32u    ??        
 1.9333u    0.93728    0.44705    135.16u    ??        
 1.9667u    0.94438    0.45415    67.581u    ??        
 2.u        0.95106    0.46083    33.79u     ??        
 2.0333u    0.95732    0.37368    0.093436   ??        
 2.0439u    0.95921    0.32667    0.14234    ??        
 2.0544u    0.96106    0.2963     0.17455    ??        
 2.062u     0.96237    0.28145    0.19071    ??        
 2.0696u    0.96365    0.27068    0.20277    ??        
 2.0848u    0.96616    0.25706    0.2189     ??        
 2.1u       0.96858    0.2503     0.22808    ??        
 2.1152u    0.97091    0.24718    0.23353    ??        
 2.1364u    0.97402    0.24575    0.23806    ??        
 2.1576u    0.97695    0.24596    0.24078    ??        
 2.1788u    0.9797     0.24676    0.24273    ??        
 2.2u       0.98229    0.24776    0.24432    ??        
 2.2212u    0.9847     0.24879    0.2457     ??        
 2.2475u    0.98744    0.24999    0.24724    ??        
 2.2737u    0.98991    0.25109    0.24861    ??        
 2.3u       0.99211    0.25206    0.24985    ??        
 2.35u      0.99556    0.25354    0.25182    ??        
 2.4u       0.99803    0.25453    0.25329    ??        
 2.5u       1.         0.25502    0.25477    ??        
 2.6u       0.99803    0.2528     0.12751    ??        
 2.6138u    0.99744    0.25222    0.096546   ??        
 2.6276u    0.99679    0.25156    0.073102   ??        
 2.6415u    0.99605    0.25083    0.05535    ??        
 2.6553u    0.99524    0.25002    0.041909   ??        
 2.7u       0.99211    0.24689    0.016008   ??        
 2.7447u    0.9882     0.24297    0.0061144  ??        
 2.7894u    0.98351    0.23828    0.0023355  ??        
 2.8u       0.98229    0.23706    0.0018895  ??        
 2.8333u    0.97815    0.23292    944.73u    ??        
 2.8667u    0.97358    0.22835    472.37u    ??        
 2.9u       0.96858    0.22336    236.18u    ??        
 2.95u      0.96029    0.21507    78.728u    ??        
 3.u        0.95106    0.20583    26.242u    ??        
 3.0333u    0.94438    0.15932    0.039844   ??        
 3.0456u    0.94182    0.13352    0.063086   ??        
 3.0578u    0.93921    0.11732    0.076679   ??        
 3.0662u    0.93737    0.10975    0.082415   ??        
 3.0747u    0.93551    0.10408    0.086228   ??        
 3.0873u    0.93267    0.097919   0.089547   ??        
 3.1u       0.92978    0.093622   0.090945   ??        
 3.1167u    0.92587    0.089535   0.091126   ??        
 3.1333u    0.92186    0.086426   0.090227   ??        
 3.15u      0.91775    0.083782   0.088764   ??        
 3.175u     0.9114     0.08015    0.086044   ??        
 3.2u       0.90483    0.076634   0.082983   ??        
 3.2333u    0.89571    0.071882   0.078621   ??        
 3.2667u    0.8862     0.066971   0.074023   ??        
 3.3u       0.87631    0.061874   0.069223   ??        
 3.35u      0.86074    0.053875   0.061657   ??        
 3.4u       0.84433    0.045456   0.053663   ??        
 3.5u       0.80902    0.027386   0.036421   ??        
 3.6u       0.77051   -0.0020827  0.013693   ??        
 3.6066u    0.76786   -0.0047389  0.011994   ??        
 3.6132u    0.76519   -0.0074084  0.010505   ??        
 3.6176u    0.76343   -0.0091662  0.0096318  ??        
 3.6219u    0.76167   -0.01093    0.0088308  ??        
 3.661u     0.74554   -0.027054   0.0038712  ??        
 3.7u       0.72897   -0.043627   0.001697   ??        
 3.739u     0.71196   -0.060639   743.93u    ??        
 3.8u       0.68455   -0.088049   180.47u    ??        
 3.8333u    0.66913   -0.10347    90.235u    ??        
 3.8667u    0.65342   -0.11918    45.118u    ??        
 3.9u       0.63742   -0.13517    22.559u    ??        
 3.9333u    0.62115   -0.15145    11.279u    ??        
 3.9667u    0.6046    -0.168      5.6397u    ??        
 4.u        0.58779   -0.18481    2.8198u    ??        
 4.0333u    0.57071   -0.16151   -0.040375   ??        
 4.0667u    0.55339   -0.12691   -0.092292   ??        
 4.0833u    0.54464   -0.12591   -0.10204    ??        
 4.0917u    0.54024   -0.12659   -0.10577    ??        
 4.1u       0.53583   -0.12771   -0.10906    ??        
 4.12u      0.52517   -0.13151   -0.11591    ??        
 4.14u      0.51444   -0.13625   -0.1219     ??        
 4.17u      0.49819   -0.14408   -0.13033    ??        
 4.2u       0.48175   -0.15227   -0.13857    ??        
 4.2333u    0.4633    -0.16156   -0.14774    ??        
 4.3u       0.42578   -0.18046   -0.16635    ??        
 4.3667u    0.38752   -0.19973   -0.18535    ??        
 4.4u       0.36812   -0.20949   -0.19498    ??        
 4.5u       0.30902   -0.23922   -0.22436    ??        
 4.6u       0.24869   -0.28468   -0.11961    ??        
 4.6058u    0.24516   -0.28821   -0.1065     ??        
 4.6116u    0.24163   -0.29174   -0.094832   ??        
 4.6154u    0.23928   -0.29409   -0.087812   ??        
 4.6193u    0.23694   -0.29643   -0.081311   ??        
 4.6596u    0.21223   -0.32114   -0.03455    ??        
 4.7u       0.18738   -0.34599   -0.014681   ??        
 4.7404u    0.16241   -0.37096   -0.0062381  ??        
 4.8u       0.12533   -0.40804   -0.0015771  ??        
 4.8333u    0.10453   -0.42884   -788.54u    ??        
 4.8667u    0.083678  -0.44969   -394.27u    ??        
 4.9u       0.062791  -0.47058   -197.13u    ??        
 4.9333u    0.041876  -0.4915    -98.567u    ??        
 4.9667u    0.020942  -0.51243   -49.284u    ??        
 5.u        3.f       -0.53337   -24.642u    ??        
 5.0333u   -0.020942  -0.44346   -0.11088    ??        
 5.0447u   -0.028097  -0.38824   -0.17325    ??        
 5.0561u   -0.03525   -0.35484   -0.2138     ??        
 5.0634u   -0.039843  -0.34114   -0.23209    ??        
 5.0707u   -0.044434  -0.33152   -0.2463     ??        
 5.0854u   -0.053615  -0.32037   -0.26663    ??        
 5.1u      -0.062791  -0.31635   -0.27983    ??        
 5.12u     -0.075327  -0.31666   -0.29206    ??        
 5.1467u   -0.092023  -0.32189   -0.30352    ??        
 5.1733u   -0.10869   -0.32927   -0.31281    ??        
 5.2u      -0.12533   -0.33729   -0.32143    ??        
 5.2267u   -0.14194   -0.34549   -0.32983    ??        
 5.2633u   -0.1647    -0.35682   -0.34127    ??        
 5.3u      -0.18738   -0.36812   -0.35265    ??        
 5.35u     -0.21814   -0.38346   -0.36808    ??        
 5.4u      -0.24869   -0.39868   -0.3834     ??        
 5.5u      -0.30902   -0.42871   -0.41369    ??        
 5.6u      -0.36812   -0.4728    -0.21436    ??        
 5.6059u   -0.37159   -0.47627   -0.19034    ??        
 5.6119u   -0.37505   -0.47972   -0.16902    ??        
 5.6157u   -0.37728   -0.48195   -0.15654    ??        
 5.6195u   -0.37951   -0.48418   -0.14499    ??        
 5.6598u   -0.40277   -0.50745   -0.061792   ??        
 5.7u      -0.42578   -0.53046   -0.026335   ??        
 5.7402u   -0.44851   -0.55319   -0.011223   ??        
 5.8u      -0.48175   -0.58643   -0.0028264  ??        
 5.8333u   -0.5       -0.60468   -0.0014132  ??        
 5.8667u   -0.51803   -0.6227    -706.61u    ??        
 5.9u      -0.53583   -0.6405    -353.31u    ??        
 5.9333u   -0.55339   -0.65807   -176.65u    ??        
 5.9667u   -0.57071   -0.67539   -88.326u    ??        
 6.u       -0.58779   -0.69246   -44.163u    ??        
 6.0333u   -0.6046    -0.56743   -0.14188    ??        
 6.0432u   -0.60951   -0.50193   -0.21229    ??        
 6.053u    -0.61441   -0.45878   -0.26034    ??        
 6.0597u   -0.61773   -0.43842   -0.28402    ??        
 6.0664u   -0.62104   -0.42326   -0.30248    ??        
 6.0832u   -0.62927   -0.40011   -0.33386    ??        
 6.1u      -0.63742   -0.3906    -0.35153    ??        
 6.1168u   -0.64551   -0.38785   -0.36236    ??        
 6.1445u   -0.65872   -0.38961   -0.37382    ??        
 6.1723u   -0.67174   -0.39467   -0.38178    ??        
 6.1861u   -0.67817   -0.3976    -0.38527    ??        
 6.2u      -0.68455   -0.40061   -0.38864    ??        
 6.2333u   -0.69966   -0.40792   -0.39645    ??        
 6.2667u   -0.71447   -0.41518   -0.404      ??        
 6.3u      -0.72897   -0.4223    -0.41137    ??        
 6.35u     -0.75011   -0.43269   -0.42212    ??        
 6.4u      -0.77051   -0.44271   -0.43251    ??        
 6.5u      -0.80902   -0.46158   -0.45214    ??        
 6.6u      -0.84433   -0.48746   -0.23079    ??        
 6.6067u   -0.84659   -0.48972   -0.20164    ??        
 6.6135u   -0.84884   -0.49196   -0.17616    ??        
 6.6178u   -0.85027   -0.4934    -0.16156    ??        
 6.6221u   -0.8517    -0.49483   -0.14816    ??        
 6.6611u   -0.86426   -0.50739   -0.065123   ??        
 6.7u      -0.87631   -0.51943   -0.028625   ??        
 6.7389u   -0.88783   -0.53095   -0.012582   ??        
 6.8u      -0.90483   -0.54795   -0.0030412  ??        
 6.8333u   -0.91355   -0.55667   -0.0015206  ??        
 6.8667u   -0.92186   -0.56499   -760.31u    ??        
 6.9u      -0.92978   -0.5729    -380.16u    ??        
 6.9333u   -0.93728   -0.58041   -190.08u    ??        
 6.9667u   -0.94438   -0.5875    -95.039u    ??        
 7.u       -0.95106   -0.59418   -47.519u    ??        
 7.0333u   -0.95732   -0.48036   -0.12011    ??        
 7.043u    -0.95906   -0.4236    -0.17862    ??        
 7.0527u   -0.96076   -0.38548   -0.21844    ??        
 7.0594u   -0.96193   -0.36668   -0.23841    ??        
 7.0662u   -0.96308   -0.35248   -0.25376    ??        
 7.0831u   -0.96589   -0.32999   -0.27906    ??        
 7.1u      -0.96858   -0.31947   -0.29227    ??        
 7.1169u   -0.97117   -0.31486   -0.29947    ??        
 7.1446u   -0.97517   -0.31266   -0.30567    ??        
 7.1723u   -0.97888   -0.31321   -0.30882    ??        
 7.2u      -0.98229   -0.31445   -0.311      ??        
 7.2277u   -0.9854    -0.31578   -0.31278    ??        
 7.2554u   -0.98821   -0.31702   -0.31435    ??        
 7.2831u   -0.99073   -0.31814   -0.31575    ??        
 7.3u      -0.99211   -0.31874   -0.31653    ??        
 7.35u     -0.99556   -0.32022   -0.3185     ??        
 7.4u      -0.99803   -0.32121   -0.31998    ??        
 7.5u      -1.        -0.3217    -0.32146    ??        
 7.6u      -0.99803   -0.31948   -0.16085    ??        
 7.6138u   -0.99744   -0.3189    -0.12179    ??        
 7.6276u   -0.99679   -0.31824   -0.092216   ??        
 7.6415u   -0.99605   -0.31751   -0.069823   ??        
 7.6553u   -0.99524   -0.3167    -0.052868   ??        
 7.7u      -0.99211   -0.31357   -0.020194   ??        
 7.7447u   -0.9882    -0.30966   -0.0077132  ??        
 7.7894u   -0.98351   -0.30496   -0.0029461  ??        
 7.8u      -0.98229   -0.30374   -0.0023835  ??        
 7.8333u   -0.97815   -0.2996    -0.0011918  ??        
 7.8667u   -0.97358   -0.29503   -595.88u    ??        
 7.9u      -0.96858   -0.29004   -297.94u    ??        
 7.95u     -0.96029   -0.28175   -99.313u    ??        
 7.975u    -0.95579   -0.27725   -59.588u    ??        
 8.u       -0.95106   -0.27251   -35.753u    ??        
 8.05u     -0.94088   -0.19676   -0.065597   ??        
 8.0635u   -0.93798   -0.16631   -0.093144   ??        
 8.077u    -0.93501   -0.14811   -0.10837    ??        
 8.0846u   -0.93329   -0.14121   -0.11354    ??        
 8.0923u   -0.93154   -0.1359    -0.11711    ??        
 8.1u      -0.92978   -0.13175   -0.1195     ??        
 8.12u     -0.92508   -0.12422   -0.12233    ??        
 8.14u     -0.92023   -0.11953   -0.12218    ??        
 8.16u     -0.91524   -0.11601   -0.12071    ??        
 8.18u     -0.91011   -0.11295   -0.11863    ??        
 8.2u      -0.90483   -0.11005   -0.11625    ??        
 8.2333u   -0.89571   -0.10524   -0.11195    ??        
 8.2667u   -0.8862    -0.10031   -0.10736    ??        
 8.3u      -0.87631   -0.095216  -0.10256    ??        
 8.35u     -0.86074   -0.087217  -0.094999   ??        
 8.4u      -0.84433   -0.078797  -0.087004   ??        
 8.5u      -0.80902   -0.051693  -0.039399   ??        
 8.5053u   -0.80705   -0.049725  -0.035421   ??        
 8.5106u   -0.80507   -0.047748  -0.031845   ??        
 8.5147u   -0.80356   -0.046232  -0.029359   ??        
 8.5188u   -0.80203   -0.04471   -0.027067   ??        
 8.6u      -0.77051   -0.013189  -0.0028011  ??        
 8.65u     -0.75011    0.0072127 -933.71u    ??        
 8.675u    -0.73963    0.017693  -560.23u    ??        
 8.7u      -0.72897    0.028355  -336.14u    ??        
 8.725u    -0.71813    0.039197  -201.68u    ??        
 8.7625u   -0.70153    0.055792  -91.673u    ??        
 8.8u      -0.68455    0.072777  -41.67u     ??        
 8.8375u   -0.66718    0.090141  -18.941u    ??        
 8.875u    -0.64945    0.10788   -8.6094u    ??        
 8.9u      -0.63742    0.1199    -5.1657u    ??        
 8.9333u   -0.62115    0.13618   -2.5828u    ??        
 8.9667u   -0.6046     0.15272   -1.2914u    ??        
 9.u       -0.58779    0.13563    0.033907   ??        
 9.0333u   -0.57071    0.1086     0.078011   ??        
 9.0556u   -0.55919    0.10894    0.089195   ??        
 9.0704u   -0.55145    0.11128    0.094592   ??        
 9.0852u   -0.54366    0.11436    0.099296   ??        
 9.1u      -0.53583    0.11786    0.10364    ??        
 9.125u    -0.5225     0.12423    0.1106     ??        
 9.1625u   -0.50227    0.13428    0.12077    ??        
 9.2u      -0.48175    0.14461    0.13096    ??        
 9.25u     -0.45399    0.15861    0.14473    ??        
 9.3u      -0.42578    0.17282    0.15872    ??        
 9.4u      -0.36812    0.20186    0.18734    ??        
 9.5u      -0.30902    0.24645    0.10093    ??        
 9.5059u   -0.30547    0.25       0.089614   ??        
 9.5119u   -0.30191    0.25355    0.079568   ??        
 9.5159u   -0.29951    0.25595    0.073439   ??        
 9.5199u   -0.29711    0.25836    0.067783   ??        
 9.5599u   -0.27299    0.28248    0.029011   ??        
 9.6u      -0.24869    0.30678    0.012416   ??        
 9.6401u   -0.22424    0.33123    0.0053142  ??        
 9.7u      -0.18738    0.36808    0.0013309  ??        
 9.7333u   -0.16677    0.3887     665.45u    ??        
 9.7667u   -0.14608    0.40938    332.72u    ??        
 9.8u      -0.12533    0.43013    166.36u    ??        
 9.8333u   -0.10453    0.45094    83.181u    ??        
 9.8667u   -0.083678   0.47179    41.59u     ??        
 9.9u      -0.062791   0.49267    20.795u    ??        
 9.9333u   -0.041876   0.51359    10.398u    ??        
 9.9667u   -0.020942   0.53452    5.1988u    ??        
 10.u      -66.649p    0.44437    0.1111     ??        
 10.033u    0.020942   0.32782    0.2486     ??        
 10.05u     0.031411   0.31717    0.26971    ??        
 10.067u    0.041876   0.31446    0.28288    ??        
 10.083u    0.052336   0.31572    0.29208    ??        
 10.1u      0.062791   0.31896    0.2993     ??        
 10.125u    0.078459   0.32546    0.30846    ??        
 10.15u     0.094108   0.33284    0.31674    ??        
 10.175u    0.10973    0.34049    0.32471    ??        
 10.2u      0.12533    0.34823    0.33257    ??        
 10.25u     0.15643    0.36373    0.34818    ??        
 10.3u      0.18738    0.37916    0.36369    ??        
 10.4u      0.24869    0.40972    0.39444    ??        
 10.5u      0.30902    0.45477    0.20486    ??        
 10.506u    0.31254    0.45829    0.18202    ??        
 10.512u    0.31606    0.46181    0.16172    ??        
 10.516u    0.31835    0.4641     0.14978    ??        
 10.519u    0.32063    0.46638    0.13872    ??        
 10.56u     0.34449    0.49024    0.059081   ??        
 10.6u      0.36812    0.51387    0.025163   ??        
 10.64u     0.39152    0.53727    0.010717   ??        
 10.7u      0.42578    0.57153    0.0027012  ??        
 10.733u    0.44464    0.59039    0.0013506  ??        
 10.767u    0.4633     0.60905    675.3u     ??        
 10.8u      0.48175    0.6275     337.65u    ??        
 10.833u    0.5        0.64575    168.82u    ??        
 10.867u    0.51803    0.66378    84.412u    ??        
 10.9u      0.53583    0.68158    42.206u    ??        
 10.933u    0.55339    0.69914    21.103u    ??        
 10.967u    0.57071    0.71646    10.552u    ??        
 11.u       0.58779    0.58683    0.14671    ??        
 11.014u    0.59492    0.49647    0.24421    ??        
 11.028u    0.60201    0.44735    0.30042    ??        
 11.038u    0.60714    0.42702    0.32588    ??        
 11.049u    0.61226    0.41447    0.34354    ??        
 11.066u    0.62072    0.40378    0.3627     ??        
 11.083u    0.62911    0.40063    0.37424    ??        
 11.1u      0.63742    0.40116    0.38202    ??        
