' sin test 
#Time       v(1)       next(V1)   event(V1) 
 0.         0.         0.         1.n       
 200.p      0.         0.         1.n       
 1.n        0.         2.4286n    2.5n      
 2.358n     0.75343    3.5148n    2.5n      
 2.5n       0.80902    3.4185n    5.n       
 3.375n     0.99692    4.8036n    5.n       
 4.761n     0.7022     6.1896n    5.n       
 5.n        0.58779    6.4286n    7.5n      
 6.25n     -0.15643    7.6505n    7.5n      
 7.5n      -0.80902    8.9286n    10.n      
 8.75n     -0.98769    10.179n    10.n      
 10.n      -0.58779    11.429n    12.5n     
 11.25n     0.15643    12.679n    12.5n     
 12.5n      0.80902    13.929n    15.n      
 13.75n     0.98769    15.179n    15.n      
 15.n       0.58779    16.429n    17.5n     
 16.25n    -0.15643    17.679n    17.5n     
 17.5n     -0.80902    18.929n    20.n      
 18.75n    -0.98769    20.179n    20.n      
 20.n      -0.58779    21.429n    22.5n     
V1 ( 1 0 ) sin offset= 0. amplitude= 1. frequency= 100.Meg delay= 1.n damping=NA( 0.) samples= 7. zero=1 peak=1
Gnucap   System status
iterations: op=0, dc=0, tran=57, fourier=0, total=77
transient timesteps: accepted=20, rejected=0, total=20
nodes: user=1, subckt=0, model=0, total=1
dctran density=100.0%, ac density=100.0%
