' sin test 
#Time       v(1)       next(V1)   event(V1) 
 0.         0.         2.n        2.5n      
 200.p      0.12533    468.8p     2.5n      
 400.p      0.24869    729.21p    2.5n      
 727.p      0.44107    1.8266n    2.5n      
 1.798n     0.90429    3.0597n    2.5n      
 2.5n       1.         4.0284n    5.n       
 3.959n     0.60843    5.959n     5.n       
 5.n        0.         6.5511n    7.5n      
 6.041n    -0.60843    7.522n     7.5n      
 7.5n      -1.         9.3519n    10.n      
 8.959n    -0.60843    10.959n    10.n      
 10.n       0.         11.627n    12.5n     
 11.25n     0.70711    12.896n    12.5n     
 12.5n      1.         14.5n      15.n      
 14.375n    0.38268    16.375n    15.n      
 15.n       0.         16.421n    17.5n     
 16.25n    -0.70711    17.937n    17.5n     
 17.5n     -1.         19.5n      20.n      
 18.75n    -0.70711    20.75n     20.n      
 20.n       0.         21.641n    22.5n     
V1 ( 1 0 ) sin offset= 0. amplitude= 1. frequency= 100.Meg delay=NA( 0.) damping=NA( 0.) samples= 5. zero=1 peak=1
Gnucap   System status
iterations: op=0, dc=0, tran=59, fourier=0, total=79
transient timesteps: accepted=20, rejected=0, total=20
nodes: user=1, subckt=0, model=0, total=1
dctran density=100.0%, ac density=100.0%
