' sin test 
#Time       v(1)       next(V1)   event(V1) 
 0.         0.         0.         5.n       
 200.p      0.12533    468.8p     5.n       
 400.p      0.24869    729.21p    5.n       
 727.p      0.44107    1.8266n    5.n       
 1.798n     0.90429    3.0597n    5.n       
 2.869n     0.97324    4.4731n    5.n       
 3.94n      0.61786    7.004n     5.n       
 5.n        0.         6.5246n    10.n      
 6.06n     -0.61786    7.5405n    10.n      
 7.12n     -0.97163    8.9191n    10.n      
 8.73n     -0.71594    12.324n    10.n      
 10.n       0.         11.717n    15.n      
 11.27n     0.71594    12.924n    15.n      
 12.54n     0.99968    14.629n    15.n      
 14.405n    0.3652     16.649n    15.n      
 15.n       0.         16.403n    20.n      
 16.25n    -0.70711    17.939n    20.n      
 17.5n     -1.         19.936n    20.n      
 18.75n    -0.70711    20.845n    20.n      
 20.n       0.         21.641n    25.n      
V1 ( 1 0 ) sin offset= 0. amplitude= 1. frequency= 100.Meg delay=NA( 0.) damping=NA( 0.) samples= 0. zero=1
Gnucap   System status
iterations: op=0, dc=0, tran=59, fourier=0, total=79
transient timesteps: accepted=20, rejected=0, total=20
nodes: user=1, subckt=0, model=0, total=1
dctran density=100.0%, ac density=100.0%
