' sin test 
#Time       v(1)       next(V1)   event(V1) 
 0.         0.         1.n        0.        
 200.p      0.12533    468.8p     0.        
 400.p      0.24869    729.21p    0.        
 727.p      0.44107    1.727n     0.        
 1.691n     0.87357    2.691n     0.        
 2.655n     0.99526    3.655n     0.        
 3.619n     0.76285    4.619n     0.        
 4.583n     0.25902    5.583n     0.        
 5.547n    -0.33696    6.547n     0.        
 6.511n    -0.81306    7.511n     0.        
 7.475n    -0.99988    8.475n     0.        
 8.439n    -0.83095    9.439n     0.        
 9.403n    -0.36637    10.403n    0.        
 10.367n    0.22855    11.367n    0.        
 11.331n    0.74216    12.331n    0.        
 12.295n    0.99172    13.295n    0.        
 13.259n    0.88843    14.259n    0.        
 14.223n    0.46904    15.223n    0.        
 15.187n   -0.11723    16.187n    0.        
 16.151n   -0.66178    17.151n    0.        
 17.115n   -0.97088    18.115n    0.        
 18.079n   -0.93455    19.079n    0.        
 19.043n   -0.56572    20.043n    0.        
 20.n       0.         21.n       0.        
V1 ( 1 0 ) sin offset= 0. amplitude= 1. frequency= 100.Meg delay=NA( 0.) damping=NA( 0.) samples= 10.
Gnucap   System status
iterations: op=0, dc=0, tran=71, fourier=0, total=95
transient timesteps: accepted=24, rejected=0, total=24
nodes: user=1, subckt=0, model=0, total=1
dctran density=100.0%, ac density=100.0%
