' sin test 
#Time       v(1)       next(V1)   event(V1) 
 0.         0.         1.n        0.        
 200.p      0.12533    400.p      0.        
 400.p      0.24869    600.p      0.        
 600.p      0.36812    800.p      0.        
 800.p      0.48175    1.n        0.        
 1.n        0.58779    1.9721n    0.        
 1.95n      0.94088    2.95n      0.        
 2.9n       0.96858    3.9n       0.        
 3.85n      0.66131    4.85n      0.        
 4.8n       0.12533    5.8n       0.        
 5.75n     -0.45399    6.75n      0.        
 6.7n      -0.87631    7.7n       0.        
 7.65n     -0.99556    8.65n      0.        
 8.6n      -0.77051    9.6n       0.        
 9.55n     -0.27899    10.55n     0.        
 10.5n      0.30902    11.5n      0.        
 11.45n     0.79016    12.45n     0.        
 12.4n      0.99803    13.4n      0.        
 13.35n     0.86074    14.35n     0.        
 14.3n      0.42578    15.3n      0.        
 15.25n    -0.15643    16.25n     0.        
 16.2n     -0.68455    17.2n      0.        
 17.15n    -0.97592    18.15n     0.        
 18.1n     -0.92978    19.1n      0.        
 19.05n    -0.56208    20.05n     0.        
 20.n       0.         21.n       0.        
V1 ( 1 0 ) sin offset= 0. amplitude= 1. frequency= 100.Meg delay=NA( 0.) damping=NA( 0.) samples= 10.
Gnucap   System status
iterations: op=0, dc=0, tran=77, fourier=0, total=103
transient timesteps: accepted=26, rejected=0, total=26
nodes: user=1, subckt=0, model=0, total=1
dctran density=100.0%, ac density=100.0%
