' sin test 
#Time       v(1)       next(V1)   event(V1) 
 0.         0.         1.n        0.        
 200.p      0.12533    468.8p     0.        
 400.p      0.24869    729.21p    0.        
 726.67p    0.44088    1.7267n    0.        
 1.6903n    0.87336    2.6903n    0.        
 2.654n     0.99532    3.654n     0.        
 3.6177n    0.76339    4.6177n    0.        
 4.5813n    0.26003    5.5813n    0.        
 5.545n    -0.33578    6.545n     0.        
 6.5087n   -0.81221    7.5087n    0.        
 7.4723n   -0.99985    8.4723n    0.        
 8.436n    -0.83199    9.436n     0.        
 9.3997n   -0.36832    10.4n      0.        
 10.363n    0.22631    11.363n    0.        
 11.327n    0.74048    12.327n    0.        
 12.291n    0.99136    13.291n    0.        
 13.254n    0.88977    14.254n    0.        
 14.218n    0.47181    15.218n    0.        
 15.182n   -0.1139     16.182n    0.        
 16.145n   -0.65911    17.145n    0.        
 17.109n   -0.96997    18.109n    0.        
 18.073n   -0.93596    19.073n    0.        
 19.036n   -0.56916    20.036n    0.        
 20.n       0.         21.n       0.        
V1 ( 1 0 ) sin offset= 0. amplitude= 1. frequency= 100.Meg delay=NA( 0.) damping=NA( 0.) samples= 10.
Gnucap   System status
iterations: op=0, dc=0, tran=71, fourier=0, total=95
transient timesteps: accepted=24, rejected=0, total=24
nodes: user=1, subckt=0, model=0, total=1
dctran density=100.0%, ac density=100.0%
