'hyperbolic tangent test circuit 
#           v(1)       v(2)       v(3)       v(4)      
-2.        -2.        -4.8201     2.9924    -2.9712    
-1.9       -1.9       -4.7812     2.9894    -2.9624    
-1.8       -1.8       -4.734      2.9852    -2.951     
-1.7       -1.7       -4.677      2.9793    -2.9362    
-1.6       -1.6       -4.6083     2.9712    -2.917     
-1.5       -1.5       -4.5257     2.9598    -2.8921    
-1.4       -1.4       -4.4268     2.9441    -2.8599    
-1.3       -1.3       -4.3086     2.9223    -2.8183    
-1.2       -1.2       -4.1683     2.8921    -2.765     
-1.1       -1.1       -4.0025     2.8505    -2.6968    
-1.        -1.        -3.808      2.7933    -2.6102    
-0.9       -0.9       -3.5815     2.7154    -2.501     
-0.8       -0.8       -3.3202     2.6102    -2.3646    
-0.7       -0.7       -3.0218     2.4696    -2.1964    
-0.6       -0.6       -2.6852     2.2848    -1.9921    
-0.5       -0.5       -2.3106     2.0468    -1.7483    
-0.4       -0.4       -1.8997     1.7483    -1.4638    
-0.3       -0.3       -1.4566     1.3864    -1.1398    
-0.2       -0.2       -0.98688    0.96454   -0.78156   
-0.1       -0.1       -0.49834    0.49542   -0.39765   
 0.         0.         0.         0.         0.        
 0.1        0.1        0.49834   -0.49542    0.39765   
 0.2        0.2        0.98688   -0.96454    0.78156   
 0.3        0.3        1.4566    -1.3864     1.1398    
 0.4        0.4        1.8997    -1.7483     1.4638    
 0.5        0.5        2.3106    -2.0468     1.7483    
 0.6        0.6        2.6852    -2.2848     1.9921    
 0.7        0.7        3.0218    -2.4696     2.1964    
 0.8        0.8        3.3202    -2.6102     2.3646    
 0.9        0.9        3.5815    -2.7154     2.501     
 1.         1.         3.808     -2.7933     2.6102    
 1.1        1.1        4.0025    -2.8505     2.6968    
 1.2        1.2        4.1683    -2.8921     2.765     
 1.3        1.3        4.3086    -2.9223     2.8183    
 1.4        1.4        4.4268    -2.9441     2.8599    
 1.5        1.5        4.5257    -2.9598     2.8921    
 1.6        1.6        4.6083    -2.9712     2.917     
 1.7        1.7        4.677     -2.9793     2.9362    
 1.8        1.8        4.734     -2.9852     2.951     
 1.9        1.9        4.7812    -2.9894     2.9624    
 2.         2.         4.8201    -2.9924     2.9712    
#Freq       v(1)       v(2)       v(3)       v(4)      
 0.         1.         0.35325    0.025388   0.076507  
#           v(1)       v(2)       v(3)       v(4)      
 1.         1.         3.808     -2.7933     2.6102    
#Freq       v(1)       v(2)       v(3)       v(4)      
 0.         1.         2.0999     0.66517    0.97197   
#           v(1)       v(2)       v(3)       v(4)      
 0.         0.         0.         0.         0.        
#Freq       v(1)       v(2)       v(3)       v(4)      
 0.         1.         5.         5.         4.        
#           v(1)       v(2)       v(3)       v(4)      
 1.K        1.K        5.        -3.         3.        
#Freq       v(1)       v(2)       v(3)       v(4)      
 0.         1.         0.         0.         0.        
v1 ( 1 0 ) generator scale= 1.
e1 ( 2 0 1 0 ) tanh gain= 5. limit= 5.
e2 ( 3 0 1 0 ) tanh gain=-5. limit= 3.
e3 ( 4 0 1 0 ) tanh gain= 4. limit= 3.
Gnucap   System status
iterations: op=0, dc=4, tran=0, fourier=0, total=179
transient timesteps: accepted=0, rejected=0, total=0
nodes: user=4, subckt=0, model=0, total=4
dctran density=62.5%, ac density=62.5%
