# TABLE as quadratic 
Vs ( 1 0 )  DC  1.u
v1 ( 2 0 )  DC  1.  AC  1.
e2 ( 6 0 2 0 ) t1
e3 ( 7 0 2 1 ) t1
e0 ( 5 0 2 0 ) posy( 1., 2. ) odd=1
e1 ( 3 0 5 0 ) t2
e1 ( 4 0 5 1 ) t2
.model t1 table ( order=2 ( 0., 0.  1., 1.  2., 4.  3., 9.  4., 16.  5., 25. ))
.model t2 table ( order=2 ( 0., 0.  1., 1.  4., 2.  9., 3.  16., 4.  25., 5. ))
#           v(1)       v(2)       v(3)       v(4)       v(5)       v(6)       v(7)      
 27.        1.u        1.         1.         1.         1.         1.         1.        
#           v(1)       v(2)       v(3)       v(4)       v(5)       v(6)       v(7)      
-10.        1.u       -10.       -155.87    -155.87    -100.      -10.       -10.       
-9.75       1.u       -9.75      -148.18    -148.18    -95.063    -9.75      -9.75      
-9.5        1.u       -9.5       -140.68    -140.68    -90.25     -9.5       -9.5       
-9.25       1.u       -9.25      -133.37    -133.37    -85.563    -9.25      -9.25      
-9.         1.u       -9.        -126.26    -126.26    -81.       -9.        -9.        
-8.75       1.u       -8.75      -119.34    -119.34    -76.562    -8.75      -8.75      
-8.5        1.u       -8.5       -112.62    -112.62    -72.25     -8.5       -8.5       
-8.25       1.u       -8.25      -106.09    -106.09    -68.062    -8.25      -8.25      
-8.         1.u       -8.        -99.759    -99.759    -64.       -8.        -8.        
-7.75       1.u       -7.75      -93.621    -93.621    -60.062    -7.75      -7.75      
-7.5        1.u       -7.5       -87.679    -87.679    -56.25     -7.5       -7.5       
-7.25       1.u       -7.25      -81.931    -81.931    -52.562    -7.25      -7.25      
-7.         1.u       -7.        -76.378    -76.378    -49.       -7.        -7.        
-6.75       1.u       -6.75      -71.02     -71.02     -45.563    -6.75      -6.75      
-6.5        1.u       -6.5       -65.856    -65.856    -42.25     -6.5       -6.5       
-6.25       1.u       -6.25      -60.888    -60.888    -39.063    -6.25      -6.25      
-6.         1.u       -6.        -56.114    -56.114    -36.       -6.        -6.        
-5.75       1.u       -5.75      -51.536    -51.536    -33.063    -5.75      -5.75      
-5.5        1.u       -5.5       -47.152    -47.152    -30.25     -5.5       -5.5       
-5.25       1.u       -5.25      -42.963    -42.963    -27.562    -5.25      -5.25      
-5.         1.u       -5.        -38.968    -38.968    -25.       -5.        -5.        
-4.75       1.u       -4.75      -35.169    -35.169    -22.562    -4.75      -4.75      
-4.5        1.u       -4.5       -31.564    -31.564    -20.25     -4.5       -4.5       
-4.25       1.u       -4.25      -28.155    -28.155    -18.062    -4.25      -4.25      
-4.         1.u       -4.        -24.94     -24.94     -16.       -4.        -4.        
-3.75       1.u       -3.75      -21.92     -21.92     -14.062    -3.75      -3.75      
-3.5        1.u       -3.5       -19.094    -19.094    -12.25     -3.5       -3.5       
-3.25       1.u       -3.25      -16.464    -16.464    -10.563    -3.25      -3.25      
-3.         1.u       -3.        -14.029    -14.029    -9.        -3.        -3.        
-2.75       1.u       -2.75      -11.788    -11.788    -7.5625    -2.75      -2.75      
-2.5        1.u       -2.5       -9.7421    -9.7421    -6.25      -2.5       -2.5       
-2.25       1.u       -2.25      -7.8911    -7.8911    -5.0625    -2.25      -2.25      
-2.         1.u       -2.        -6.2349    -6.2349    -4.        -2.        -2.        
-1.75       1.u       -1.75      -4.7736    -4.7736    -3.0625    -1.75      -1.75      
-1.5        1.u       -1.5       -3.5071    -3.5071    -2.25      -1.5       -1.5       
-1.25       1.u       -1.25      -2.4355    -2.4355    -1.5625    -1.25      -1.25      
-1.         1.u       -1.        -1.5587    -1.5587    -1.        -1.        -1.        
-0.75       1.u       -0.75      -0.87679   -0.87679   -0.5625    -0.75      -0.75      
-0.5        1.u       -0.5       -0.38968   -0.38968   -0.25      -0.5       -0.5       
-0.25       1.u       -0.25      -0.097421  -0.097422  -0.0625    -0.25      -0.25      
 0.         1.u        0.         0.        -1.5587u    0.         0.        -1.u       
 0.25       1.u        0.25       0.095238   0.095237   0.0625     0.25       0.25      
 0.5        1.u        0.5        0.35476    0.35476    0.25       0.5        0.5       
 0.75       1.u        0.75       0.7        0.7        0.5625     0.75       0.75      
 1.         1.u        1.         1.         1.         1.         1.         1.        
 1.25       1.u        1.25       1.2368     1.2368     1.5625     1.375      1.375     
 1.5        1.u        1.5        1.4954     1.4954     2.25       2.         2.        
 1.75       1.u        1.75       1.7571     1.7571     3.0625     2.875      2.875     
 2.         1.u        2.         2.         2.         4.         4.         4.        
 2.25       1.u        2.25       2.2338     2.2337     5.0625     5.25       5.25      
 2.5        1.u        2.5        2.4814     2.4814     6.25       6.5        6.5       
 2.75       1.u        2.75       2.7385     2.7385     7.5625     7.75       7.75      
 3.         1.u        3.         3.         3.         9.         9.         9.        
 3.25       1.u        3.25       3.2617     3.2617     10.563     10.375     10.375    
 3.5        1.u        3.5        3.5196     3.5196     12.25      12.        12.       
 3.75       1.u        3.75       3.7677     3.7677     14.063     13.875     13.875    
 4.         1.u        4.         4.         4.         16.        16.        16.       
 4.25       1.u        4.25       4.2292     4.2292     18.063     18.25      18.25     
 4.5        1.u        4.5        4.4722     4.4722     20.25      20.5       20.5      
 4.75       1.u        4.75       4.7292     4.7292     22.563     22.75      22.75     
 5.         1.u        5.         5.         5.         25.        25.        25.       
 5.25       1.u        5.25       5.2847     5.2847     27.563     27.25      27.25     
 5.5        1.u        5.5        5.5833     5.5833     30.25      29.5       29.5      
 5.75       1.u        5.75       5.8958     5.8958     33.063     31.75      31.75     
 6.         1.u        6.         6.2222     6.2222     36.        34.        34.       
 6.25       1.u        6.25       6.5625     6.5625     39.063     36.25      36.25     
 6.5        1.u        6.5        6.9167     6.9167     42.25      38.5       38.5      
 6.75       1.u        6.75       7.2847     7.2847     45.563     40.75      40.75     
 7.         1.u        7.         7.6667     7.6667     49.        43.        43.       
 7.25       1.u        7.25       8.0625     8.0625     52.563     45.25      45.25     
 7.5        1.u        7.5        8.4722     8.4722     56.25      47.5       47.5      
 7.75       1.u        7.75       8.8958     8.8958     60.063     49.75      49.75     
 8.         1.u        8.         9.3333     9.3333     64.        52.        52.       
 8.25       1.u        8.25       9.7847     9.7847     68.063     54.25      54.25     
 8.5        1.u        8.5        10.25      10.25      72.25      56.5       56.5      
 8.75       1.u        8.75       10.729     10.729     76.563     58.75      58.75     
 9.         1.u        9.         11.222     11.222     81.        61.        61.       
 9.25       1.u        9.25       11.729     11.729     85.563     63.25      63.25     
 9.5        1.u        9.5        12.25      12.25      90.25      65.5       65.5      
 9.75       1.u        9.75       12.785     12.785     95.063     67.75      67.75     
 10.        1.u        10.        13.333     13.333     100.       70.        70.       
