''''' 
#Time       v(1)       control(0) eventtime(s1) eventtime(s2) nexttime(C1) eventtime(C1) nexttime(Vv1) eventtime(Vv1) dt(C1)    
 0.         2.         1.         0.         0.         0.         0.         0.         100.p      ??        
 1.p        1.98       9.         35.p       55.p       85.p       0.         7.7879p    100.p      1.p       
 8.p        1.84       6.         35.p       55.p       28.785p    0.         30.239p    100.p      7.p       
 26.p       1.48       6.         35.p       55.p       42.169p    0.         1.5119u    100.p      18.p      
 35.p       1.3        7.         35.p       55.p       65.882p    0.         70.505n    100.p      9.p       
 37.p       1.26       7.         35.p       55.p       62.239p    0.         59.945n    100.p      2.p       
 39.p       1.22       7.         0.         55.p       53.852p    0.         29.081n    100.p      2.p       
 55.p       0.9        7.         0.         55.p       74.933p    0.         26.239n    100.p      16.p      
 57.p       0.86       7.         0.         55.p       1.9815n    0.         30.344n    100.p      2.p       
 59.p       0.82       7.         0.         0.         67.923n    0.         33.059n    100.p      2.p       
 100.p      200.n      1.         0.         0.         96.572n    0.         40.796n    500.p      41.p      
 125.p     -170.37n    16.        0.         0.         157.37p    0.         141.29p    500.p      25.p      
 140.p      130.28n    6.         64.859u    44.902u    178.85p    0.         155.64p    500.p      15.p      
 155.p     -99.628n    6.         0.         0.         188.49p    0.         177.22p    500.p      15.p      
 170.p      76.186n    6.         110.91u    76.786u    201.17p    0.         0.         500.p      15.p      
 200.p     -66.662n    1.         0.         0.         240.46p    0.         0.         500.p      30.p      
 230.p      58.329n    6.         312.02u    216.01u    288.85p    0.         0.         500.p      30.p      
 265.p     -52.024n    6.         0.         0.         344.83p    0.         0.         500.p      35.p      
 300.p      46.399n    1.         462.29u    320.05u    389.12p    0.         0.         500.p      35.p      
 350.p     -42.83n     6.         0.         0.         456.44p    0.         0.         500.p      50.p      
 400.p      39.535n    1.         789.17u    546.35u    528.83p    0.         0.         500.p      50.p      
 500.p     -37.985n    1.         0.         0.         677.03p    0.         0.         600.p      100.p     
 545.p      0.9        17.        565.p      545.p      603.65p    0.         609.64p    600.p      45.p      
 547.p      0.94       7.         565.p      545.p      628.05p    0.         599.25p    600.p      2.p       
 549.p      0.98       7.         565.p      0.         564.02p    0.         607.81p    600.p      2.p       
 565.p      1.3        7.         565.p      0.         576.48p    0.         44.894n    600.p      16.p      
 567.p      1.34       7.         565.p      0.         1.675n     0.         37.883n    600.p      2.p       
 569.p      1.38       7.         0.         0.         39.809n    0.         37.635n    600.p      2.p       
 600.p      2.         1.         0.         0.         52.015n    0.         46.085n    1.n        31.p      
 650.p      2.         16.        0.         0.         686.58p    0.         692.3p     1.n        50.p      
 675.p      2.         6.         51.188u    80.438u    716.41p    0.         714.78p    1.n        25.p      
 700.p      2.         1.         0.         0.         756.14p    0.         752.76p    1.n        25.p      
 750.p      2.         6.         135.86u    213.49u    807.65p    0.         0.         1.n        50.p      
 800.p      2.         1.         0.         0.         881.51p    0.         0.         1.n        50.p      
 850.p      2.         6.         159.44u    250.55u    953.29p    0.         0.         1.n        50.p      
 900.p      2.         1.         0.         0.         1.0061n    0.         0.         1.n        50.p      
 1.n        2.         1.         367.05u    576.79u    1.1311n    0.         0.         1.1n       100.p     
 1.035n     1.3        17.        1.035n     1.055n     1.0933n    0.         1.1101n    1.1n       35.p      
 1.037n     1.26       7.         1.035n     1.055n     1.0789n    0.         1.0899n    1.1n       2.p       
 1.039n     1.22       7.         0.         1.055n     1.0504n    0.         1.0959n    1.1n       2.p       
 1.049n     1.02       6.         0.         1.055n     1.0574n    0.         27.147n    1.1n       10.p      
 1.055n     0.9        7.         0.         1.055n     1.8282n    0.         21.848n    1.1n       6.p       
 1.057n     0.86       7.         0.         1.055n     40.554n    0.         29.932n    1.1n       2.p       
 1.059n     0.82       7.         0.         0.         30.563n    0.         24.252n    1.1n       2.p       
 1.1n       200.n      1.         0.         0.         62.475n    0.         30.941n    1.5n       41.p      
 1.116n    -155.56n    16.        0.         0.         1.1458n    0.         1.1245n    1.5n       16.p      
 1.124n     93.333n    6.         41.787u    28.93u     1.1706n    0.         1.1314n    1.5n       8.p       
 1.132n    -55.999n    6.         0.         0.         1.1523n    0.         1.1412n    1.5n       8.p       
 1.14n      33.599n    6.         116.07u    80.36u     1.1589n    0.         18.299n    1.5n       8.p       
 1.155n    -25.694n    6.         0.         0.         1.1808n    0.         0.         1.5n       15.p      
 1.178n     21.583n    6.         632.46u    437.85u    1.2209n    0.         0.         1.5n       23.p      
 1.2n      -17.985n    1.         0.         0.         1.2701n    0.         0.         1.5n       22.p      
 1.25n      16.602n    6.         0.0018793  0.0013011  1.3534n    0.         0.         1.5n       50.p      
 1.3n      -15.325n    1.         0.         0.         1.4528n    0.         0.         1.5n       50.p      
 1.4n       14.724n    1.         0.0043263  0.0029951  1.6428n    0.         0.         1.5n       100.p     
 1.5n      -14.146n    1.         0.         0.         1.8363n    0.         0.         1.6n       100.p     
 1.545n     0.9        17.        1.565n     1.545n     1.6087n    0.         1.6167n    1.6n       45.p      
 1.547n     0.94       7.         1.565n     1.545n     1.6151n    0.         1.6021n    1.6n       2.p       
 1.549n     0.98       7.         1.565n     0.         1.5633n    0.         1.6047n    1.6n       2.p       
 1.562n     1.24       6.         1.565n     0.         1.5724n    0.         52.832n    1.6n       13.p      
 1.565n     1.3        7.         1.565n     0.         2.5266n    0.         39.78n     1.6n       3.p       
 1.567n     1.34       7.         1.565n     0.         40.558n    0.         37.956n    1.6n       2.p       
 1.569n     1.38       7.         0.         0.         30.868n    0.         26.575n    1.6n       2.p       
 1.6n       2.         1.         0.         0.         87.288n    0.         34.56n     2.n        31.p      
 1.65n      2.         16.        0.         0.         1.6866n    0.         1.6923n    2.n        50.p      
 1.675n     2.         6.         51.189u    80.439u    1.7164n    0.         1.7142n    2.n        25.p      
 1.7n       2.         1.         0.         0.         1.7561n    0.         1.7511n    2.n        25.p      
 1.75n      2.         6.         135.86u    213.49u    1.8077n    0.         0.         2.n        50.p      
 1.8n       2.         1.         0.         0.         1.8815n    0.         0.         2.n        50.p      
 1.85n      2.         6.         159.44u    250.55u    1.9533n    0.         0.         2.n        50.p      
 1.9n       2.         1.         0.         0.         2.0061n    0.         0.         2.n        50.p      
 2.n        2.         1.         367.05u    576.79u    2.1311n    0.         0.         2.1n       100.p     
vmax= 2.00000018461524
t1= 565.00001p
t2= 55.00001p
vol2= 1.60000014769219
vol1= 0.400000036923048
vmax= 2.00000018461524
midpoint= 1.00000009230762
t3= 550.000014615381p
t4= 1.55000001461538n
t5= 1.55000001461538n
tmin= 125.p
vmin=-170.370096n
slew=(( 1.60000014769219- 0.400000036923048)/( 580.00001738461p- 520.000010639659p))
slew= 19.9999995978354E+9
slew=(( 1.60000014769219- 0.400000036923048)/( 1.58000001738461n- 1.52000001046214n))
slew= 19.9999995386624E+9
slew= 19.9999995978355G
frequency= 1.E+9
t4= 550.000014615381p
t3= 1.55000001461538n
frequency=-1.E+9
tvmax= 650.p
tvmax= 1.65n
