''''' 
#Time       v(1)       control(0) eventtime(s1) eventtime(s2) nexttime(C1) eventtime(C1) nexttime(Vv1) eventtime(Vv1) dt(C1)    
 0.         2.         1.         0.         0.         0.         0.         0.         100.p      ??        
 100.p      200.n      1.         0.         0.         154.4n     0.         28.702n    500.p      41.p      
 200.p     -66.662n    1.         0.         0.         240.46p    0.         0.         500.p      30.p      
 300.p      46.399n    1.         462.29u    320.05u    389.12p    0.         0.         500.p      35.p      
 400.p      39.535n    1.         789.17u    546.35u    528.83p    0.         0.         500.p      50.p      
 500.p     -37.985n    1.         0.         0.         677.03p    0.         0.         600.p      100.p     
 600.p      2.         1.         0.         0.         52.016n    0.         35.009n    1.n        31.p      
 700.p      2.         1.         0.         0.         756.14p    0.         752.76p    1.n        25.p      
 800.p      2.         1.         0.         0.         881.51p    0.         0.         1.n        50.p      
 900.p      2.         1.         0.         0.         1.0061n    0.         0.         1.n        50.p      
 1.n        2.         1.         367.05u    576.79u    1.1311n    0.         0.         1.1n       100.p     
 1.1n       200.n      1.         0.         0.         62.791n    0.         26.48n     1.5n       41.p      
 1.2n      -17.117n    1.         0.         0.         1.2741n    0.         0.         1.5n       23.377p   
 1.3n      -14.585n    1.         0.         0.         1.4584n    0.         0.         1.5n       50.p      
 1.4n       14.013n    1.         0.0045458  0.0031471  1.6468n    0.         0.         1.5n       100.p     
 1.5n      -13.463n    1.         0.         0.         1.8418n    0.         129.78n    1.6n       100.p     
 1.6n       2.         1.         0.         0.         57.476n    0.         38.625n    2.n        33.p      
 1.7n       2.         1.         0.         0.         1.7504n    0.         1.7611n    2.n        100.p     
 1.8n       2.         1.         0.         0.         1.9088n    0.         1.8777n    2.n        50.p      
 1.9n       2.         1.         0.         0.         1.9941n    0.         0.         2.n        50.p      
 2.n        2.         1.         0.         0.         2.0992n    0.         214.29n    2.1n       50.p      
vmax= 2.00000018461524
t1= 565.00001p
t2= 55.00001p
vol2= 1.60000014769219
vol1= 0.400000036923048
vmax= 2.00000018461524
midpoint= 1.00000009230762
t3= 550.000014615381p
t4= 1.55000001461538n
t5= 1.55000001461538n
tmin= 125.p
vmin=-170.370096n
slew=(( 1.60000014769219- 0.400000036923048)/( 580.00001738461p- 520.000010639657p))
slew= 19.9999995978347E+9
slew=(( 1.60000014769219- 0.400000036923048)/( 1.58000001738461n- 1.52000001045705n))
slew= 19.9999995369658E+9
slew= 19.999999597835G
frequency= 1.E+9
t4= 550.000014615381p
t3= 1.55000001461538n
frequency=-1.E+9
tvmax= 1.7n
tvmax= 1.7n
