''''' 
#Time       v(1)       control(0) eventtime(s1) eventtime(s2) nexttime(C1) eventtime(C1) nexttime(Vv1) eventtime(Vv1) dt(C1)    
 0.         2.         1.         0.         0.         0.         0.         0.         100.p      ??        
 1.p        1.98       9.         35.p       55.p       85.p       0.         7.7879p    100.p      1.p       
 7.6p       1.848      6.         35.p       55.p       27.994p    0.         29.323p    100.p      6.6p      
 26.08p     1.4784     6.         35.p       55.p       42.051p    0.         1.947u     100.p      18.48p    
 35.p       1.3        7.         35.p       55.p       65.897p    0.         79.013n    100.p      8.92p     
 37.p       1.26       7.         35.p       55.p       62.615p    0.         82.915n    100.p      2.p       
 39.p       1.22       7.         0.         55.p       53.981p    0.         38.571n    100.p      2.p       
 51.2p      0.976      6.         0.         55.p       70.007p    0.         33.733n    100.p      12.2p     
 55.p       0.9        7.         0.         55.p       1.7928n    0.         49.458n    100.p      3.8p      
 57.p       0.86       7.         0.         55.p       75.406n    0.         31.82n     100.p      2.p       
 59.p       0.82       7.         0.         0.         56.837n    0.         22.32n     100.p      2.p       
 100.p      200.n      1.         0.         0.         154.4n     0.         28.702n    500.p      41.p      
 125.29p   -170.69n    16.        0.         0.         157.75p    0.         141.62p    500.p      25.294p   
 140.23p    130.39n    6.         64.514u    44.664u    179.14p    0.         155.91p    500.p      14.941p   
 155.18p   -99.601n    6.         0.         0.         188.68p    0.         177.44p    500.p      14.941p   
 170.12p    76.084n    6.         110.56u    76.541u    201.16p    0.         0.         500.p      14.941p   
 200.p     -66.539n    1.         0.         0.         240.31p    0.         0.         500.p      29.883p   
 229.88p    58.19n     6.         311.45u    215.62u    288.53p    0.         0.         500.p      29.883p   
 264.94p   -51.91n     6.         0.         0.         344.63p    0.         0.         500.p      35.059p   
 300.p      46.307n    1.         464.04u    321.26u    389.18p    0.         0.         500.p      35.059p   
 350.p     -42.744n    6.         0.         0.         456.65p    0.         0.         500.p      50.p      
 400.p      39.456n    1.         790.75u    547.44u    528.98p    0.         0.         500.p      50.p      
 500.p     -37.909n    1.         0.         0.         677.15p    0.         0.         600.p      100.p     
 545.p      0.9        17.        565.p      545.p      603.65p    0.         609.64p    600.p      45.p      
 547.p      0.94       7.         565.p      545.p      628.p      0.         599.25p    600.p      2.p       
 549.p      0.98       7.         565.p      0.         564.02p    0.         607.81p    600.p      2.p       
 565.p      1.3        7.         565.p      0.         576.47p    0.         58.513n    600.p      16.p      
 567.p      1.34       7.         565.p      0.         1.6748n    0.         69.849n    600.p      2.p       
 569.p      1.38       7.         0.         0.         39.806n    0.         40.485n    600.p      2.p       
 600.p      2.         1.         0.         0.         52.018n    0.         56.627n    1.n        31.p      
 649.92p    2.         16.        0.         0.         686.48p    0.         692.18p    1.n        49.92p    
 674.96p    2.         6.         51.271u    80.568u    716.35p    0.         714.72p    1.n        25.04p    
 700.p      2.         1.         0.         0.         756.17p    0.         752.74p    1.n        25.04p    
 750.p      2.         6.         135.8u     213.41u    807.72p    0.         0.         1.n        50.p      
 800.p      2.         1.         0.         0.         881.54p    0.         0.         1.n        50.p      
 850.p      2.         6.         159.38u    250.46u    953.28p    0.         0.         1.n        50.p      
 900.p      2.         1.         0.         0.         1.0061n    0.         0.         1.n        50.p      
 1.n        2.         1.         366.91u    576.57u    1.1311n    0.         0.         1.1n       100.p     
 1.035n     1.3        17.        1.035n     1.055n     1.0933n    0.         1.1101n    1.1n       35.p      
 1.037n     1.26       7.         1.035n     1.055n     1.0789n    0.         1.0899n    1.1n       2.p       
 1.039n     1.22       7.         0.         1.055n     1.0504n    0.         1.0959n    1.1n       2.p       
 1.0492n    1.0167     6.         0.         1.055n     1.0576n    0.         30.563n    1.1n       10.167p   
 1.055n     0.9        7.         0.         1.055n     1.8317n    0.         24.469n    1.1n       5.8333p   
 1.057n     0.86       7.         0.         1.055n     40.281n    0.         31.304n    1.1n       2.p       
 1.059n     0.82       7.         0.         0.         30.331n    0.         21.105n    1.1n       2.p       
 1.1n       200.n      1.         0.         0.         62.772n    0.         25.926n    1.5n       41.p      
 1.1162n   -155.95n    16.        0.         0.         1.146n     0.         1.1246n    1.5n       16.161p   
 1.1245n    95.875n    6.         43.281u    29.964u    1.1698n    0.         1.132n     1.5n       8.3839p   
 1.1329n   -58.943n    6.         0.         0.         1.1539n    0.         1.1422n    1.5n       8.3839p   
 1.1413n    36.237n    6.         114.51u    79.277u    1.1609n    0.         18.706n    1.5n       8.3839p   
 1.1609n   -29.515n    6.         0.         0.         1.1889n    0.         0.         1.5n       19.562p   
 1.1804n    24.039n    6.         474.87u    328.76u    1.2265n    0.         0.         1.5n       19.562p   
 1.2n      -19.58n     1.         0.         0.         1.2662n    0.         0.         1.5n       19.562p   
 1.25n      18.074n    6.         0.0017263  0.0011951  1.3402n    0.         0.         1.5n       50.p      
 1.3n      -16.683n    1.         0.         0.         1.4429n    0.         0.         1.5n       50.p      
 1.4n       16.029n    1.         0.003974   0.0027512  1.636n     0.         0.         1.5n       100.p     
 1.5n      -15.401n    1.         0.         0.         1.8269n    0.         129.78n    1.6n       100.p     
 1.545n     0.9        17.        1.565n     1.545n     1.6086n    0.         1.6167n    1.6n       45.p      
 1.547n     0.94       7.         1.565n     1.545n     1.6156n    0.         1.6021n    1.6n       2.p       
 1.549n     0.98       7.         1.565n     0.         1.5634n    0.         1.6047n    1.6n       2.p       
 1.5618n    1.235      6.         1.565n     0.         1.5721n    0.         45.645n    1.6n       12.75p    
 1.565n     1.3        7.         1.565n     0.         2.5234n    0.         34.697n    1.6n       3.25p     
 1.567n     1.34       7.         0.         0.         41.283n    0.         32.919n    1.6n       2.p       
 1.6n       2.         1.         0.         0.         57.67n     0.         39.182n    2.n        33.p      
 1.7n       2.         1.         0.         0.         1.7504n    0.         1.7611n    2.n        100.p     
 1.75n      2.         6.         94.716u    148.84u    1.8068n    0.         1.8081n    2.n        50.p      
 1.8n       2.         1.         0.         0.         1.9088n    0.         1.8777n    2.n        50.p      
 1.85n      2.         6.         111.16u    174.68u    1.9416n    0.         0.         2.n        50.p      
 1.9n       2.         1.         0.         0.         1.9941n    0.         0.         2.n        50.p      
 1.95n      2.         6.         130.46u    205.u      2.0466n    0.         0.         2.n        50.p      
 2.n        2.         1.         0.         0.         2.0992n    0.         214.29n    2.1n       50.p      
vmax= 2.0000001845915
t1= 565.00001p
t2= 55.00001p
vol2= 1.6000001476732
vol1= 0.4000000369183
vmax= 2.0000001845915
midpoint= 1.00000009229575
t3= 550.000014614788p
t4= 1.55000001461479n
t5= 1.55000001461479n
tmin= 125.293723936701p
vmin=-170.688961n
slew=(( 1.6000001476732- 0.4000000369183)/( 580.00001738366p- 520.000010638854p))
slew= 19.9999995976464E+9
slew=(( 1.6000001476732- 0.4000000369183)/( 1.58000001738366n- 1.52000001047124n))
slew= 19.9999995417751E+9
slew= 19.9999995976465G
frequency= 999.999999999997E+6
t4= 550.000014614788p
t3= 1.55000001461479n
frequency=-999.999999999997E+6
tvmax= 1.7n
tvmax= 1.7n
