''''' 
#Time       v(1)       control(0) eventtime(s1) eventtime(s2) nexttime(C1) eventtime(C1) nexttime(Vv1) eventtime(Vv1) dt(C1)    
 0.         2.         1.         0.         0.         0.         0.         0.         100.p      ??        
 100.p      200.n      1.         0.         0.         154.4n     0.         28.702n    500.p      41.p      
 200.p     -66.539n    1.         0.         0.         240.31p    0.         0.         500.p      29.883p   
 300.p      46.307n    1.         464.04u    321.26u    389.18p    0.         0.         500.p      35.059p   
 400.p      39.456n    1.         790.75u    547.44u    528.98p    0.         0.         500.p      50.p      
 500.p     -37.909n    1.         0.         0.         677.15p    0.         0.         600.p      100.p     
 600.p      2.         1.         0.         0.         52.018n    0.         56.627n    1.n        31.p      
 700.p      2.         1.         0.         0.         756.17p    0.         752.74p    1.n        25.04p    
 800.p      2.         1.         0.         0.         881.54p    0.         0.         1.n        50.p      
 900.p      2.         1.         0.         0.         1.0061n    0.         0.         1.n        50.p      
 1.n        2.         1.         366.91u    576.57u    1.1311n    0.         0.         1.1n       100.p     
 1.1n       200.n      1.         0.         0.         62.772n    0.         25.926n    1.5n       41.p      
 1.2n      -19.58n     1.         0.         0.         1.2662n    0.         0.         1.5n       19.562p   
 1.3n      -16.683n    1.         0.         0.         1.4429n    0.         0.         1.5n       50.p      
 1.4n       16.029n    1.         0.003974   0.0027512  1.636n     0.         0.         1.5n       100.p     
 1.5n      -15.401n    1.         0.         0.         1.8269n    0.         129.78n    1.6n       100.p     
 1.6n       2.         1.         0.         0.         57.67n     0.         39.182n    2.n        33.p      
 1.7n       2.         1.         0.         0.         1.7504n    0.         1.7611n    2.n        100.p     
 1.8n       2.         1.         0.         0.         1.9088n    0.         1.8777n    2.n        50.p      
 1.9n       2.         1.         0.         0.         1.9941n    0.         0.         2.n        50.p      
 2.n        2.         1.         0.         0.         2.0992n    0.         214.29n    2.1n       50.p      
vmax= 2.0000001845915
t1= 565.00001p
t2= 55.00001p
vol2= 1.6000001476732
vol1= 0.4000000369183
vmax= 2.0000001845915
midpoint= 1.00000009229575
t3= 550.000014614788p
t4= 1.55000001461479n
t5= 1.55000001461479n
tmin= 125.293723936701p
vmin=-170.688961n
slew=(( 1.6000001476732- 0.4000000369183)/( 580.00001738366p- 520.000010638854p))
slew= 19.9999995976464E+9
slew=(( 1.6000001476732- 0.4000000369183)/( 1.58000001738366n- 1.52000001047124n))
slew= 19.9999995417751E+9
slew= 19.9999995976465G
frequency= 999.999999999997E+6
t4= 550.000014614788p
t3= 1.55000001461479n
frequency=-999.999999999997E+6
tvmax= 1.7n
tvmax= 1.7n
