''''' 
#Time       v(1)       control(0) eventtime(s1) eventtime(s2) nexttime(C1) eventtime(C1) nexttime(Vv1) eventtime(Vv1) dt(C1)    
 0.         2.         1.         0.         0.         0.         0.         0.         100.p      ??        
 1.p        1.98       9.         35.p       55.p       85.p       0.         7.7879p    100.p      1.p       
 8.p        1.84       6.         35.p       55.p       28.785p    0.         30.239p    100.p      7.p       
 27.p       1.46       6.         35.p       55.p       43.34p     0.         1.6092u    100.p      19.p      
 35.p       1.3        7.         35.p       55.p       66.068p    0.         75.209n    100.p      8.p       
 37.p       1.26       7.         35.p       55.p       61.45p     0.         57.423n    100.p      2.p       
 39.p       1.22       7.         0.         55.p       53.404p    0.         28.404n    100.p      2.p       
 52.p       0.96       6.         0.         55.p       71.18p     0.         24.562n    100.p      13.p      
 55.p       0.9        7.         0.         55.p       1.8312n    0.         28.906n    100.p      3.p       
 57.p       0.86       7.         0.         55.p       72.096n    0.         44.345n    100.p      2.p       
 59.p       0.82       7.         0.         0.         54.671n    0.         23.725n    100.p      2.p       
 100.p      200.n      1.         0.         0.         181.13n    0.         29.511n    500.p      41.p      
 125.p     -170.37n    16.        0.         0.         157.37p    0.         141.29p    500.p      25.p      
 140.p      130.28n    6.         64.859u    44.902u    178.85p    0.         155.64p    500.p      15.p      
 155.p     -99.628n    6.         0.         0.         188.49p    0.         177.22p    500.p      15.p      
 170.p      76.186n    6.         110.91u    76.786u    201.17p    0.         0.         500.p      15.p      
 200.p     -66.662n    1.         0.         0.         240.46p    0.         0.         500.p      30.p      
 230.p      58.329n    6.         312.02u    216.01u    288.85p    0.         0.         500.p      30.p      
 265.p     -52.024n    6.         0.         0.         344.83p    0.         0.         500.p      35.p      
 300.p      46.399n    1.         462.29u    320.05u    389.12p    0.         0.         500.p      35.p      
 350.p     -42.83n     6.         0.         0.         456.44p    0.         0.         500.p      50.p      
 400.p      39.535n    1.         789.17u    546.35u    528.83p    0.         0.         500.p      50.p      
 500.p     -37.985n    1.         0.         0.         677.03p    0.         0.         600.p      100.p     
 545.p      0.9        17.        565.p      545.p      603.65p    0.         609.64p    600.p      45.p      
 547.p      0.94       7.         565.p      545.p      628.05p    0.         599.25p    600.p      2.p       
 549.p      0.98       7.         565.p      0.         564.02p    0.         607.81p    600.p      2.p       
 562.p      1.24       6.         565.p      0.         572.87p    0.         42.667n    600.p      13.p      
 565.p      1.3        7.         565.p      0.         1.5716n    0.         35.966n    600.p      3.p       
 567.p      1.34       7.         565.p      0.         41.397n    0.         50.402n    600.p      2.p       
 569.p      1.38       7.         0.         0.         31.248n    0.         29.969n    600.p      2.p       
 600.p      2.         1.         0.         0.         90.293n    0.         36.33n     1.n        31.p      
 650.p      2.         16.        0.         0.         686.58p    0.         692.3p     1.n        50.p      
 675.p      2.         6.         51.188u    80.438u    716.41p    0.         714.78p    1.n        25.p      
 700.p      2.         1.         0.         0.         756.14p    0.         752.76p    1.n        25.p      
 750.p      2.         6.         135.86u    213.49u    807.65p    0.         0.         1.n        50.p      
 800.p      2.         1.         0.         0.         881.51p    0.         0.         1.n        50.p      
 850.p      2.         6.         159.44u    250.55u    953.29p    0.         0.         1.n        50.p      
 900.p      2.         1.         0.         0.         1.0061n    0.         0.         1.n        50.p      
 1.n        2.         1.         367.05u    576.79u    1.1311n    0.         0.         1.1n       100.p     
 1.035n     1.3        17.        1.035n     1.055n     1.0933n    0.         1.1101n    1.1n       35.p      
 1.037n     1.26       7.         1.035n     1.055n     1.0789n    0.         1.0899n    1.1n       2.p       
 1.039n     1.22       7.         0.         1.055n     1.0504n    0.         1.0959n    1.1n       2.p       
 1.05n      1.         6.         0.         1.055n     1.0586n    0.         27.699n    1.1n       11.p      
 1.055n     0.9        7.         0.         1.055n     1.8491n    0.         22.212n    1.1n       5.p       
 1.057n     0.86       7.         0.         1.055n     38.837n    0.         29.901n    1.1n       2.p       
 1.059n     0.82       7.         0.         0.         29.186n    0.         23.362n    1.1n       2.p       
 1.1n       200.n      1.         0.         0.         64.888n    0.         29.698n    1.5n       41.p      
 1.116n    -155.56n    16.        0.         0.         1.1458n    0.         1.1245n    1.5n       16.p      
 1.123n     86.419n    6.         37.608u    26.037u    1.1747n    0.         1.1304n    1.5n       7.p       
 1.13n     -48.01n     6.         0.         0.         1.1488n    0.         1.1391n    1.5n       7.p       
 1.137n     26.672n    6.         121.85u    84.358u    1.154n     0.         17.52n     1.5n       7.p       
 1.153n    -20.745n    6.         0.         0.         1.1779n    0.         0.         1.5n       16.p      
 1.177n     17.553n    6.         814.66u    563.99u    1.2223n    0.         0.         1.5n       24.p      
 1.2n      -14.745n    1.         0.         0.         1.2792n    0.         0.         1.5n       23.p      
 1.25n      13.611n    6.         0.0022923  0.001587   1.3643n    0.         0.         1.5n       50.p      
 1.3n      -12.564n    1.         0.         0.         1.4656n    0.         0.         1.5n       50.p      
 1.4n       12.071n    1.         0.0052771  0.0036534  1.6594n    0.         0.         1.5n       100.p     
 1.5n      -11.598n    1.         0.         0.         1.8593n    0.         0.         1.6n       100.p     
 1.545n     0.9        17.        1.565n     1.545n     1.6087n    0.         1.6167n    1.6n       45.p      
 1.547n     0.94       7.         1.565n     1.545n     1.6142n    0.         1.6021n    1.6n       2.p       
 1.549n     0.98       7.         1.565n     0.         1.5633n    0.         1.6047n    1.6n       2.p       
 1.562n     1.24       6.         1.565n     0.         1.5723n    0.         52.832n    1.6n       13.p      
 1.565n     1.3        7.         1.565n     0.         2.5223n    0.         39.78n     1.6n       3.p       
 1.567n     1.34       7.         1.565n     0.         40.384n    0.         37.956n    1.6n       2.p       
 1.569n     1.38       7.         0.         0.         30.732n    0.         26.575n    1.6n       2.p       
 1.6n       2.         1.         0.         0.         86.833n    0.         34.56n     2.n        31.p      
 1.65n      2.         16.        0.         0.         1.6866n    0.         1.6923n    2.n        50.p      
 1.675n     2.         6.         51.189u    80.439u    1.7164n    0.         1.7142n    2.n        25.p      
 1.7n       2.         1.         0.         0.         1.7561n    0.         1.7511n    2.n        25.p      
 1.75n      2.         6.         135.86u    213.49u    1.8077n    0.         0.         2.n        50.p      
 1.8n       2.         1.         0.         0.         1.8815n    0.         0.         2.n        50.p      
 1.85n      2.         6.         159.44u    250.55u    1.9533n    0.         0.         2.n        50.p      
 1.9n       2.         1.         0.         0.         2.0061n    0.         0.         2.n        50.p      
 2.n        2.         1.         367.05u    576.79u    2.1311n    0.         0.         2.1n       100.p     
vmax= 2.00000018461524
t1= 565.00001p
t2= 55.00001p
vol2= 1.60000014769219
vol1= 0.400000036923048
vmax= 2.00000018461524
midpoint= 1.00000009230762
t3= 550.000014615381p
t4= 1.55000001461538n
t5= 1.55000001461538n
tmin= 125.p
vmin=-170.370096n
slew=(( 1.60000014769219- 0.400000036923048)/( 580.00001738461p- 520.000010639659p))
slew= 19.9999995978354E+9
slew=(( 1.60000014769219- 0.400000036923048)/( 1.58000001738461n- 1.52000001044316n))
slew= 19.9999995323358E+9
slew= 19.9999995978355G
frequency= 1.E+9
t4= 550.000014615381p
t3= 1.55000001461538n
frequency=-1.E+9
tvmax= 650.p
tvmax= 1.65n
