difpair ckt - simple differential pair 
#           v(1)       v(2)       v(3)       v(4)       v(5)       v(6)      
+ v(7)       v(8)       v(9)      
 27.       -76.611p   -0.0076611 -0.0076611  5.2291     5.2291    -0.76997   
+-11.221     12.       -12.       
v(4)   0.                2.               4.                6.               8.
v(5)   0.                2.               4.                6.               8.
        +-----------------+----------------+-----------------+----------------+
 0.     |                 .                .          *      .                |
 10.n   |                 .                .         *+      .                |
 20.n   |                 .                .       *    +    .                |
 30.n   |                 .                .     *        +  .                |
 40.n   |                 .                .   *            +.                |
 50.n   |                 .                .*                . +              |
 60.n   |                 .               *.                 .   +            |
 70.n   |                 .             *  .                 .     +          |
 80.n   |                 .            *   .                 .       +        |
 90.n   |                 .           *    .                 .       +        |
 100.n  |                 .           *    .                 .       +        |
 110.n  |                 .             *  .                 .      +         |
 120.n  |                 .               *.                 .    +           |
 130.n  |                 .                . *               . +              |
 140.n  |                 .                .    *           +.                |
 150.n  |                 .                .       *     +   .                |
 160.n  |                 .                .          *      .                |
 170.n  |                 .                .       +    *    .                |
 180.n  |                 .                .     +         * .                |
 190.n  |                 .                .    +           *.                |
 200.n  |                 .                .   +            *.                |
 210.n  |                 .                .    +          * .                |
 220.n  |                 .                .      +      *   .                |
 230.n  |                 .                .         +*      .                |
 240.n  |                 .                .        *  +     .                |
 250.n  |                 .                .     *        +  .                |
 260.n  |                 .                .   *            +.                |
 270.n  |                 .                . *               .+               |
 280.n  |                 .                *                 .  +             |
 290.n  |                 .               *.                 .   +            |
 300.n  |                 .               *.                 .    +           |
 310.n  |                 .                *                 .  +             |
 320.n  |                 .                .  *              .+               |
 330.n  |                 .                .    *          + .                |
 340.n  |                 .                .       *     +   .                |
 350.n  |                 .                .          *      .                |
 360.n  |                 .                .       +     *   .                |
 370.n  |                 .                .     +         * .                |
 380.n  |                 .                .   +             *                |
 390.n  |                 .                . +               .*               |
 400.n  |                 .                . +               .*               |
 410.n  |                 .                .  +              *                |
 420.n  |                 .                .    +          * .                |
 430.n  |                 .                .       +    *    .                |
 440.n  |                 .                .         +*      .                |
 450.n  |                 .                .       *    +    .                |
 460.n  |                 .                .    *          + .                |
 470.n  |                 .                .  *              +                |
 480.n  |                 .                .*                . +              |
 490.n  |                 .                *                 .  +             |
 500.n  |                 .                *                 .  +             |
        +-----------------+----------------+-----------------+----------------+
#Time       qcs(q1)    qcs(q2)    qcs(q3)    qcs(q4)    qcs(qnl)  
 0.        -104.58p   -104.58p    15.399p    224.42p    ??        
 10.n      -102.93p   -105.91p    15.057p    224.42p    ??        
 20.n      -98.942p   -109.51p    14.654p    224.42p    ??        
 30.n      -93.719p   -114.39p    14.272p    224.42p    ??        
 40.n      -88.186p   -119.71p    14.013p    224.42p    ??        
 50.n      -82.834p   -125.02p    13.911p    224.42p    ??        
 60.n      -77.917p   -130.07p    13.997p    224.42p    ??        
 70.n      -73.629p   -134.64p    14.247p    224.42p    ??        
 80.n      -70.323p   -138.35p    14.62p     224.42p    ??        
 90.n      -68.645p   -140.44p    15.027p    224.42p    ??        
 100.n     -69.383p   -140.05p    15.384p    224.42p    ??        
 110.n     -72.802p   -136.86p    15.637p    224.42p    ??        
 120.n     -78.299p   -131.48p    15.782p    224.42p    ??        
 130.n     -84.855p   -124.96p    15.849p    224.42p    ??        
 140.n     -91.693p   -118.12p    15.878p    224.42p    ??        
 150.n     -98.406p   -111.39p    15.889p    224.42p    ??        
 160.n     -104.78p   -104.99p    15.888p    224.42p    ??        
 170.n     -110.61p   -99.116p    15.869p    224.42p    ??        
 180.n     -115.49p   -94.162p    15.81p     224.42p    ??        
 190.n     -118.65p   -90.847p    15.669p    224.42p    ??        
 200.n     -119.19p   -90.047p    15.415p    224.42p    ??        
 210.n     -116.78p   -92.106p    15.056p    224.42p    ??        
 220.n     -112.06p   -96.438p    14.645p    224.42p    ??        
 230.n     -106.16p   -101.99p    14.267p    224.42p    ??        
 240.n     -99.992p   -107.94p    14.003p    224.42p    ??        
 250.n     -94.051p   -113.83p    13.905p    224.42p    ??        
 260.n     -88.571p   -119.44p    13.989p    224.42p    ??        
 270.n     -83.748p   -124.55p    14.242p    224.42p    ??        
 280.n     -79.921p   -128.77p    14.615p    224.42p    ??        
 290.n     -77.738p   -131.37p    15.025p    224.42p    ??        
 300.n     -77.984p   -131.47p    15.384p    224.42p    ??        
#Time       ccs(q1)    ccs(q2)    ccs(q3)    ccs(q4)    ccs(qnl)  
 0.         20.p       20.p       20.p       20.p       ??        
 10.n       20.p       20.p       20.p       20.p       ??        
 20.n       20.p       20.p       20.p       20.p       ??        
 30.n       20.p       20.p       20.p       20.p       ??        
 40.n       20.p       20.p       20.p       20.p       ??        
 50.n       20.p       20.p       20.p       20.p       ??        
 60.n       20.p       20.p       20.p       20.p       ??        
 70.n       20.p       20.p       20.p       20.p       ??        
 80.n       20.p       20.p       20.p       20.p       ??        
 90.n       20.p       20.p       20.p       20.p       ??        
 100.n      20.p       20.p       20.p       20.p       ??        
 110.n      20.p       20.p       20.p       20.p       ??        
 120.n      20.p       20.p       20.p       20.p       ??        
 130.n      20.p       20.p       20.p       20.p       ??        
 140.n      20.p       20.p       20.p       20.p       ??        
 150.n      20.p       20.p       20.p       20.p       ??        
 160.n      20.p       20.p       20.p       20.p       ??        
 170.n      20.p       20.p       20.p       20.p       ??        
 180.n      20.p       20.p       20.p       20.p       ??        
 190.n      20.p       20.p       20.p       20.p       ??        
 200.n      20.p       20.p       20.p       20.p       ??        
 210.n      20.p       20.p       20.p       20.p       ??        
 220.n      20.p       20.p       20.p       20.p       ??        
 230.n      20.p       20.p       20.p       20.p       ??        
 240.n      20.p       20.p       20.p       20.p       ??        
 250.n      20.p       20.p       20.p       20.p       ??        
 260.n      20.p       20.p       20.p       20.p       ??        
 270.n      20.p       20.p       20.p       20.p       ??        
 280.n      20.p       20.p       20.p       20.p       ??        
 290.n      20.p       20.p       20.p       20.p       ??        
 300.n      20.p       20.p       20.p       20.p       ??        
#Time       vcs(q1)    vcs(q2)    vcs(q3)    vcs(q4)    vcs(qnl)  
 0.         5.2291     5.2291    -0.76997   -11.221     ??        
 10.n       5.1463     5.2953    -0.75284   -11.221     ??        
 20.n       4.9471     5.4755    -0.73269   -11.221     ??        
 30.n       4.6859     5.7196    -0.71362   -11.221     ??        
 40.n       4.4093     5.9857    -0.70064   -11.221     ??        
 50.n       4.1417     6.2508    -0.69556   -11.221     ??        
 60.n       3.8959     6.5034    -0.69986   -11.221     ??        
 70.n       3.6814     6.7322    -0.71236   -11.221     ??        
 80.n       3.5161     6.9173    -0.731     -11.221     ??        
 90.n       3.4322     7.0219    -0.75134   -11.221     ??        
 100.n      3.4691     7.0024    -0.7692    -11.221     ??        
 110.n      3.6401     6.8429    -0.78183   -11.221     ??        
 120.n      3.9149     6.574     -0.78909   -11.221     ??        
 130.n      4.2427     6.248     -0.79244   -11.221     ??        
 140.n      4.5846     5.9061    -0.79391   -11.221     ??        
 150.n      4.9203     5.5696    -0.79446   -11.221     ??        
 160.n      5.2392     5.2494    -0.79442   -11.221     ??        
 170.n      5.5306     4.9558    -0.79345   -11.221     ??        
 180.n      5.7743     4.7081    -0.79049   -11.221     ??        
 190.n      5.9323     4.5424    -0.78347   -11.221     ??        
 200.n      5.9594     4.5024    -0.77076   -11.221     ??        
 210.n      5.8388     4.6053    -0.75279   -11.221     ??        
 220.n      5.6028     4.8219    -0.73226   -11.221     ??        
 230.n      5.3078     5.0997    -0.71334   -11.221     ??        
 240.n      4.9996     5.397     -0.70015   -11.221     ??        
 250.n      4.7025     5.6916    -0.69524   -11.221     ??        
 260.n      4.4286     5.9721    -0.69945   -11.221     ??        
 270.n      4.1874     6.2277    -0.71208   -11.221     ??        
 280.n      3.996      6.4387    -0.73073   -11.221     ??        
 290.n      3.8869     6.5686    -0.75123   -11.221     ??        
 300.n      3.8992     6.5736    -0.76918   -11.221     ??        
