difpair ckt - simple differential pair 
#           v(1)       v(2)       v(3)       v(4)       v(5)       v(6)      
+ v(7)       v(8)       v(9)      
 27.       -76.611p   -0.0076611 -0.0076611  5.2291     5.2291    -0.76997   
+-11.221     12.       -12.       
#           vb(q1)     vb(q2)     vb(q3)     vb(q4)     vb(qnl)   
 27.       -0.0076611 -0.0076611 -11.221    -11.221     ??        
#           vbi(q1)    vbi(q2)    vbi(q3)    vbi(q4)    vbi(qnl)  
 27.       -0.0084272 -0.0084272 -11.223    -11.223     ??        
#           i(vin)     i(vcc)     i(vee)    
 27.       -7.6611u   -0.0025152  0.0025306 
#           ic(q1)     ic(q2)     ic(q3)     ic(q4)     ic(qnl)   
 27.        677.09u    677.09u    0.0013695  0.0011327  ??        
#           ice(q1)    ice(q2)    ice(q3)    ice(q4)    ice(qnl)  
 27.        677.09u    677.09u    0.0013695  0.0011327  ??        
#           ib(q1)     ib(q2)     ib(q3)     ib(q4)     ib(qnl)   
 27.        7.6611u    7.6611u    14.159u    14.159u    ??        
#           ipi(q1)    ipi(q2)    ipi(q3)    ipi(q4)    ipi(qnl)  
 27.        7.6611u    7.6611u    14.159u    14.159u    ??        
#           imu(q1)    imu(q2)    imu(q3)    imu(q4)    imu(qnl)  
 27.       -5.2376p   -5.2376p   -10.453p   -1.4212f    ??        
#           ie(q1)     ie(q2)     ie(q3)     ie(q4)     ie(qnl)   
 27.       -684.75u   -684.75u   -0.0013837 -0.0011469  ??        
#           vbe(q1)    vbe(q2)    vbe(q3)    vbe(q4)    vbe(qnl)  
 27.        0.76231    0.76231    0.77885    0.77885    ??        
#           vbei(q1)   vbei(q2)   vbei(q3)   vbei(q4)   vbei(qnl) 
 27.        0.76155    0.76155    0.77743    0.77743    ??        
#           vbc(q1)    vbc(q2)    vbc(q3)    vbc(q4)    vbc(qnl)  
 27.       -5.2368    -5.2368    -10.451     0.         ??        
#           vbci(q1)   vbci(q2)   vbci(q3)   vbci(q4)   vbci(qnl) 
 27.       -5.2375    -5.2375    -10.453    -0.0014159  ??        
#           gm(q1)     gm(q2)     gm(q3)     gm(q4)     gm(qnl)   
 27.        0.026166   0.026166   0.052927   0.043773   ??        
#           gpi(q1)    gpi(q2)    gpi(q3)    gpi(q4)    gpi(qnl)  
 27.        296.21u    296.21u    547.43u    547.43u    ??        
#           gmu(q1)    gmu(q2)    gmu(q3)    gmu(q4)    gmu(qnl)  
 27.        1.p        1.p        1.p        1.0037p    ??        
#           gx(q1)     gx(q2)     gx(q3)     gx(q4)     gx(qnl)   
 27.        0.01       0.01       0.01       0.01       ??        
#           go(q1)     go(q2)     go(q3)     go(q4)     go(qnl)   
 27.        12.258u    12.258u    22.654u    22.654u    ??        
#           cpi(q1)    cpi(q2)    cpi(q3)    cpi(q4)    cpi(qnl)  
 27.        12.907p    12.907p    20.991p    18.245p    ??        
#           cmu(q1)    cmu(q2)    cmu(q3)    cmu(q4)    cmu(qnl)  
 27.        1.0076p    1.0076p    819.45f    1.9988p    ??        
#           cbx(q1)    cbx(q2)    cbx(q3)    cbx(q4)    cbx(qnl)  
 27.        0.         0.         0.         0.         ??        
#           ccs(q1)    ccs(q2)    ccs(q3)    ccs(q4)    ccs(qnl)  
 27.        2.p        2.p        2.p        2.p        ??        
#           i(rs1)     i(rs2)     i(rc1)     i(rc2)     i(rbias)  
 27.        7.6611u   -7.6611u   -677.09u   -677.09u   -0.0011611 
#           p(rs1)     p(rs2)     p(rc1)     p(rc2)     p(rbias)  
 27.        58.693n    58.693n    0.0045845  0.0045845  0.026961  
#           i(vin)     i(vcc)     i(vee)    
 27.       -7.6611u   -0.0025152  0.0025306 
#           p(vin)     p(vcc)     p(vee)    
 27.        586.9E-18 -0.030183  -0.030367  
