'c check 
v1 ( 1 0 ) pulse iv= 0. pv= 1. delay= 0. rise= 100.u fall= 100.u width= 1.K period= 1.K  AC  1.
r1 ( 1 2 )  0.1
c2 ( 2 0 )  0.1
#Time       v(1)       v(2)       timef(c2)  dtr(c2)    dt(c2)    
 0.         0.         0.         Inf        Inf        ??        
 0.001      0.99999    0.090647   0.0028037  0.0018037  699.81u   
 0.002      0.99999    0.17725    0.0046319  0.0026319  0.001     
 0.003      0.99999    0.25561    0.0059851  0.0029851  0.001     
 0.004      0.99999    0.3265     0.0072684  0.0032684  0.001     
 0.005      0.99999    0.39064    0.0085875  0.0035875  0.001     
 0.006      0.99999    0.44868    0.0098845  0.0038845  0.001     
 0.007      1.         0.50118    0.011167   0.0041672  0.001     
 0.008      1.         0.54869    0.012441   0.0044406  0.001     
 0.009      1.         0.59167    0.013708   0.0047081  0.001     
 0.01       1.         0.63056    0.014972   0.0049722  0.001     
#Time       v(1)       v(2)       timef(c2)  dtr(c2)    dt(c2)    
 0.         0.         0.         Inf        Inf        ??        
 0.01       1.         0.63155    0.014649   0.0046485  0.0022621 
 0.02       1.         0.86572    0.026793   0.0067927  0.0033333 
 0.03       1.         0.95166    0.039386   0.009386   0.005     
 0.04       1.         0.9826     0.052601   0.012601   0.005     
 0.05       1.         0.9942     0.065325   0.015325   0.01      
 0.06       1.         0.99807    0.080826   0.020826   0.01      
 0.07       1.         0.99936    0.095345   0.025345   0.01      
 0.08       1.         0.99979    0.11656    0.036559   0.01      
 0.09       1.         0.99993    0.14273    0.052729   0.01      
 0.1        1.         0.99998    0.17605    0.076049   0.01      
#Time       v(1)       v(2)       timef(c2)  dtr(c2)    dt(c2)    
 0.         0.         0.         Inf        Inf        ??        
 0.1        1.         0.99999    0.15402    0.054021   0.016731  
 0.2        1.         1.         0.50794    0.30794    0.05      
 0.3        1.         1.         1.2348     0.9348     0.1       
 0.4        1.         1.         1.9985     1.5985     0.1       
 0.5        1.         1.         2.9499     2.4499     0.1       
 0.6        1.         1.         3.4044     2.8044     0.1       
 0.7        1.         1.         3.9103     3.2103     0.1       
 0.8        1.         1.         4.4749     3.6749     0.1       
 0.9        1.         1.         5.1067     4.2067     0.1       
 1.         1.         1.         5.8154     4.8154     0.1       
#Time       v(1)       v(2)       timef(c2)  dtr(c2)    dt(c2)    
 0.         0.         0.         Inf        Inf        ??        
 2.n        20.u       4.p        6.2n       4.2n       2.n       
 6.2n       62.u       21.22p     9.7214n    3.5214n    4.2n      
 10.4n      104.u      56.08p     14.886n    4.486n     4.2n      
 14.6n      146.u      108.58p    464.74n    450.14n    4.2n      
 464.74n    0.0046473  107.99n    4.402u     3.9373u    450.14n   
 4.402u     0.04402    9.6868u    22.619u    18.217u    3.9373u   
 22.619u    0.22619    255.56u    78.393u    55.774u    18.217u   
 78.39u     0.78389    0.003063   209.38u    130.99u    55.771u   
 100.u      0.99999    0.0049818  288.82u    188.82u    21.61u    
 158.01u    0.99999    0.010737   196.17u    38.166u    58.006u   
 196.17u    0.99999    0.014505   252.22u    56.048u    38.165u   
 234.34u    0.99999    0.018259   0.0013649  0.0011306  38.165u   
 304.67u    0.99999    0.02514    0.0015514  0.0012467  70.337u   
 0.0015512  0.99999    0.13953    0.003626   0.0020749  0.0012465 
 0.0036226  0.99999    0.30104    0.0067961  0.0031735  0.0020715 
 0.0067958  0.99999    0.49246    0.010632   0.0038358  0.0031732 
 0.009969   1.         0.63146    0.014575   0.0046061  0.0031732 
 0.013142   1.         0.73239    0.018296   0.0051541  0.0031732 
 0.018282   1.         0.84181    0.024287   0.0060053  0.0051399 
 0.023422   1.         0.9065     0.030839   0.0074174  0.0051399 
 0.028562   1.         0.94473    0.036944   0.0083823  0.0051399 
 0.036936   1.         0.97735    0.047166   0.01023    0.0083745 
 0.045311   1.         0.99072    0.058758   0.013447   0.0083745 
 0.058757   1.         0.99818    0.075521   0.016764   0.013446  
 0.072203   1.         0.99964    0.097324   0.025121   0.013446  
 0.097279   1.         1.         0.13444    0.037163   0.025076  
 0.12235    1.         1.         0.19795    0.075594   0.025076  
 0.19549    1.         1.         0.36261    0.16712    0.073137  
 0.35639    1.         1.         0.92584    0.56944    0.1609    
 0.6782     1.         1.         3.0028     2.3246     0.3218    
 1.         1.         1.         5.5739     4.5739     0.3218    
 2.         1.         1.         10.025     8.0249     1.        
 3.         1.         1.         16.513     13.513     1.        
 4.         1.         1.         23.239     19.239     1.        
 5.         1.         1.         24.497     19.497     1.        
 6.         1.         1.         25.759     19.759     1.        
 7.         1.         1.         27.024     20.024     1.        
 8.         1.         1.         28.293     20.293     1.        
 9.         1.         1.         29.565     20.565     1.        
 10.        1.         1.         30.841     20.841     1.        
#Time       v(1)       v(2)       timef(c2)  dtr(c2)    dt(c2)    
 0.         0.         0.         Inf        Inf        ??        
 100.u      0.99999    0.0099009  840.n      840.n      100.u     
 840.n      0.0083999  705.53n    7.056n     7.056n     840.n     
 7.056n     70.559u    49.787p    1.1905n    1.1905n    7.056n    
 2.n        20.u       4.p        6.2n       4.2n       2.n       
 6.2n       62.u       21.22p     9.7214n    3.5214n    4.2n      
 10.4n      104.u      56.08p     14.886n    4.486n     4.2n      
 14.6n      146.u      108.58p    452.56n    437.95n    4.2n      
 452.56n    0.0045255  102.4n     2.2481u    1.7956u    437.95n   
 2.2481u    0.022481   2.5268u    7.8518u    5.6036u    1.7956u   
 7.8518u    0.078517   30.815u    20.935u    13.083u    5.6036u   
 20.935u    0.20935    218.96u    46.596u    25.661u    13.083u   
 46.596u    0.46595    0.0010837  90.786u    44.191u    25.661u   
 90.785u    0.90784    0.0041076  160.22u    69.433u    44.189u   
 100.u      0.99999    0.0049824  186.01u    86.015u    9.2153u   
 186.01u    0.99999    0.013504   117.99u    17.988u    86.013u   
 117.99u    0.99999    0.0067706  130.67u    12.681u    17.988u   
 130.67u    0.99999    0.0080293  144.5u     13.831u    12.681u   
 143.35u    0.99999    0.0092864  563.25u    419.9u     12.681u   
 156.03u    0.99999    0.010542   603.05u    447.02u    12.681u   
 602.99u    0.99999    0.053799   0.0012866  683.62u    446.96u   
 0.0012866  0.99999    0.11634    0.0023319  0.0010454  683.58u   
 0.0023312  0.99999    0.20407    0.0035641  0.0012329  0.0010447 
 0.0033759  0.99999    0.28309    0.0048306  0.0014547  0.0010447 
 0.0044206  0.99999    0.35427    0.0059978  0.0015772  0.0010447 
 0.0059959  0.99999    0.44856    0.0077364  0.0017405  0.0015753 
 0.0075712  1.         0.52909    0.0095798  0.0020086  0.0015753 
 0.0091465  1.         0.59785    0.011284   0.0021373  0.0015753 
 0.010722   1.         0.65657    0.013046   0.0023243  0.0015753 
 0.012297   1.         0.70672    0.014808   0.0025107  0.0015753 
 0.014804   1.         0.77205    0.017496   0.0026922  0.0025069 
 0.017311   1.         0.82283    0.020404   0.0030929  0.0025069 
 0.019818   1.         0.8623     0.023095   0.0032772  0.0025069 
 0.022324   1.         0.89297    0.025931   0.0036062  0.0025069 
 0.024831   1.         0.91681    0.028788   0.0039568  0.0025069 
 0.028779   1.         0.94424    0.033103   0.004324   0.0039481 
 0.032727   1.         0.96263    0.037806   0.0050785  0.0039481 
 0.036675   1.         0.97495    0.042205   0.005529   0.0039481 
 0.040624   1.         0.98321    0.046959   0.0063355  0.0039481 
 0.046935   1.         0.99126    0.054229   0.0072935  0.0063117 
 0.053247   1.         0.99546    0.062312   0.009065   0.0063117 
 0.059559   1.         0.99764    0.069994   0.010435   0.0063117 
 0.069893   1.         0.99925    0.08313    0.013237   0.010335  
 0.080228   1.         0.99976    0.098442   0.018215   0.010335  
 0.098262   1.         0.99999    0.12244    0.02418    0.018035  
 0.1163     1.         1.         0.15685    0.040555   0.018035  
 0.15647    1.         1.         0.22574    0.069277   0.040168  
 0.22135    1.         1.         0.47477    0.25341    0.064887  
 0.41601    1.         1.         1.5679     1.1518     0.19466   
 1.         1.         1.         4.599      3.599      0.58399   
 2.         1.         1.         12.665     10.665     1.        
 3.         1.         1.         22.8       19.8       1.        
 4.         1.         1.         27.458     23.458     1.        
 5.         1.         1.         28.773     23.773     1.        
 6.         1.         1.         30.092     24.092     1.        
 7.         1.         1.         31.416     24.416     1.        
 8.         1.         1.         32.744     24.744     1.        
 9.         1.         1.         34.076     25.076     1.        
 10.        1.         1.         35.412     25.412     1.        
Gnucap   System status
iterations: op=0, dc=0, tran=220, fourier=0, total=1031
transient timesteps: accepted=190, rejected=27, total=217
nodes: user=2, subckt=0, model=0, total=2
dctran density=100.0%, ac density=100.0%
