'c check 
v1 ( 1 0 ) pulse iv= 0. pv= 1. delay= 0. rise= 100.u fall= 100.u width= 1.K period= 1.K  AC  1.
r1 ( 1 2 )  0.1
c2 ( 2 0 )  0.1
#Time       v(1)       v(2)       timef(c2)  dtr(c2)    dt(c2)    
 0.         0.         0.         Inf        Inf        ??        
 0.001      0.99999    0.090647   0.0027983  0.0017983  701.25u   
 0.002      0.99999    0.17725    0.0046348  0.0026348  0.001     
 0.003      0.99999    0.25561    0.0059847  0.0029847  0.001     
 0.004      0.99999    0.3265     0.0072684  0.0032684  0.001     
 0.005      0.99999    0.39064    0.0085875  0.0035875  0.001     
 0.006      0.99999    0.44868    0.0098845  0.0038845  0.001     
 0.007      1.         0.50118    0.011167   0.0041672  0.001     
 0.008      1.         0.54869    0.012441   0.0044406  0.001     
 0.009      1.         0.59167    0.013708   0.0047081  0.001     
 0.01       1.         0.63056    0.014972   0.0049722  0.001     
#Time       v(1)       v(2)       timef(c2)  dtr(c2)    dt(c2)    
 0.         0.         0.         Inf        Inf        ??        
 0.01       1.         0.63155    0.014649   0.0046486  0.0022619 
 0.02       1.         0.86572    0.026793   0.0067927  0.0033333 
 0.03       1.         0.95166    0.039386   0.009386   0.005     
 0.04       1.         0.9826     0.052601   0.012601   0.005     
 0.05       1.         0.9942     0.065325   0.015325   0.01      
 0.06       1.         0.99807    0.080826   0.020826   0.01      
 0.07       1.         0.99936    0.095345   0.025345   0.01      
 0.08       1.         0.99979    0.11656    0.036559   0.01      
 0.09       1.         0.99993    0.14273    0.052729   0.01      
 0.1        1.         0.99998    0.17605    0.076049   0.01      
#Time       v(1)       v(2)       timef(c2)  dtr(c2)    dt(c2)    
 0.         0.         0.         Inf        Inf        ??        
 0.1        1.         0.99999    0.15337    0.053374   0.016946  
 0.2        1.         1.         0.51279    0.31279    0.05      
 0.3        1.         1.         1.2718     0.97181    0.1       
 0.4        1.         1.         2.0618     1.6618     0.1       
 0.5        1.         1.         3.0469     2.5469     0.1       
 0.6        1.         1.         3.5155     2.9155     0.1       
 0.7        1.         1.         4.0374     3.3374     0.1       
 0.8        1.         1.         4.6203     3.8203     0.1       
 0.9        1.         1.         5.2732     4.3732     0.1       
 1.         1.         1.         6.0061     5.0061     0.1       
#Time       v(1)       v(2)       timef(c2)  dtr(c2)    dt(c2)    
 0.         0.         0.         Inf        Inf        ??        
 2.4113n    24.112u    5.814p     5.8949n    3.4837n    2.4113n   
 4.8225n    48.225u    14.535p    8.9213n    4.0988n    2.4113n   
 8.9213n    89.212u    42.702p    12.604n    3.683n     4.0988n   
 13.02n     130.2u     87.668p    463.24n    450.22n    4.0988n   
 463.24n    0.0046324  107.3n     4.3918u    3.9285u    450.22n   
 4.3918u    0.043917   9.6418u    22.582u    18.19u     3.9285u   
 22.582u    0.22582    254.73u    78.293u    55.711u    18.19u    
 78.291u    0.7829     0.0030553  209.17u    130.87u    55.709u   
 100.u      0.99999    0.0049818  288.71u    188.71u    21.709u   
 147.17u    0.99999    0.0096646  183.76u    36.589u    47.174u   
 183.76u    0.99999    0.013281   233.67u    49.911u    36.588u   
 220.35u    0.99999    0.016885   0.001332   0.0011116  36.588u   
 283.86u    0.99999    0.023109   0.0014995  0.0012157  63.506u   
 0.0014986  0.99999    0.13498    0.0035459  0.0020473  0.0012147 
 0.0035447  0.99999    0.29554    0.00669    0.0031453  0.0020461 
 0.0066881  0.99999    0.4869     0.010502   0.0038144  0.0031434 
 0.0098315  1.         0.62628    0.014412   0.0045804  0.0031434 
 0.012975   1.         0.7278     0.018098   0.0051233  0.0031434 
 0.018089   1.         0.83866    0.024056   0.0059674  0.0051141 
 0.023203   1.         0.90437    0.030574   0.0073706  0.0051141 
 0.028317   1.         0.94332    0.036639   0.0083222  0.0051141 
 0.036622   1.         0.97658    0.046769   0.010147   0.008305  
 0.044927   1.         0.99032    0.058243   0.013316   0.008305  
 0.058192   1.         0.99804    0.074762   0.01657    0.013265  
 0.071457   1.         0.9996     0.09618    0.024723   0.013265  
 0.095892   1.         1.         0.13226    0.036364   0.024435  
 0.12033    1.         1.         0.19319    0.072859   0.024435  
 0.18799    1.         1.         0.34492    0.15693    0.067667  
 0.32333    1.         1.         0.85733    0.53401    0.13533   
 0.66166    1.         1.         2.9204     2.2587     0.33834   
 1.         1.         1.         5.8114     4.8114     0.33834   
 2.         1.         1.         10.962     8.9623     1.        
 3.         1.         1.         17.762     14.762     1.        
 4.         1.         1.         24.684     20.684     1.        
 5.         1.         1.         25.961     20.961     1.        
 6.         1.         1.         27.243     21.243     1.        
 7.         1.         1.         28.528     21.528     1.        
 8.         1.         1.         29.817     21.817     1.        
 9.         1.         1.         31.11      22.11      1.        
 10.        1.         1.         32.407     22.407     1.        
#Time       v(1)       v(2)       timef(c2)  dtr(c2)    dt(c2)    
 0.         0.         0.         Inf        Inf        ??        
 100.u      0.99999    0.0099009  840.n      840.n      100.u     
 833.33n    0.0083333  694.38n    7.n        7.n        833.33n   
 7.0028n    70.027u    49.039p    1.1995n    1.1995n    7.0028n   
 1.7507n    17.507u    3.065p     6.5488n    4.7981n    1.7507n   
 6.5488n    65.488u    22.976p    9.9348n    3.386n     4.7981n   
 9.9348n    99.347u    50.882p    14.638n    4.7035n    3.386n    
 13.321n    133.21u    90.254p    442.71n    429.39n    3.386n    
 442.71n    0.0044271  97.996n    2.2112u    1.7685u    429.39n   
 2.2112u    0.022112   2.4444u    7.7518u    5.5406u    1.7685u   
 7.7517u    0.077517   30.035u    20.72u     12.969u    5.5406u   
 20.72u     0.2072     214.5u     46.202u    25.482u    12.969u   
 46.201u    0.46201    0.0010655  90.138u    43.937u    25.481u   
 90.138u    0.90137    0.0040494  159.24u    69.099u    43.937u   
 100.u      0.99999    0.0049825  185.71u    85.712u    9.862u    
 185.71u    0.99999    0.013474   118.02u    18.021u    85.711u   
 117.14u    0.99999    0.0066867  129.92u    12.774u    17.142u   
 129.92u    0.99999    0.0079546  143.35u    13.435u    12.773u   
 142.69u    0.99999    0.009221   562.93u    420.24u    12.773u   
 155.46u    0.99999    0.010486   601.68u    446.22u    12.773u   
 601.62u    0.99999    0.05367    0.0012847  683.1u     446.16u   
 0.0012843  0.99999    0.11614    0.0023289  0.0010446  682.65u   
 0.0023279  0.99999    0.2038     0.0035601  0.0012322  0.0010436 
 0.0033715  0.99999    0.28277    0.0048255  0.001454   0.0010436 
 0.004415   0.99999    0.35391    0.0059915  0.0015765  0.0010436 
 0.0059903  0.99999    0.44825    0.0077301  0.0017398  0.0015753 
 0.0075656  1.         0.52882    0.0095737  0.0020081  0.0015753 
 0.0091409  1.         0.59763    0.011278   0.0021367  0.0015753 
 0.010716   1.         0.65638    0.01304    0.0023236  0.0015753 
 0.012292   1.         0.70656    0.014802   0.00251    0.0015753 
 0.014798   1.         0.77193    0.01749    0.0026916  0.0025069 
 0.017305   1.         0.82273    0.020397   0.0030922  0.0025069 
 0.019812   1.         0.86222    0.023089   0.0032765  0.0025069 
 0.022319   1.         0.89291    0.025924   0.0036055  0.0025069 
 0.024826   1.         0.91677    0.028782   0.003956   0.0025069 
 0.028774   1.         0.94421    0.033097   0.0043232  0.0039481 
 0.032722   1.         0.96261    0.0378     0.0050775  0.0039481 
 0.03667    1.         0.97494    0.042198   0.005528   0.0039481 
 0.040618   1.         0.9832     0.046953   0.0063344  0.0039481 
 0.04693    1.         0.99126    0.054222   0.0072922  0.0063117 
 0.053242   1.         0.99545    0.062305   0.0090633  0.0063117 
 0.059553   1.         0.99763    0.069987   0.010434   0.0063117 
 0.069888   1.         0.99925    0.083122   0.013234   0.010335  
 0.080222   1.         0.99976    0.098434   0.018212   0.010335  
 0.098257   1.         0.99999    0.12243    0.024176   0.018035  
 0.11629    1.         1.         0.15684    0.040548   0.018035  
 0.15646    1.         1.         0.22573    0.069266   0.040169  
 0.22135    1.         1.         0.47472    0.25338    0.064888  
 0.41601    1.         1.         1.5677     1.1517     0.19466   
 1.         1.         1.         4.5985     3.5985     0.58399   
 2.         1.         1.         12.664     10.664     1.        
 3.         1.         1.         22.798     19.798     1.        
 4.         1.         1.         27.455     23.455     1.        
 5.         1.         1.         28.77      23.77      1.        
 6.         1.         1.         30.089     24.089     1.        
 7.         1.         1.         31.413     24.413     1.        
 8.         1.         1.         32.74      24.74      1.        
 9.         1.         1.         34.072     25.072     1.        
 10.        1.         1.         35.409     25.409     1.        
Gnucap   System status
iterations: op=0, dc=0, tran=220, fourier=0, total=1030
transient timesteps: accepted=190, rejected=27, total=217
nodes: user=2, subckt=0, model=0, total=2
dctran density=100.0%, ac density=100.0%
