'c check 
v1 ( 1 0 ) pulse iv= 0. pv= 1. delay= 0. rise= 100.u fall= 100.u width= 1.K period= 1.K  AC  1.
r1 ( 1 2 )  0.1
c2 ( 2 0 )  0.1
#Time       v(1)       v(2)       timef(c2)  dtr(c2)    dt(c2)    
 0.         0.         0.         Inf        Inf        ??        
 0.001      0.99999    0.090647   0.0028037  0.0018037  699.81u   
 0.002      0.99999    0.17725    0.0046319  0.0026319  0.001     
 0.003      0.99999    0.25561    0.0059851  0.0029851  0.001     
 0.004      0.99999    0.3265     0.0072684  0.0032684  0.001     
 0.005      0.99999    0.39064    0.0085875  0.0035875  0.001     
 0.006      0.99999    0.44868    0.0098845  0.0038845  0.001     
 0.007      1.         0.50118    0.011167   0.0041672  0.001     
 0.008      1.         0.54869    0.012441   0.0044406  0.001     
 0.009      1.         0.59167    0.013708   0.0047081  0.001     
 0.01       1.         0.63056    0.014972   0.0049722  0.001     
#Time       v(1)       v(2)       timef(c2)  dtr(c2)    dt(c2)    
 0.         0.         0.         Inf        Inf        ??        
 0.01       1.         0.63155    0.014648   0.0046485  0.0022623 
 0.02       1.         0.86584    0.026939   0.0069385  0.00375   
 0.03       1.         0.9517     0.039254   0.0092543  0.005     
 0.04       1.         0.98261    0.052605   0.012605   0.005     
 0.05       1.         0.9942     0.06533    0.01533    0.01      
 0.06       1.         0.99807    0.080832   0.020832   0.01      
 0.07       1.         0.99936    0.095352   0.025352   0.01      
 0.08       1.         0.99979    0.11657    0.036569   0.01      
 0.09       1.         0.99993    0.14274    0.052745   0.01      
 0.1        1.         0.99998    0.17607    0.076072   0.01      
#Time       v(1)       v(2)       timef(c2)  dtr(c2)    dt(c2)    
 0.         0.         0.         Inf        Inf        ??        
 0.1        1.         0.99999    0.15402    0.054021   0.016731  
 0.2        1.         1.         0.50794    0.30794    0.05      
 0.3        1.         1.         1.2348     0.9348     0.1       
 0.4        1.         1.         1.9985     1.5985     0.1       
 0.5        1.         1.         2.9499     2.4499     0.1       
 0.6        1.         1.         3.4044     2.8044     0.1       
 0.7        1.         1.         3.9103     3.2103     0.1       
 0.8        1.         1.         4.4749     3.6749     0.1       
 0.9        1.         1.         5.1067     4.2067     0.1       
 1.         1.         1.         5.8154     4.8154     0.1       
#Time       v(1)       v(2)       timef(c2)  dtr(c2)    dt(c2)    
 0.         0.         0.         Inf        Inf        ??        
 2.n        20.u       4.p        6.2n       4.2n       2.n       
 6.n        59.999u    20.p       9.5497n    3.5497n    4.n       
 10.n       99.999u    51.999p    14.38n     4.3795n    4.n       
 14.n       140.u      99.999p    451.95n    437.95n    4.n       
 452.n      0.00452    102.15n    4.3167u    3.8647u    438.n     
 4.317u     0.04317    9.3163u    22.293u    17.976u    3.865u    
 22.293u    0.22293    248.25u    77.514u    55.221u    17.976u   
 77.513u    0.77512    0.0029949  207.49u    129.98u    55.22u    
 100.u      0.99999    0.0049818  287.88u    187.88u    22.487u   
 157.97u    0.99999    0.010733   196.3u     38.331u    57.973u   
 196.3u     0.99999    0.014518   251.98u    55.679u    38.331u   
 234.64u    0.99999    0.018288   0.0013661  0.0011315  38.331u   
 305.67u    0.99999    0.025237   0.0015536  0.001248   71.032u   
 0.0015522  0.99999    0.13961    0.0036278  0.0020757  0.0012465 
 0.0036236  0.99999    0.30111    0.0067973  0.0031737  0.0020715 
 0.0067968  0.99999    0.49251    0.010633   0.0038361  0.0031732 
 0.00997    1.         0.63149    0.014576   0.0046063  0.0031732 
 0.013143   1.         0.73241    0.018297   0.0051543  0.0031732 
 0.018283   1.         0.84183    0.024289   0.0060055  0.0051399 
 0.023423   1.         0.90651    0.030841   0.0074177  0.0051399 
 0.028563   1.         0.94474    0.036945   0.0083826  0.0051399 
 0.036937   1.         0.97736    0.047168   0.01023    0.0083745 
 0.045312   1.         0.99072    0.058759   0.013447   0.0083745 
 0.058758   1.         0.99818    0.075522   0.016764   0.013446  
 0.072204   1.         0.99964    0.097326   0.025122   0.013446  
 0.09728    1.         1.         0.13444    0.037164   0.025076  
 0.12236    1.         1.         0.19795    0.075597   0.025076  
 0.19549    1.         1.         0.36262    0.16713    0.073137  
 0.35639    1.         1.         0.92586    0.56946    0.1609    
 0.6782     1.         1.         3.0029     2.3247     0.3218    
 1.         1.         1.         5.574      4.574      0.3218    
 2.         1.         1.         10.025     8.0252     1.        
 3.         1.         1.         16.513     13.513     1.        
 4.         1.         1.         23.239     19.239     1.        
 5.         1.         1.         24.498     19.498     1.        
 6.         1.         1.         25.76      19.76      1.        
 7.         1.         1.         27.025     20.025     1.        
 8.         1.         1.         28.294     20.294     1.        
 9.         1.         1.         29.566     20.566     1.        
 10.        1.         1.         30.842     20.842     1.        
#Time       v(1)       v(2)       timef(c2)  dtr(c2)    dt(c2)    
 0.         0.         0.         Inf        Inf        ??        
 100.u      0.99999    0.0099009  840.n      840.n      100.u     
 840.n      0.0083999  705.53n    7.056n     7.056n     840.n     
 7.n        69.999u    48.999p    1.2n       1.2n       7.n       
 2.n        20.u       4.p        6.2n       4.2n       2.n       
 6.n        59.999u    20.p       9.5497n    3.5497n    4.n       
 10.n       99.999u    51.999p    14.38n     4.3795n    4.n       
 14.n       140.u      99.999p    451.95n    437.95n    4.n       
 452.n      0.00452    102.15n    2.2459u    1.7939u    438.n     
 2.246u     0.02246    2.522u     7.8465u    5.6005u    1.794u    
 7.846u     0.078459   30.77u     20.922u    13.076u    5.6u      
 20.922u    0.20922    218.69u    46.573u    25.651u    13.076u   
 46.573u    0.46573    0.0010827  90.749u    44.176u    25.651u   
 90.749u    0.90748    0.0041044  160.16u    69.415u    44.176u   
 100.u      0.99999    0.0049824  186.u      85.998u    9.251u    
 185.99u    0.99999    0.013502   117.99u    17.989u    85.991u   
 117.99u    0.99999    0.0067708  130.68u    12.688u    17.989u   
 130.68u    0.99999    0.0080302  144.5u     13.825u    12.688u   
 143.37u    0.99999    0.009288   563.3u     419.94u    12.688u   
 156.05u    0.99999    0.010544   603.11u    447.05u    12.688u   
 603.01u    0.99999    0.053802   0.0012866  683.63u    446.96u   
 0.0012866  0.99999    0.11634    0.002332   0.0010454  683.58u   
 0.0023313  0.99999    0.20407    0.0035641  0.0012329  0.0010447 
 0.003376   0.99999    0.28309    0.0048306  0.0014547  0.0010447 
 0.0044206  0.99999    0.35427    0.0059979  0.0015772  0.0010447 
 0.0059959  0.99999    0.44856    0.0077364  0.0017405  0.0015753 
 0.0075712  1.         0.52909    0.0095798  0.0020086  0.0015753 
 0.0091465  1.         0.59785    0.011284   0.0021373  0.0015753 
 0.010722   1.         0.65658    0.013046   0.0023243  0.0015753 
 0.012297   1.         0.70672    0.014808   0.0025107  0.0015753 
 0.014804   1.         0.77206    0.017496   0.0026922  0.0025069 
 0.017311   1.         0.82283    0.020404   0.0030929  0.0025069 
 0.019818   1.         0.8623     0.023095   0.0032772  0.0025069 
 0.022324   1.         0.89297    0.025931   0.0036062  0.0025069 
 0.024831   1.         0.91681    0.028788   0.0039568  0.0025069 
 0.028779   1.         0.94424    0.033103   0.004324   0.0039481 
 0.032727   1.         0.96263    0.037806   0.0050785  0.0039481 
 0.036676   1.         0.97495    0.042205   0.005529   0.0039481 
 0.040624   1.         0.98321    0.046959   0.0063355  0.0039481 
 0.046935   1.         0.99126    0.054229   0.0072935  0.0063117 
 0.053247   1.         0.99546    0.062312   0.009065   0.0063117 
 0.059559   1.         0.99764    0.069994   0.010435   0.0063117 
 0.069893   1.         0.99925    0.08313    0.013237   0.010335  
 0.080228   1.         0.99976    0.098442   0.018215   0.010335  
 0.098262   1.         0.99999    0.12244    0.02418    0.018035  
 0.1163     1.         1.         0.15685    0.040555   0.018035  
 0.15647    1.         1.         0.22574    0.069278   0.040168  
 0.22135    1.         1.         0.47477    0.25341    0.064887  
 0.41601    1.         1.         1.5679     1.1518     0.19466   
 1.         1.         1.         4.599      3.599      0.58399   
 2.         1.         1.         12.665     10.665     1.        
 3.         1.         1.         22.8       19.8       1.        
 4.         1.         1.         27.458     23.458     1.        
 5.         1.         1.         28.773     23.773     1.        
 6.         1.         1.         30.092     24.092     1.        
 7.         1.         1.         31.416     24.416     1.        
 8.         1.         1.         32.744     24.744     1.        
 9.         1.         1.         34.076     25.076     1.        
 10.        1.         1.         35.412     25.412     1.        
Gnucap   System status
iterations: op=0, dc=0, tran=220, fourier=0, total=1031
transient timesteps: accepted=190, rejected=27, total=217
nodes: user=2, subckt=0, model=0, total=2
dctran density=100.0%, ac density=100.0%
