' cap with initial condition 
c1 ( 1 0 )  1. ic= 3.
r1 ( 1 0 )  1.
c2 ( 2 0 )  1. ic= 3.
I2 ( 2 0 )  DC  0.
c3 ( 3 0 )  1. ic= 3.
I3 ( 3 0 )  DC  1.
c4 ( 4 0 )  1. ic= 3.
c4a ( 4 0 )  1.
c5 ( 5 0 )  1. ic= 3.
c5a ( 5 0 )  1.
I5 ( 5 0 )  DC  1.
#Time       v(1)       v(2)       v(3)       v(4)       v(5)      
 0.         0.         0.         0.         0.         0.        
 1.         1.0973     3.         2.         1.5        1.        
 2.         0.40133    3.         1.         1.5        0.5       
 3.         0.14626    3.        -3.6602u    1.5       -2.9604u   
 4.         0.053301   3.        -1.         1.5       -0.5       
 5.         0.019424   3.        -2.         1.5       -1.        
 6.         0.0070785  3.        -3.         1.5       -1.5       
 7.         0.0025794  3.        -4.         1.5       -2.        
 8.         939.75u    3.        -5.         1.5       -2.5       
 9.         342.21u    3.        -6.         1.5       -3.        
 10.        124.45u    3.        -7.         1.5       -3.5       
#Time       v(1)       v(2)       v(3)       v(4)       v(5)      
 10.        124.51u    3.        -7.         1.5       -3.5       
 11.        45.388u    3.        -8.         1.5       -4.        
 12.        16.541u    3.        -9.         1.5       -4.5       
 13.        6.0278u    3.        -10.        1.5       -5.        
 14.        2.1965u    3.        -11.        1.5       -5.5       
 15.        800.19n    3.        -12.        1.5       -6.        
 16.        292.64n    3.        -13.        1.5       -6.5       
 17.        106.65n    3.        -14.        1.5       -7.        
 18.        38.866n    3.        -15.        1.5       -7.5       
 19.        14.164n    3.        -16.        1.5       -8.        
 20.        5.1618n    3.        -17.        1.5       -8.5       
Gnucap   System status
iterations: op=0, dc=0, tran=130, fourier=0, total=385
transient timesteps: accepted=72, rejected=7, total=79
nodes: user=5, subckt=0, model=0, total=5
dctran density=20.0%, ac density=20.0%
