'c check 
v1 ( 1 0 ) pulse iv= 0. pv= 1. delay= 0. rise= 100.u fall= 100.u width= 1.K period= 1.K  AC  1.
r1 ( 1 2 )  0.1
c2 ( 2 0 )  0.1
#Time       v(1)       v(2)       timef(c2)  dtr(c2)    dt(c2)    
 0.         0.         0.         Inf        Inf        ??        
 0.001      0.99999    0.090691   0.0028161  0.0018161  685.71u   
 0.002      0.99999    0.17729    0.0046201  0.0026201  0.001     
 0.003      0.99999    0.25564    0.0059891  0.0029891  0.001     
 0.004      0.99999    0.32653    0.0072686  0.0032686  0.001     
 0.005      0.99999    0.39067    0.0085876  0.0035876  0.001     
 0.006      0.99999    0.4487     0.0098846  0.0038846  0.001     
 0.007      1.         0.50121    0.011167   0.0041673  0.001     
 0.008      1.         0.54871    0.012441   0.0044407  0.001     
 0.009      1.         0.59169    0.013708   0.0047082  0.001     
 0.01       1.         0.63058    0.014972   0.0049723  0.001     
#Time       v(1)       v(2)       timef(c2)  dtr(c2)    dt(c2)    
 0.         0.         0.         Inf        Inf        ??        
 0.01       1.         0.63431    0.014727   0.0047268  0.0031667 
 0.02       1.         0.86674    0.026841   0.006841   0.0034167 
 0.03       1.         0.95202    0.039384   0.0093835  0.005     
 0.04       1.         0.98273    0.052634   0.012634   0.005     
 0.05       1.         0.99424    0.065364   0.015364   0.01      
 0.06       1.         0.99808    0.080879   0.020879   0.01      
 0.07       1.         0.99936    0.095409   0.025409   0.01      
 0.08       1.         0.99979    0.11665    0.036651   0.01      
 0.09       1.         0.99993    0.14286    0.052862   0.01      
 0.1        1.         0.99998    0.17624    0.076241   0.01      
#Time       v(1)       v(2)       timef(c2)  dtr(c2)    dt(c2)    
 0.         0.         0.         Inf        Inf        ??        
 0.1        1.         0.99999    0.15367    0.053671   0.014685  
 0.2        1.         1.         0.51646    0.31646    0.05      
 0.3        1.         1.         1.1134     0.81336    0.1       
 0.4        1.         1.         1.7908     1.3908     0.1       
 0.5        1.         1.         2.6316     2.1316     0.1       
 0.6        1.         1.         3.0401     2.4401     0.1       
 0.7        1.         1.         3.4932     2.7932     0.1       
 0.8        1.         1.         3.9974     3.1974     0.1       
 0.9        1.         1.         4.5602     3.6602     0.1       
 1.         1.         1.         5.1898     4.1898     0.1       
#Time       v(1)       v(2)       timef(c2)  dtr(c2)    dt(c2)    
 0.         0.         0.         Inf        Inf        ??        
 100.u      0.99999    0.0099009  200.u      100.u      100.u     
 200.u      0.99999    0.019753   300.u      100.u      100.u     
 300.u      0.99999    0.029506   400.u      100.u      100.u     
 400.u      0.99999    0.039163   0.0018997  0.0014997  100.u     
 500.u      0.99999    0.048723   0.0021183  0.0016183  100.u     
 0.0021173  0.99999    0.19106    0.0044527  0.0023354  0.0016173 
 0.0037346  0.99999    0.3121     0.007196   0.0034614  0.0016173 
 0.0071939  1.         0.51497    0.010992   0.0037979  0.0034593 
 0.010653   1.         0.65801    0.015501   0.0048474  0.0034593 
 0.014112   1.         0.75887    0.01942    0.005308   0.0034593 
 0.019413   1.         0.8599     0.025636   0.0062235  0.0053005 
 0.024713   1.         0.9186     0.032395   0.0076813  0.0053005 
 0.030014   1.         0.95271    0.038772   0.0087585  0.0053005 
 0.038752   1.         0.98147    0.049504   0.010751   0.0087386 
 0.047491   1.         0.99274    0.061742   0.014251   0.0087386 
 0.061708   1.         0.99877    0.079642   0.017934   0.014217  
 0.075924   1.         0.99979    0.10333    0.027403   0.014217  
 0.1031     1.         1.         0.14461    0.041512   0.027179  
 0.14387    1.         0.99999    0.23807    0.094204   0.040768  
 0.22948    1.         1.         0.46997    0.24049    0.085613  
 0.42211    1.         0.99999    1.1672     0.74506    0.19263   
 1.         1.         1.         3.2401     2.2401     0.57789   
 2.         1.         1.         7.8582     5.8582     1.        
 3.         1.         1.         13.934     10.934     1.        
 4.         1.         1.         16.995     12.995     1.        
 5.         1.         1.         18.17      13.17      1.        
 6.         1.         1.         19.346     13.346     1.        
 7.         1.         1.         20.525     13.525     1.        
 8.         1.         1.         21.707     13.707     1.        
 9.         1.         1.         22.891     13.891     1.        
 10.        1.         1.         24.078     14.078     1.        
#Time       v(1)       v(2)       timef(c2)  dtr(c2)    dt(c2)    
 0.         0.         0.         Inf        Inf        ??        
 100.u      0.99999    0.0099009  200.u      100.u      100.u     
 200.u      0.99999    0.019753   300.u      100.u      100.u     
 300.u      0.99999    0.029506   400.u      100.u      100.u     
 400.u      0.99999    0.039163   0.0010961  696.08u    100.u     
 500.u      0.99999    0.048723   0.0012512  751.16u    100.u     
 0.0012509  0.99999    0.11757    0.0021771  926.2u     750.94u   
 0.0020019  0.99999    0.18144    0.0032933  0.0012914  750.94u   
 0.0032929  0.99999    0.28071    0.0046663  0.0013733  0.0012911 
 0.004584   0.99999    0.36794    0.0062327  0.0016487  0.0012911 
 0.0058751  0.99999    0.4446     0.0076407  0.0017656  0.0012911 
 0.0071662  1.         0.51196    0.0090983  0.0019322  0.0012911 
 0.0084572  1.         0.57114    0.010549   0.0020922  0.0012911 
 0.010549   1.         0.65236    0.012798   0.0022491  0.0020919 
 0.012641   1.         0.71819    0.015228   0.0025875  0.0020919 
 0.014733   1.         0.77156    0.017464   0.002731   0.0020919 
 0.016825   1.         0.81482    0.019807   0.0029827  0.0020919 
 0.018917   1.         0.84989    0.022161   0.0032442  0.0020919 
 0.022154   1.         0.89172    0.025662   0.0035076  0.0032379 
 0.025392   1.         0.9219     0.02945    0.0040582  0.0032379 
 0.02863    1.         0.94366    0.032989   0.0043591  0.0032379 
 0.031868   1.         0.95936    0.036756   0.0048874  0.0032379 
 0.036733   1.         0.97526    0.04221    0.0054766  0.004865  
 0.041598   1.         0.98494    0.048151   0.006553   0.004865  
 0.046463   1.         0.99084    0.053791   0.0073284  0.004865  
 0.053742   1.         0.99573    0.062473   0.0087313  0.0072789 
 0.061021   1.         0.99801    0.072136   0.011115   0.0072789 
 0.072068   1.         0.99943    0.085575   0.013507   0.011047  
 0.083115   1.         0.99983    0.10215    0.019039   0.011047  
 0.10183    1.         0.99999    0.12802    0.026193   0.018712  
 0.12054    1.         1.         0.16573    0.045192   0.018712  
 0.16451    1.         1.         0.24522    0.080709   0.043973  
 0.24047    1.         1.         0.59394    0.35348    0.075953  
 0.49364    1.         1.         2.4961     2.0024     0.25318   
 1.         1.         1.         6.8622     5.8622     0.50636   
 2.         1.         1.         17.317     15.317     1.        
 3.         1.         1.         29.509     26.509     1.        
 4.         1.         1.         36.78      32.78      1.        
 5.         1.         1.         38.22      33.22      1.        
 6.         1.         1.         39.666     33.666     1.        
 7.         1.         1.         41.118     34.118     1.        
 8.         1.         1.         42.576     34.576     1.        
 9.         1.         1.         44.04      35.04      1.        
 10.        1.         1.         45.51      35.51      1.        
Gnucap   System status
iterations: op=0, dc=0, tran=161, fourier=0, total=707
transient timesteps: accepted=150, rejected=1, total=151
nodes: user=2, subckt=0, model=0, total=2
dctran density=100.0%, ac density=100.0%
