Mutual inductance test circuit 
v1 ( 1 0 ) pulse iv= 0. pv= 1. delay= 0.002 rise= 0.002 fall= 0.002 width= 0.002 period= 0.01  AC  1.
r1a ( 1 2 )  22.
l1a ( 2 0 )  0.56
l1b ( 3 0 )  0.79
k1 ( l1a l1b ) .75
r1b ( 3 0 )  75.
v2 ( 4 0 ) pulse iv= 0. pv= 1. delay= 0.002 rise= 0.002 fall= 0.002 width= 0.002 period= 0.01  AC  1.
r2a ( 4 5 )  22.
l2a ( 5 6 )  0.061151326
l2b ( 6 0 )  0.498848674
l2c ( 6 7 )  0.291151326
r2b ( 7 0 )  75.
v3 ( 8 0 ) pulse iv= 0. pv= 1. delay= 0.002 rise= 0.002 fall= 0.002 width= 0.002 period= 0.01  AC  1.
r3a ( 8 9 )  22.
l3a ( 10 0 )  0.56
l3b ( 11 0 )  0.79
e3a ( 9 10 11 0 )  0.631454018
e3b ( 12 11 10 0 )  0.890801204
r3b ( 12 0 )  75.
#Freq       v(2)       v(3)       v(5)       v(7)       v(9)       v(12)     
 0.1        0.01599    0.014244   0.01599    0.014244   0.01599    0.014244  
 0.31623    0.050473   0.044959   0.050473   0.044959   0.050473   0.044959  
 1.         0.15675    0.13958    0.15675    0.13958    0.15675    0.13958   
 3.1623     0.42608    0.37797    0.42608    0.37797    0.42608    0.37797   
 10.        0.71644    0.61303    0.71644    0.61303    0.71644    0.61303   
 31.623     0.85509    0.56179    0.85509    0.56179    0.85509    0.56179   
 100.       0.96752    0.28135    0.96752    0.28135    0.96752    0.28135   
 316.23     0.99627    0.096351   0.99627    0.096351   0.99627    0.096351  
 1.K        0.99962    0.030735   0.99962    0.030735   0.99962    0.030735  
#Time       v(2)       v(3)       v(5)       v(7)       v(9)       v(12)     
 0.         0.         0.         0.         0.         0.         0.        
 0.001      0.         0.         0.         0.         0.         0.        
 0.002      0.         0.         0.         0.         0.         0.        
 0.003      0.47904    0.043701   0.47904    0.043701   0.47904    0.043701  
 0.004      0.92137    0.15871    0.92137    0.15871    0.92137    0.15871   
 0.005      0.85441    0.28165    0.85441    0.28165    0.85441    0.28165   
 0.006      0.79887    0.37004    0.79887    0.37004    0.79887    0.37004   
 0.007      0.2731     0.38867    0.2731     0.38867    0.2731     0.38867   
 0.008     -0.20913    0.31635   -0.20913    0.31635   -0.20913    0.31635   
 0.009     -0.17675    0.22133   -0.17675    0.22133   -0.17675    0.22133   
 0.01      -0.15163    0.14979   -0.15163    0.14979   -0.15163    0.14979   
v1 ( 1 0 ) pulse iv= 0. pv= 1. delay= 0.002 rise= 0.002 fall= 0.002 width= 0.002 period= 0.01  AC  1.
r1a ( 1 2 )  22.
l1a ( 2 0 )  0.56
l1b ( 3 0 )  0.79
k1 ( l1a l1b ) .75
r1b ( 3 0 )  75.
v2 ( 4 0 ) pulse iv= 0. pv= 1. delay= 0.002 rise= 0.002 fall= 0.002 width= 0.002 period= 0.01  AC  1.
r2a ( 4 5 )  22.
l2a ( 5 6 )  0.061151326
l2b ( 6 0 )  0.498848674
l2c ( 6 7 )  0.291151326
r2b ( 7 0 )  75.
v3 ( 8 0 ) pulse iv= 0. pv= 1. delay= 0.002 rise= 0.002 fall= 0.002 width= 0.002 period= 0.01  AC  1.
r3a ( 8 9 )  22.
l3a ( 10 0 )  0.56
l3b ( 11 0 )  0.79
e3a ( 9 10 11 0 )  0.631454018
e3b ( 12 11 10 0 )  0.890801204
r3b ( 12 0 )  75.
Gnucap   System status
iterations: op=0, dc=0, tran=362, fourier=0, total=494
transient timesteps: accepted=120, rejected=3, total=123
nodes: user=12, subckt=0, model=3, total=15
dctran density=36.0%, ac density=36.0%
