Mutual inductance test circuit 
* using 'k' pseudo element 
.subckt trans2a ( a1 a2 b1 b2 )
k1 ( l1 l2 ) K12
l1 ( a1 a2 ) L1
l2 ( b1 b2 ) L2
.ends trans2a
* T model, requires a common terminal 
.subckt trans2b ( a com b )
l2a ( a 6 ) L1-M12
l2b ( 6 com ) M12
l2c ( 6 b ) L2-M12
.ends trans2b
* series model, using VCVS 
.subckt trans2c ( a1 a2 b1 b2 )
l3a ( 10 a2 ) L1
l3b ( 11 b2 ) L2
e3a ( a1 10 11 b2 ) M12/L2
e3b ( b1 11 10 a2 ) M12/L1
.ends trans2c
* parallel model, using CCCS 
.subckt trans2d ( a1 a2 b1 b2 )
l1 ( a1 a2 ) (1-K12*K12)*L1
l2 ( b1 b2 ) (1-K12*K12)*L2
f1 ( a1 a2 l2 ) -M12/L1
f2 ( b1 b2 l1 ) -M12/L2
.ends trans2d
* parallel model, using CCCS, split apart 
.subckt trans2e ( a1 a2 b1 b2 )
l1 ( a1 a2 ) L1
l2 ( b1 b2 ) L2
l1m ( a1 a2 ) (1/(K12*K12)-1)*L1
l2m ( b1 b2 ) (1/(K12*K12)-1)*L2
f1 ( a1 a2 l2 ) -(M12/L1)
f2 ( b1 b2 l1 ) -(M12/L2)
f1m ( a1 a2 l2m ) -(M12/L1)
f2m ( b1 b2 l1m ) -(M12/L2)
.ends trans2e
* nullor model 
.subckt trans2f ( a1 a2 b1 b2 )
r1l1 ( a1 0 )  1.
r2l1 ( a1 a3 ) -1.
r3l1 ( a3 a2 )  1.
r4l1 ( a2 0 ) -1.
r1l2 ( b1 0 )  1.
r2l2 ( b1 b3 ) -1.
r3l2 ( b3 b2 )  1.
r4l2 ( b2 0 ) -1.
c1 ( a3 0 ) -L1-M12
c2 ( b3 0 ) -L2-M12
c3 ( a3 b3 ) M12
.ends trans2f
v1 ( 1 0 ) pulse iv= 0. pv= 1. delay= 0.002 rise= 0.002 fall= 0.002 width= 0.002 period= 0.01  AC  1.
r1a ( 1 2 ) Rsource
x1 ( 2 0 3 0 )  trans2a  k12=K12 l1=L1 l2=L2
r1b ( 3 0 ) Rload
v2 ( 4 0 ) pulse iv= 0. pv= 1. delay= 0.002 rise= 0.002 fall= 0.002 width= 0.002 period= 0.01  AC  1.
r2a ( 4 5 ) Rsource
x2 ( 5 0 7 0 )  trans2f  k12=K12 l1=L1 l2=L2
r2b ( 7 0 ) Rload
v3 ( 8 0 ) pulse iv= 0. pv= 1. delay= 0.002 rise= 0.002 fall= 0.002 width= 0.002 period= 0.01  AC  1.
r3a ( 8 9 ) Rsource
x3 ( 9 0 12 0 )  trans2e  k12=K12 l1=L1 l2=L2
r3b ( 12 0 ) Rload
#Freq       v(2)       v(3)       v(5)       v(7)       v(9)       v(12)     
 0.1        0.01599    0.014244   0.01599    0.014244   0.01599    0.014244  
 0.31623    0.050473   0.044959   0.050473   0.044959   0.050473   0.044959  
 1.         0.15675    0.13958    0.15675    0.13958    0.15675    0.13958   
 3.1623     0.42608    0.37797    0.42608    0.37797    0.42608    0.37797   
 10.        0.71644    0.61303    0.71644    0.61303    0.71644    0.61303   
 31.623     0.85509    0.56179    0.85509    0.56179    0.85509    0.56179   
 100.       0.96752    0.28135    0.96752    0.28135    0.96752    0.28135   
 316.23     0.99627    0.096351   0.99627    0.096351   0.99627    0.096351  
 1.K        0.99962    0.030735   0.99962    0.030735   0.99962    0.030735  
#Time       v(2)       v(3)       v(5)       v(7)       v(9)       v(12)     
 0.         0.         0.         0.         0.         0.         0.        
 0.001      0.         0.         0.         0.         0.         0.        
 0.002      0.         0.         0.         0.         0.         0.        
 0.003      0.47904    0.043701   0.47904    0.043701   0.47904    0.043701  
 0.004      0.92137    0.15871    0.92137    0.15871    0.92137    0.15871   
 0.005      0.85441    0.28165    0.85441    0.28165    0.85441    0.28165   
 0.006      0.79887    0.37004    0.79887    0.37004    0.79887    0.37004   
 0.007      0.2731     0.38867    0.2731     0.38867    0.2731     0.38867   
 0.008     -0.20913    0.31635   -0.20913    0.31635   -0.20913    0.31635   
 0.009     -0.17675    0.22133   -0.17675    0.22133   -0.17675    0.22133   
 0.01      -0.15163    0.14979   -0.15163    0.14979   -0.15163    0.14979   
* using 'k' pseudo element 
.subckt trans2a ( a1 a2 b1 b2 )
k1 ( l1 l2 ) K12
l1 ( a1 a2 ) L1
l2 ( b1 b2 ) L2
.ends trans2a
* T model, requires a common terminal 
.subckt trans2b ( a com b )
l2a ( a 6 ) L1-M12
l2b ( 6 com ) M12
l2c ( 6 b ) L2-M12
.ends trans2b
* series model, using VCVS 
.subckt trans2c ( a1 a2 b1 b2 )
l3a ( 10 a2 ) L1
l3b ( 11 b2 ) L2
e3a ( a1 10 11 b2 ) M12/L2
e3b ( b1 11 10 a2 ) M12/L1
.ends trans2c
* parallel model, using CCCS 
.subckt trans2d ( a1 a2 b1 b2 )
l1 ( a1 a2 ) (1-K12*K12)*L1
l2 ( b1 b2 ) (1-K12*K12)*L2
f1 ( a1 a2 l2 ) -M12/L1
f2 ( b1 b2 l1 ) -M12/L2
.ends trans2d
* parallel model, using CCCS, split apart 
.subckt trans2e ( a1 a2 b1 b2 )
l1 ( a1 a2 ) L1
l2 ( b1 b2 ) L2
l1m ( a1 a2 ) (1/(K12*K12)-1)*L1
l2m ( b1 b2 ) (1/(K12*K12)-1)*L2
f1 ( a1 a2 l2 ) -(M12/L1)
f2 ( b1 b2 l1 ) -(M12/L2)
f1m ( a1 a2 l2m ) -(M12/L1)
f2m ( b1 b2 l1m ) -(M12/L2)
.ends trans2e
* nullor model 
.subckt trans2f ( a1 a2 b1 b2 )
r1l1 ( a1 0 )  1.
r2l1 ( a1 a3 ) -1.
r3l1 ( a3 a2 )  1.
r4l1 ( a2 0 ) -1.
r1l2 ( b1 0 )  1.
r2l2 ( b1 b3 ) -1.
r3l2 ( b3 b2 )  1.
r4l2 ( b2 0 ) -1.
c1 ( a3 0 ) -L1-M12
c2 ( b3 0 ) -L2-M12
c3 ( a3 b3 ) M12
.ends trans2f
v1 ( 1 0 ) pulse iv= 0. pv= 1. delay= 0.002 rise= 0.002 fall= 0.002 width= 0.002 period= 0.01  AC  1.
r1a ( 1 2 ) Rsource
x1 ( 2 0 3 0 )  trans2a  k12=K12 l1=L1 l2=L2
r1b ( 3 0 ) Rload
v2 ( 4 0 ) pulse iv= 0. pv= 1. delay= 0.002 rise= 0.002 fall= 0.002 width= 0.002 period= 0.01  AC  1.
r2a ( 4 5 ) Rsource
x2 ( 5 0 7 0 )  trans2f  k12=K12 l1=L1 l2=L2
r2b ( 7 0 ) Rload
v3 ( 8 0 ) pulse iv= 0. pv= 1. delay= 0.002 rise= 0.002 fall= 0.002 width= 0.002 period= 0.01  AC  1.
r3a ( 8 9 ) Rsource
x3 ( 9 0 12 0 )  trans2e  k12=K12 l1=L1 l2=L2
r3b ( 12 0 ) Rload
Gnucap   System status
iterations: op=0, dc=0, tran=380, fourier=0, total=518
transient timesteps: accepted=126, rejected=3, total=129
nodes: user=9, subckt=2, model=3, total=14
dctran density=48.0%, ac density=48.0%
