Mutual inductance test circuit  --  lo-z drive 
#Freq       v(2)       v(3)       v(5)       v(7)       v(9)       v(12)      v(14)      v(15)     
 0.1        0.33152    0.29531    0.33152    0.29531    0.33151    0.29531    0.33152    0.29531   
 0.31623    0.73939    0.65862    0.73939    0.65862    0.73938    0.65861    0.73939    0.65862   
 1.         0.95251    0.84814    0.95251    0.84814    0.95251    0.84814    0.95251    0.84814   
 3.1623     0.98564    0.87435    0.98564    0.87435    0.98564    0.87435    0.98564    0.87435   
 10.        0.98986    0.84698    0.98986    0.84698    0.98986    0.84698    0.98986    0.84698   
 31.623     0.99418    0.65317    0.99418    0.65317    0.99418    0.65317    0.99418    0.65317   
 100.       0.99886    0.29046    0.99886    0.29046    0.99886    0.29046    0.99886    0.29046   
 316.23     0.99987    0.0967     0.99987    0.0967     0.99987    0.0967     0.99987    0.0967    
 1.K        0.99999    0.030746   0.99999    0.030746   0.99999    0.030746   0.99999    0.030746  
#Freq       vp(2)      vp(3)      vp(5)      vp(7)      vp(9)      vp(12)     vp(14)     vp(15)    
 0.1        70.426     70.26      70.426     70.26      70.424     70.26      70.426     70.26     
 0.31623    41.651     41.126     41.651     41.126     41.651     41.127     41.651     41.126    
 1.         15.724     14.065     15.724     14.065     15.724     14.066     15.724     14.065    
 3.1623     5.1366    -0.095003   5.1366    -0.095003   5.1366    -0.094951   5.1366    -0.095003  
 10.        1.7725    -14.376     1.7725    -14.376     1.7725    -14.376     1.7725    -14.376    
 31.623     0.81215   -41.666     0.81215   -41.666     0.81215   -41.666     0.81215   -41.666    
 100.       0.34949   -70.597     0.34949   -70.597     0.34949   -70.597     0.34949   -70.597    
 316.23     0.11691   -83.65      0.11691   -83.65      0.11691   -83.65      0.11691   -83.65     
 1.K        0.037195  -87.985     0.037195  -87.985     0.037195  -87.985     0.037195  -87.985    
#Time       v(2)       v(3)       v(5)       v(7)       v(9)       v(12)      v(14)      v(15)     
 0.         0.         0.         0.         0.         0.         0.         0.         0.        
 0.001      0.         0.         0.         0.         0.         0.         0.         0.        
 0.002      0.         0.         0.         0.         0.         0.         0.         0.        
 0.003      0.49902    0.044946   0.49902    0.044946   0.49902    0.044946   0.49902    0.044946  
 0.004      0.99623    0.16767    0.99623    0.16767    0.99623    0.16767    0.99623    0.16767   
 0.005      0.99279    0.30776    0.99279    0.30776    0.99279    0.30776    0.99279    0.30776   
 0.006      0.98968    0.41996    0.98968    0.41996    0.98968    0.41996    0.98968    0.41996   
 0.007      0.48783    0.46482    0.48783    0.46482    0.48783    0.46482    0.48783    0.46482   
 0.008     -0.011987   0.41391   -0.011987   0.41391   -0.011987   0.41391   -0.011987   0.41391   
 0.009     -0.010984   0.33117   -0.010984   0.33117   -0.010984   0.33117   -0.010984   0.33117   
 0.01      -0.010176   0.26474   -0.010176   0.26474   -0.010176   0.26474   -0.010176   0.26474   
Gnucap   System status
iterations: op=0, dc=0, tran=402, fourier=0, total=556
transient timesteps: accepted=133, rejected=3, total=136
nodes: user=15, subckt=0, model=3, total=18
dctran density=32.1%, ac density=32.1%
