>>>>>.print tran v(nodes) logic(nodes) control(0) 
U2: can't find subckt: mosinv1, forcing digital
>>>>>.tran 10n trace rejected 
#Time       v(1)       v(2)       v(8)       logic(1)   logic(2)   logic(8)   control(0)
new max = 5, new limit = 5.5
 0.         0.         5.         5.         0.01       3.         4.21       1.        
 100.p      0.5        5.         5.         0.01       3.         4.21       9.        
 200.p      1.         5.         5.         0.01       3.         4.21       6.        
 363.p      1.815      5.         5.         1.01       3.         4.21       6.        
:20:4e-09 new event
 1.n        5.         5.         5.         3.01       2.         4.21       7.        
 2.n        5.         5.         5.         3.01       2.         4.21       7.        
 2.667n     1.665      3.3325     5.         2.01       2.         4.21       6.        
:32:6e-09 new event
 3.n        1.f        2.5        5.         0.01       1.2        4.21       7.        
step rejected:V1
new=1.02862e-10  old=5e-10  required=2.5e-10
 3.5n       1.f        0.         5.         0.01       1.2        4.21       6.        
backwards time step
newtime=3.103000e-09  rejectedtime=3.500000e-09  oldtime=3.000000e-09
 3.103n     0.         0.         5.         0.01       1.2        4.21       16.       
 3.178n     0.         0.         5.         0.01       1.2        4.21       6.        
 3.229n     0.         0.         5.         0.01       1.2        4.21       6.        
 3.28n      0.         0.         5.         0.01       1.2        4.21       6.        
 4.n        0.         0.         5.         0.01       1.2        4.21       2.        
 5.n        0.         2.5        5.         0.01       1.2        4.21       7.        
:64:9e-09 new event
 6.n        5.         5.         5.         3.01       2.2        4.21       2.        
 7.n        5.         5.         5.         3.01       2.2        4.21       6.        
:72:1.1e-08 new event
 8.n       -1.f        2.5        5.         0.01       1.2        4.21       6.        
step rejected:V1
new=1.10545e-10  old=1e-09  required=5e-10
 9.n       -1.f       -2.f        5.         0.01       1.2        4.21       2.        
backwards time step
newtime=8.111000e-09  rejectedtime=9.000000e-09  oldtime=8.000000e-09
 8.111n     0.         0.         5.         0.01       1.2        4.21       16.       
 8.222n     0.         0.         5.         0.01       1.2        4.21       6.        
 8.293n     0.         0.         5.         0.01       1.2        4.21       6.        
 8.364n     0.         0.         5.         0.01       1.2        4.21       6.        
 9.n        0.         0.         5.         0.01       1.2        4.21       2.        
 10.n       0.         2.5        5.         0.01       1.2        4.21       1.        
>>>>>.stat notime 
Gnucap   System status
iterations: op=0, dc=0, tran=75, fourier=0, total=100
transient timesteps: accepted=23, rejected=2, total=25
nodes: user=3, subckt=0, model=0, total=3
dctran density=33.3%, ac density=33.3%
>>>>>.end 
