'1 inverters as gates 
#           v(1)       l(1)       v(2)       l(2)       v(3)       l(3)       iter(0)    control(0)
 27.        0.         0.01       5.         3.01       66.926n    0.01       9.         0.        
#Time       v(1)       l(1)       v(2)       l(2)       v(3)       l(3)       iter(0)    control(0)
 0.         2.5        1.41       2.4995     1.41       2.5698     1.41       17.        1.        
 500.n      2.5079     1.41       2.4626     2.41       3.0373     3.31       9.         9.        
 1.u        2.5157     1.41       2.3913     2.41       3.3959     3.31       6.         6.        
 5.4545u    2.5857     1.41       1.7292     0.31       4.4961     3.31       8.         6.        
 9.9091u    2.6556     1.41       1.43       0.31       4.6984     3.31       6.         6.        
 14.364u    2.7253     1.41       1.2359     0.31       4.7898     3.31       6.         6.        
 18.818u    2.7949     1.41       1.0856     0.31       4.8454     3.31       5.         6.        
 26.614u    2.9161     1.41       0.88156    0.31       4.9039     3.31       6.         6.        
 38.307u    3.0959     3.31       0.65812    0.31       4.9494     3.31       6.         6.        
 50.u       3.2725     3.31       0.49534    0.31       4.9724     3.31       6.         1.        
 75.u       3.635      3.31       0.26737    0.31       4.9923     3.31       6.         6.        
 100.u      3.9695     3.31       0.13689    0.31       4.998      3.31       6.         1.        
 150.u      4.5225     3.31       0.025657   0.31       4.9999     3.31       6.         1.        
 200.u      4.8776     3.31       0.0016918  0.31       5.         3.31       6.         1.        
 250.u      5.         3.31       43.235u    0.31       5.         3.31       6.         1.        
 300.u      4.8776     3.31       0.0014911  0.31       5.         3.31       6.         1.        
 350.u      4.5225     3.31       0.025105   0.31       4.9999     3.31       6.         1.        
 400.u      3.9695     3.31       0.13566    0.31       4.9981     3.31       6.         1.        
 450.u      3.2725     3.31       0.49174    0.31       4.9732     3.31       6.         1.        
 500.u      2.5        2.31       2.3301     1.31       3.637      3.31       10.        1.        
 550.u      1.7275     0.21       4.4998     3.21       0.029753   0.21       8.         1.        
 600.u      1.0305     0.21       4.8629     3.21       0.0020666  0.21       7.         1.        
 650.u      0.47746    0.21       4.9743     3.21       104.23u    0.21       6.         1.        
 700.u      0.12236    0.21       4.9983     3.21       8.3763u    0.21       6.         1.        
 750.u      141.f      0.21       5.         3.21       619.23n    0.21       6.         1.        
 800.u      0.12236    0.21       4.9985     3.21      -193.13n    0.21       6.         1.        
 850.u      0.47746    0.21       4.9749     3.21       55.48u     0.21       6.         1.        
 900.u      1.0305     0.21       4.8643     3.21       0.0018536  0.21       6.         1.        
 950.u      1.7275     0.21       4.5083     3.21       0.026757   0.21       6.         1.        
 0.001      2.5        1.21       2.6699     2.21       1.363      0.21       10.        1.        
 0.00105    3.2725     3.11       0.50022    0.11       4.9702     3.11       8.         1.        
 0.0011     3.9695     3.11       0.13709    0.11       4.9979     3.11       7.         1.        
 0.00115    4.5225     3.11       0.025657   0.11       4.9999     3.11       6.         1.        
 0.0012     4.8776     3.11       0.0016918  0.11       5.         3.11       6.         1.        
 0.00125    5.         3.11       43.235u    0.11       5.         3.11       6.         1.        
 0.0013     4.8776     3.11       0.0014911  0.11       5.         3.11       6.         1.        
 0.00135    4.5225     3.11       0.025105   0.11       4.9999     3.11       6.         1.        
 0.0014     3.9695     3.11       0.13566    0.11       4.9981     3.11       6.         1.        
 0.00145    3.2725     3.11       0.49174    0.11       4.9732     3.11       6.         1.        
 0.0015     2.5        2.11       2.3301     1.11       3.637      3.11       10.        1.        
 0.00155    1.7275     0.01       4.4998     3.01       0.029753   0.01       8.         1.        
 0.0016     1.0305     0.01       5.         3.         0.         0.         3.         1.        
 0.00165    0.47746    0.01       5.         3.         0.         0.         3.         1.        
 0.0017     0.12236    0.01       5.         3.         0.         0.         3.         1.        
 0.00175    0.         0.01       5.         3.         0.         0.         3.         1.        
 0.0018     0.12236    0.01       5.         3.         0.         0.         3.         1.        
 0.00185    0.47746    0.01       5.         3.         0.         0.         3.         1.        
 0.0019     1.0305     0.01       5.         3.         0.         0.         3.         1.        
 0.00195    1.7275     0.01       5.         3.         0.         0.         3.         1.        
 0.002      2.5        1.01       5.         3.         0.         0.         3.         1.        
 0.00205    3.2725     3.01       5.         2.         0.         0.         3.         1.        
 0.0020501  3.274      3.01       0.         0.         0.         1.         3.         2.        
 0.0020502  3.2755     3.01       0.         0.         5.         3.         3.         2.        
 0.0021     3.9695     3.01       0.         0.         5.         3.         3.         1.        
 0.00215    4.5225     3.01       0.         0.         5.         3.         3.         1.        
 0.0022     4.8776     3.01       0.         0.         5.         3.         3.         1.        
 0.00225    5.         3.01       0.         0.         5.         3.         3.         1.        
 0.0023     4.8776     3.01       0.         0.         5.         3.         3.         1.        
 0.00235    4.5225     3.01       0.         0.         5.         3.         3.         1.        
 0.0024     3.9695     3.01       0.         0.         5.         3.         3.         1.        
 0.00245    3.2725     3.01       0.         0.         5.         3.         3.         1.        
 0.0025     2.5        2.01       0.         0.         5.         3.         3.         1.        
 0.00255    1.7275     0.01       0.         1.         5.         3.         3.         1.        
 0.0025501  1.726      0.01       5.         3.         5.         2.         3.         2.        
 0.0025502  1.7245     0.01       5.         3.         0.         0.         3.         2.        
 0.0026     1.0305     0.01       5.         3.         0.         0.         3.         1.        
 0.00265    0.47746    0.01       5.         3.         0.         0.         3.         1.        
 0.0027     0.12236    0.01       5.         3.         0.         0.         3.         1.        
 0.00275    0.         0.01       5.         3.         0.         0.         3.         1.        
 0.0028     0.12236    0.01       5.         3.         0.         0.         3.         1.        
 0.00285    0.47746    0.01       5.         3.         0.         0.         3.         1.        
 0.0029     1.0305     0.01       5.         3.         0.         0.         3.         1.        
 0.00295    1.7275     0.01       5.         3.         0.         0.         3.         1.        
 0.003      2.5        1.01       5.         3.         0.         0.         3.         1.        
 0.00305    3.2725     3.01       5.         2.         0.         0.         3.         1.        
 0.0030501  3.274      3.01       0.         0.         0.         1.         3.         2.        
 0.0030502  3.2755     3.01       0.         0.         5.         3.         3.         2.        
 0.0031     3.9695     3.01       0.         0.         5.         3.         3.         1.        
 0.00315    4.5225     3.01       0.         0.         5.         3.         3.         1.        
 0.0032     4.8776     3.01       0.         0.         5.         3.         3.         1.        
 0.00325    5.         3.01       0.         0.         5.         3.         3.         1.        
 0.0033     4.8776     3.01       0.         0.         5.         3.         3.         1.        
 0.00335    4.5225     3.01       0.         0.         5.         3.         3.         1.        
 0.0034     3.9695     3.01       0.         0.         5.         3.         3.         1.        
 0.00345    3.2725     3.01       0.         0.         5.         3.         3.         1.        
 0.0035     2.5        2.01       0.         0.         5.         3.         3.         1.        
 0.00355    1.7275     0.01       0.         1.         5.         3.         3.         1.        
 0.0035501  1.726      0.01       5.         3.         5.         2.         3.         2.        
 0.0035502  1.7245     0.01       5.         3.         0.         0.         3.         2.        
 0.0036     1.0305     0.01       5.         3.         0.         0.         3.         1.        
 0.00365    0.47746    0.01       5.         3.         0.         0.         3.         1.        
 0.0037     0.12236    0.01       5.         3.         0.         0.         3.         1.        
 0.00375    0.         0.01       5.         3.         0.         0.         3.         1.        
 0.0038     0.12236    0.01       5.         3.         0.         0.         3.         1.        
 0.00385    0.47746    0.01       5.         3.         0.         0.         3.         1.        
 0.0039     1.0305     0.01       5.         3.         0.         0.         3.         1.        
 0.00395    1.7275     0.01       5.         3.         0.         0.         3.         1.        
 0.004      2.5        1.01       5.         3.         0.         0.         3.         1.        
 0.00405    3.2725     3.01       5.         2.         0.         0.         3.         1.        
 0.0040501  3.274      3.01       0.         0.         0.         1.         3.         2.        
 0.0040502  3.2755     3.01       0.         0.         5.         3.         3.         2.        
 0.0041     3.9695     3.01       0.         0.         5.         3.         3.         1.        
 0.00415    4.5225     3.01       0.         0.         5.         3.         3.         1.        
 0.0042     4.8776     3.01       0.         0.         5.         3.         3.         1.        
 0.00425    5.         3.01       0.         0.         5.         3.         3.         1.        
 0.0043     4.8776     3.01       0.         0.         5.         3.         3.         1.        
 0.00435    4.5225     3.01       0.         0.         5.         3.         3.         1.        
 0.0044     3.9695     3.01       0.         0.         5.         3.         3.         1.        
 0.00445    3.2725     3.01       0.         0.         5.         3.         3.         1.        
 0.0045     2.5        2.01       0.         0.         5.         3.         3.         1.        
 0.00455    1.7275     0.01       0.         1.         5.         3.         3.         1.        
 0.0045501  1.726      0.01       5.         1.         5.         3.         3.         2.        
 0.0046     1.0305     0.01       5.         3.         5.         2.         3.         1.        
 0.0046001  1.0293     0.01       5.         3.         0.         0.         3.         2.        
 0.00465    0.47746    0.01       5.         3.         0.         0.         3.         1.        
 0.0047     0.12236    0.01       5.         3.         0.         0.         3.         1.        
 0.00475    0.         0.01       5.         3.         0.         0.         3.         1.        
 0.0048     0.12236    0.01       5.         3.         0.         0.         3.         1.        
 0.00485    0.47746    0.01       5.         3.         0.         0.         3.         1.        
 0.0049     1.0305     0.01       5.         3.         0.         0.         3.         1.        
 0.00495    1.7275     0.01       5.         3.         0.         0.         3.         1.        
 0.005      2.5        1.01       5.         3.         0.         0.         3.         1.        
 0.00505    3.2725     3.01       5.         2.         0.         0.         3.         1.        
 0.0050501  3.274      3.01       0.         0.         0.         1.         3.         2.        
 0.0050502  3.2755     3.01       0.         0.         5.         1.         3.         2.        
 0.0051     3.9695     3.01       0.         0.         5.         3.         3.         1.        
 0.00515    4.5225     3.01       0.         0.         5.         3.         3.         1.        
 0.0052     4.8776     3.01       0.         0.         5.         3.         3.         1.        
 0.00525    5.         3.01       0.         0.         5.         3.         3.         1.        
 0.0053     4.8776     3.01       0.         0.         5.         3.         3.         1.        
 0.00535    4.5225     3.01       0.         0.         5.         3.         3.         1.        
 0.0054     3.9695     3.01       0.         0.         5.         3.         3.         1.        
 0.00545    3.2725     3.01       0.         0.         5.         3.         3.         1.        
 0.0055     2.5        2.01       0.         0.         5.         3.         3.         1.        
 0.00555    1.7275     0.01       0.         1.         5.         3.         3.         1.        
 0.0055501  1.726      0.01       5.         1.         5.         3.         3.         2.        
 0.0056     1.0305     0.01       5.         3.         5.         2.         3.         1.        
 0.0056001  1.0293     0.01       5.         3.         0.         0.         3.         2.        
 0.00565    0.47746    0.01       5.         3.         0.         0.         3.         1.        
 0.0057     0.12236    0.01       5.         3.         0.         0.         3.         1.        
 0.00575    0.         0.01       5.         3.         0.         0.         3.         1.        
 0.0058     0.12236    0.01       5.         3.         0.         0.         3.         1.        
 0.00585    0.47746    0.01       5.         3.         0.         0.         3.         1.        
 0.0059     1.0305     0.01       5.         3.         0.         0.         3.         1.        
 0.00595    1.7275     0.01       5.         3.         0.         0.         3.         1.        
 0.006      2.5        1.01       5.         3.         0.         0.         3.         1.        
 0.00605    3.2725     3.01       5.         2.         0.         0.         3.         1.        
 0.0060501  3.274      3.01       0.         0.         0.         1.         3.         2.        
 0.0060502  3.2755     3.01       0.         0.         5.         1.         3.         2.        
 0.0061     3.9695     3.01       0.         0.         5.         3.         3.         1.        
 0.00615    4.5225     3.01       0.         0.         5.         3.         3.         1.        
 0.0062     4.8776     3.01       0.         0.         5.         3.         3.         1.        
 0.00625    5.         3.01       0.         0.         5.         3.         3.         1.        
 0.0063     4.8776     3.01       0.         0.         5.         3.         3.         1.        
 0.00635    4.5225     3.01       0.         0.         5.         3.         3.         1.        
 0.0064     3.9695     3.01       0.         0.         5.         3.         3.         1.        
 0.00645    3.2725     3.01       0.         0.         5.         3.         3.         1.        
 0.0065     2.5        2.01       0.         0.         5.         3.         3.         1.        
 0.00655    1.7275     0.01       0.         1.         5.         3.         3.         1.        
 0.0065501  1.726      0.01       5.         1.         5.         3.         3.         2.        
 0.0066     1.0305     0.01       5.         3.         5.         2.         3.         1.        
 0.0066001  1.0293     0.01       5.         3.         0.         0.         3.         2.        
 0.00665    0.47746    0.01       5.         3.         0.         0.         3.         1.        
 0.0067     0.12236    0.01       5.         3.         0.         0.         3.         1.        
 0.00675    0.         0.01       5.         3.         0.         0.         3.         1.        
 0.0068     0.12236    0.01       5.         3.         0.         0.         3.         1.        
 0.00685    0.47746    0.01       5.         3.         0.         0.         3.         1.        
 0.0069     1.0305     0.01       5.         3.         0.         0.         3.         1.        
 0.00695    1.7275     0.01       5.         3.         0.         0.         3.         1.        
 0.007      2.5        1.01       5.         3.         0.         0.         3.         1.        
 0.00705    3.2725     3.01       5.         2.         0.         0.         3.         1.        
 0.0070501  3.274      3.01       0.         0.         0.         1.         3.         2.        
 0.0070502  3.2755     3.01       0.         0.         5.         1.         3.         2.        
 0.0071     3.9695     3.01       0.         0.         5.         3.         3.         1.        
 0.00715    4.5225     3.01       0.         0.         5.         3.         3.         1.        
 0.0072     4.8776     3.01       0.         0.         5.         3.         3.         1.        
 0.00725    5.         3.01       0.         0.         5.         3.         3.         1.        
 0.0073     4.8776     3.01       0.         0.         5.         3.         3.         1.        
 0.00735    4.5225     3.01       0.         0.         5.         3.         3.         1.        
 0.0074     3.9695     3.01       0.         0.         5.         3.         3.         1.        
 0.00745    3.2725     3.01       0.         0.         5.         3.         3.         1.        
 0.0075     2.5        2.01       0.         0.         5.         3.         3.         1.        
 0.00755    1.7275     0.01       0.         1.         5.         3.         3.         1.        
 0.0075501  1.726      0.01       5.         3.         5.         2.         3.         2.        
 0.0075502  1.7245     0.01       5.         3.         0.         0.         3.         2.        
 0.0076     1.0305     0.01       5.         3.         0.         0.         3.         1.        
 0.00765    0.47746    0.01       5.         3.         0.         0.         3.         1.        
 0.0077     0.12236    0.01       5.         3.         0.         0.         3.         1.        
 0.00775    0.         0.01       5.         3.         0.         0.         3.         1.        
 0.0078     0.12236    0.01       5.         3.         0.         0.         3.         1.        
 0.00785    0.47746    0.01       5.         3.         0.         0.         3.         1.        
 0.0079     1.0305     0.01       5.         3.         0.         0.         3.         1.        
 0.00795    1.7275     0.01       5.         3.         0.         0.         3.         1.        
 0.008      2.5        1.01       5.         3.         0.         0.         3.         1.        
 0.00805    3.2725     3.01       5.         2.         0.         0.         3.         1.        
 0.0080501  3.274      3.01       0.         0.         0.         1.         3.         2.        
