'1 inverters as gates 
#           v(1)       l(1)       v(2)       l(2)       iter(0)    control(0)
 27.        0.         0.01       5.         3.         3.         0.        
#Time       v(1)       l(1)       v(2)       l(2)       iter(0)    control(0)
 0.         2.5        1.41       5.         3.         3.         1.        
 500.n      2.5079     1.41       5.         3.         3.         9.        
 1.u        2.5157     1.41       5.         3.         3.         6.        
 10.8u      2.6695     1.41       5.         3.         3.         6.        
 50.u       3.2725     1.41       5.         3.         3.         1.        
 100.u      3.9695     3.31       5.         2.         3.         1.        
 100.1u     3.9707     3.31       0.         0.         3.         2.        
 150.u      4.5225     3.31       0.         0.         3.         1.        
 200.u      4.8776     3.31       0.         0.         3.         1.        
 250.u      5.         3.31       0.         0.         3.         1.        
 300.u      4.8776     3.31       0.         0.         3.         1.        
 350.u      4.5225     3.31       0.         0.         3.         1.        
 400.u      3.9695     3.31       0.         0.         3.         1.        
 450.u      3.2725     2.31       0.         0.         3.         1.        
 500.u      2.5        2.41       0.         0.         3.         1.        
 550.u      1.7275     2.41       0.         0.         3.         1.        
 600.u      1.0305     0.31       0.         1.         3.         1.        
 600.1u     1.0293     0.31       5.         3.         3.         2.        
 650.u      0.47746    0.31       5.         3.         3.         1.        
 700.u      0.12236    0.31       5.         3.         3.         1.        
 750.u      0.         0.31       5.         3.         3.         1.        
 800.u      0.12236    0.31       5.         3.         3.         1.        
 850.u      0.47746    0.31       5.         3.         3.         1.        
 900.u      1.0305     0.31       5.         3.         3.         1.        
 950.u      1.7275     1.31       5.         3.         3.         1.        
 0.001      2.5        1.41       5.         3.         3.         1.        
 0.00105    3.2725     1.41       5.         3.         3.         1.        
 0.0011     3.9695     3.31       5.         2.         3.         1.        
 0.0011001  3.9707     3.31       0.         0.         3.         2.        
 0.00115    4.5225     3.31       0.         0.         3.         1.        
 0.0012     4.8776     3.31       0.         0.         3.         1.        
 0.00125    5.         3.31       0.         0.         3.         1.        
 0.0013     4.8776     3.31       0.         0.         3.         1.        
 0.00135    4.5225     3.31       0.         0.         3.         1.        
 0.0014     3.9695     3.31       0.         0.         3.         1.        
 0.00145    3.2725     2.31       0.         0.         3.         1.        
 0.0015     2.5        2.41       0.         0.         3.         1.        
 0.00155    1.7275     2.41       0.         0.         3.         1.        
 0.0016     1.0305     0.31       0.         1.         3.         1.        
 0.0016001  1.0293     0.31       5.         3.         3.         2.        
 0.00165    0.47746    0.31       5.         3.         3.         1.        
 0.0017     0.12236    0.31       5.         3.         3.         1.        
 0.00175    0.         0.31       5.         3.         3.         1.        
 0.0018     0.12236    0.31       5.         3.         3.         1.        
 0.00185    0.47746    0.31       5.         3.         3.         1.        
 0.0019     1.0305     0.31       5.         3.         3.         1.        
 0.00195    1.7275     1.31       5.         3.         3.         1.        
 0.002      2.5        1.41       5.         3.         3.         1.        
 0.00205    3.2725     1.41       5.         3.         3.         1.        
 0.0021     3.9695     3.31       5.         2.         3.         1.        
 0.0021001  3.9707     3.31       0.         0.         3.         2.        
 0.00215    4.5225     3.31       0.         0.         3.         1.        
 0.0022     4.8776     3.31       0.         0.         3.         1.        
 0.00225    5.         3.31       0.         0.         3.         1.        
 0.0023     4.8776     3.31       0.         0.         3.         1.        
 0.00235    4.5225     3.31       0.         0.         3.         1.        
 0.0024     3.9695     3.31       0.         0.         3.         1.        
 0.00245    3.2725     2.31       0.         0.         3.         1.        
 0.0025     2.5        2.41       0.         0.         3.         1.        
 0.00255    1.7275     2.41       0.         0.         3.         1.        
 0.0026     1.0305     0.31       0.         1.         3.         1.        
 0.0026001  1.0293     0.31       5.         3.         3.         2.        
 0.00265    0.47746    0.31       5.         3.         3.         1.        
 0.0027     0.12236    0.31       5.         3.         3.         1.        
 0.00275    0.         0.31       5.         3.         3.         1.        
 0.0028     0.12236    0.31       5.         3.         3.         1.        
 0.00285    0.47746    0.31       5.         3.         3.         1.        
 0.0029     1.0305     0.31       5.         3.         3.         1.        
 0.00295    1.7275     1.31       5.         3.         3.         1.        
 0.003      2.5        1.41       5.         3.         3.         1.        
 0.00305    3.2725     1.41       5.         3.         3.         1.        
 0.0031     3.9695     3.31       5.         2.         3.         1.        
 0.0031001  3.9707     3.31       0.         0.         3.         2.        
 0.00315    4.5225     3.31       0.         0.         3.         1.        
 0.0032     4.8776     3.31       0.         0.         3.         1.        
 0.00325    5.         3.31       0.         0.         3.         1.        
 0.0033     4.8776     3.31       0.         0.         3.         1.        
 0.00335    4.5225     3.31       0.         0.         3.         1.        
 0.0034     3.9695     3.31       0.         0.         3.         1.        
 0.00345    3.2725     2.31       0.         0.         3.         1.        
 0.0035     2.5        2.41       0.         0.         3.         1.        
 0.00355    1.7275     2.41       0.         0.         3.         1.        
 0.0036     1.0305     0.31       0.         1.         3.         1.        
 0.0036001  1.0293     0.31       5.         3.         3.         2.        
 0.00365    0.47746    0.31       5.         3.         3.         1.        
 0.0037     0.12236    0.31       5.         3.         3.         1.        
 0.00375    0.         0.31       5.         3.         3.         1.        
 0.0038     0.12236    0.31       5.         3.         3.         1.        
 0.00385    0.47746    0.31       5.         3.         3.         1.        
 0.0039     1.0305     0.31       5.         3.         3.         1.        
 0.00395    1.7275     1.31       5.         3.         3.         1.        
 0.004      2.5        1.41       5.         3.         3.         1.        
 0.00405    3.2725     1.41       5.         3.         3.         1.        
 0.0041     3.9695     3.31       5.         2.         3.         1.        
 0.0041001  3.9707     3.31       0.         0.         3.         2.        
 0.00415    4.5225     3.31       0.         0.         3.         1.        
 0.0042     4.8776     3.31       0.         0.         3.         1.        
 0.00425    5.         3.31       0.         0.         3.         1.        
 0.0043     4.8776     3.31       0.         0.         3.         1.        
 0.00435    4.5225     3.31       0.         0.         3.         1.        
 0.0044     3.9695     3.31       0.         0.         3.         1.        
 0.00445    3.2725     2.31       0.         0.         3.         1.        
 0.0045     2.5        2.41       0.         0.         3.         1.        
 0.00455    1.7275     2.41       0.         0.         3.         1.        
 0.0046     1.0305     0.31       0.         1.         3.         1.        
 0.0046001  1.0293     0.31       5.         3.         3.         2.        
 0.00465    0.47746    0.31       5.         3.         3.         1.        
 0.0047     0.12236    0.31       5.         3.         3.         1.        
 0.00475    0.         0.31       5.         3.         3.         1.        
 0.0048     0.12236    0.31       5.         3.         3.         1.        
 0.00485    0.47746    0.31       5.         3.         3.         1.        
 0.0049     1.0305     0.31       5.         3.         3.         1.        
 0.00495    1.7275     1.31       5.         3.         3.         1.        
 0.005      2.5        1.41       5.         3.         3.         1.        
 0.00505    3.2725     1.41       5.         3.         3.         1.        
 0.0051     3.9695     3.31       5.         2.         3.         1.        
 0.0051001  3.9707     3.31       0.         0.         3.         2.        
 0.00515    4.5225     3.31       0.         0.         3.         1.        
 0.0052     4.8776     3.31       0.         0.         3.         1.        
 0.00525    5.         3.31       0.         0.         3.         1.        
 0.0053     4.8776     3.31       0.         0.         3.         1.        
 0.00535    4.5225     3.31       0.         0.         3.         1.        
 0.0054     3.9695     3.31       0.         0.         3.         1.        
 0.00545    3.2725     2.31       0.         0.         3.         1.        
 0.0055     2.5        2.41       0.         0.         3.         1.        
 0.00555    1.7275     2.41       0.         0.         3.         1.        
 0.0056     1.0305     0.31       0.         1.         3.         1.        
 0.0056001  1.0293     0.31       5.         3.         3.         2.        
 0.00565    0.47746    0.31       5.         3.         3.         1.        
 0.0057     0.12236    0.31       5.         3.         3.         1.        
 0.00575    0.         0.31       5.         3.         3.         1.        
 0.0058     0.12236    0.31       5.         3.         3.         1.        
 0.00585    0.47746    0.31       5.         3.         3.         1.        
 0.0059     1.0305     0.31       5.         3.         3.         1.        
 0.00595    1.7275     1.31       5.         3.         3.         1.        
 0.006      2.5        1.41       5.         3.         3.         1.        
 0.00605    3.2725     1.41       5.         3.         3.         1.        
 0.0061     3.9695     3.31       5.         2.         3.         1.        
 0.0061001  3.9707     3.31       0.         0.         3.         2.        
 0.00615    4.5225     3.31       0.         0.         3.         1.        
 0.0062     4.8776     3.31       0.         0.         3.         1.        
 0.00625    5.         3.31       0.         0.         3.         1.        
 0.0063     4.8776     3.31       0.         0.         3.         1.        
 0.00635    4.5225     3.31       0.         0.         3.         1.        
 0.0064     3.9695     3.31       0.         0.         3.         1.        
 0.00645    3.2725     2.31       0.         0.         3.         1.        
 0.0065     2.5        2.41       0.         0.         3.         1.        
 0.00655    1.7275     2.41       0.         0.         3.         1.        
 0.0066     1.0305     0.31       0.         1.         3.         1.        
 0.0066001  1.0293     0.31       5.         3.         3.         2.        
 0.00665    0.47746    0.31       5.         3.         3.         1.        
 0.0067     0.12236    0.31       5.         3.         3.         1.        
 0.00675    0.         0.31       5.         3.         3.         1.        
 0.0068     0.12236    0.31       5.         3.         3.         1.        
 0.00685    0.47746    0.31       5.         3.         3.         1.        
 0.0069     1.0305     0.31       5.         3.         3.         1.        
 0.00695    1.7275     1.31       5.         3.         3.         1.        
 0.007      2.5        1.41       5.         3.         3.         1.        
 0.00705    3.2725     1.41       5.         3.         3.         1.        
 0.0071     3.9695     3.31       5.         2.         3.         1.        
 0.0071001  3.9707     3.31       0.         0.         3.         2.        
 0.00715    4.5225     3.31       0.         0.         3.         1.        
 0.0072     4.8776     3.31       0.         0.         3.         1.        
 0.00725    5.         3.31       0.         0.         3.         1.        
 0.0073     4.8776     3.31       0.         0.         3.         1.        
 0.00735    4.5225     3.31       0.         0.         3.         1.        
 0.0074     3.9695     3.31       0.         0.         3.         1.        
 0.00745    3.2725     2.31       0.         0.         3.         1.        
 0.0075     2.5        2.41       0.         0.         3.         1.        
 0.00755    1.7275     2.41       0.         0.         3.         1.        
 0.0076     1.0305     0.31       0.         1.         3.         1.        
 0.0076001  1.0293     0.31       5.         3.         3.         2.        
 0.00765    0.47746    0.31       5.         3.         3.         1.        
 0.0077     0.12236    0.31       5.         3.         3.         1.        
 0.00775    0.         0.31       5.         3.         3.         1.        
 0.0078     0.12236    0.31       5.         3.         3.         1.        
 0.00785    0.47746    0.31       5.         3.         3.         1.        
 0.0079     1.0305     0.31       5.         3.         3.         1.        
 0.00795    1.7275     1.31       5.         3.         3.         1.        
 0.008      2.5        1.41       5.         3.         3.         1.        
 0.00805    3.2725     1.41       5.         3.         3.         1.        
 0.0081     3.9695     3.31       5.         2.         3.         1.        
 0.0081001  3.9707     3.31       0.         0.         3.         2.        
 0.00815    4.5225     3.31       0.         0.         3.         1.        
 0.0082     4.8776     3.31       0.         0.         3.         1.        
 0.00825    5.         3.31       0.         0.         3.         1.        
 0.0083     4.8776     3.31       0.         0.         3.         1.        
 0.00835    4.5225     3.31       0.         0.         3.         1.        
 0.0084     3.9695     3.31       0.         0.         3.         1.        
 0.00845    3.2725     2.31       0.         0.         3.         1.        
 0.0085     2.5        2.41       0.         0.         3.         1.        
 0.00855    1.7275     2.41       0.         0.         3.         1.        
 0.0086     1.0305     0.31       0.         1.         3.         1.        
 0.0086001  1.0293     0.31       5.         3.         3.         2.        
 0.00865    0.47746    0.31       5.         3.         3.         1.        
 0.0087     0.12236    0.31       5.         3.         3.         1.        
 0.00875    0.         0.31       5.         3.         3.         1.        
 0.0088     0.12236    0.31       5.         3.         3.         1.        
 0.00885    0.47746    0.31       5.         3.         3.         1.        
 0.0089     1.0305     0.31       5.         3.         3.         1.        
 0.00895    1.7275     1.31       5.         3.         3.         1.        
 0.009      2.5        1.41       5.         3.         3.         1.        
 0.00905    3.2725     1.41       5.         3.         3.         1.        
 0.0091     3.9695     3.31       5.         2.         3.         1.        
 0.0091001  3.9707     3.31       0.         0.         3.         2.        
 0.00915    4.5225     3.31       0.         0.         3.         1.        
 0.0092     4.8776     3.31       0.         0.         3.         1.        
 0.00925    5.         3.31       0.         0.         3.         1.        
 0.0093     4.8776     3.31       0.         0.         3.         1.        
 0.00935    4.5225     3.31       0.         0.         3.         1.        
 0.0094     3.9695     3.31       0.         0.         3.         1.        
 0.00945    3.2725     2.31       0.         0.         3.         1.        
 0.0095     2.5        2.41       0.         0.         3.         1.        
 0.00955    1.7275     2.41       0.         0.         3.         1.        
 0.0096     1.0305     0.31       0.         1.         3.         1.        
 0.0096001  1.0293     0.31       5.         3.         3.         2.        
 0.00965    0.47746    0.31       5.         3.         3.         1.        
 0.0097     0.12236    0.31       5.         3.         3.         1.        
 0.00975    0.         0.31       5.         3.         3.         1.        
 0.0098     0.12236    0.31       5.         3.         3.         1.        
 0.00985    0.47746    0.31       5.         3.         3.         1.        
 0.0099     1.0305     0.31       5.         3.         3.         1.        
 0.00995    1.7275     1.31       5.         3.         3.         1.        
 0.01       2.5        1.41       5.         3.         3.         1.        
Gnucap   System status
iterations: op=3, dc=0, tran=672, fourier=0, total=899
transient timesteps: accepted=224, rejected=0, total=224
nodes: user=3, subckt=1, model=0, total=4
dctran density=62.5%, ac density=62.5%
