>>>>>.print tran v(nodes) logic(nodes) control(0) 
U2: can't find subckt: mosinv1, forcing digital
>>>>>.tran 100n trace rejected 
#Time       v(1)       v(2)       v(8)       logic(1)   logic(2)   logic(8)   control(0)
new max = 5, new limit = 5.5
 0.         0.         5.         5.         0.01       3.         4.21       1.        
 1.n        0.5        5.         5.         0.01       3.         4.21       9.        
 2.n        1.         5.         5.         0.01       3.         4.21       6.        
 3.634n     1.817      5.         5.         1.01       3.         4.21       6.        
:20:1.2e-08 new event
 10.n       5.         5.         5.         3.01       2.         4.21       7.        
 12.n       5.         0.         5.         3.01       0.         4.21       2.        
 16.4n      5.         0.         5.         3.01       0.         4.21       6.        
 20.n       5.         0.         5.         3.01       0.         4.21       7.        
:36:3e-08 new event
 28.n       1.         0.         5.         0.01       1.         4.21       6.        
 30.n       2.f        5.         5.         0.01       3.         4.21       2.        
step rejected:V1
new=4.8462e-10  old=3.5e-09  required=1.75e-09
 33.5n      0.         5.         5.         0.01       3.         4.21       6.        
backwards time step
newtime=3.048500e-08  rejectedtime=3.350000e-08  oldtime=3.000000e-08
 30.485n    0.         5.         5.         0.01       3.         4.21       16.       
 30.833n    0.         5.         5.         0.01       3.         4.21       6.        
 31.053n    0.         5.         5.         0.01       3.         4.21       6.        
 31.224n    0.         5.         5.         0.01       3.         4.21       6.        
 50.n       0.         5.         5.         0.01       3.         4.21       7.        
:68:6.2e-08 new event
 60.n       5.         5.         5.         3.01       2.         4.21       7.        
 62.n       5.         0.         5.         3.01       0.         4.21       2.        
 69.6n      5.         0.         5.         3.01       0.         4.21       6.        
 70.n       5.         0.         5.         3.01       0.         4.21       7.        
:84:7.95e-08 new event
 77.5n      1.25       0.         5.         0.01       1.         4.21       6.        
 79.5n      0.25       5.         5.         0.01       3.         4.21       2.        
 80.n      -4.f        5.         5.         0.01       3.         4.21       7.        
step rejected:V1
new=2.07221e-10  old=2e-09  required=1e-09
 82.n      -5.f        5.         5.         0.01       3.         4.21       6.        
backwards time step
newtime=8.020700e-08  rejectedtime=8.200000e-08  oldtime=8.000000e-08
 80.207n    0.         5.         5.         0.01       3.         4.21       16.       
 80.336n    0.         5.         5.         0.01       3.         4.21       6.        
 80.401n    0.         5.         5.         0.01       3.         4.21       6.        
 80.466n    0.         5.         5.         0.01       3.         4.21       6.        
 100.n      0.         5.         5.         0.01       3.         4.21       1.        
>>>>>.stat notime 
Gnucap   System status
iterations: op=0, dc=0, tran=85, fourier=0, total=114
transient timesteps: accepted=27, rejected=2, total=29
nodes: user=3, subckt=0, model=0, total=3
dctran density=33.3%, ac density=33.3%
>>>>>.end 
