nmos n gate, linear 
#           v(1)       v(2)       v(3)       v(4)       iter(0)   
 27.        3.2367    -1.712p     0.        -1.2349     4.        
#           i(Vgs)     i(Vds)     i(Vbs)     ps(Vgs)    ps(Vds)    ps(Vbs)   
 27.        0.        -1.7123p    0.         0.         0.         0.        
#           id(M1)     is(M1)     ig(M1)     ib(M1)     ibs(M1)    ibd(M1)   
 27.        1.7123p    1.7124p    0.         3.4246p   -1.7123p   -1.7123p   
#           vgs(M1)    vds(M1)    vbs(M1)    vth(M1)    vdsat(M1) 
 27.        3.2367    -1.7123p   -1.2349     0.         3.5982    
#           gmb(M1)    gm(M1)     gds(M1)    gbd(M1)    gbs(M1)   
 27.        0.         4.93E-18   18.638u    1.3866p    1.3866p   
#           cgs(M1)    cgd(M1)    cgb(M1)    cbd(M1)    cbs(M1)   
 27.        13.985f    13.985f    0.         0.         0.        
#           cgsovl(M1) cgdovl(M1) cgbovl(M1) cgate(M1)  region(M1)
 27.        0.         0.         0.         27.97f    -3.        
#           cgst(M1)   cgdt(M1)   cgbt(M1)  
 27.        13.985f    13.985f    0.        
#           p(M1)      pd(M1)     ps(M1)     ids(M1)    idstray(M1) iderror(M1)
 27.        4.229p     4.229p     0.         31.91E-18 -1.7123p    ??        
#           vdm(M1)    vgm(M1)    vbm(M1)    vsm(M1)   
 27.       -856.15f    3.2367    -1.2349     856.15f   
#           vd(M1)     vg(M1)     vb(M1)     vs(M1)    
 27.       -1.7123p    3.2367    -1.2349     0.        
#           v(1)       v(2)       v(3)       i(Vds)     i(Rds)    
-10.       -10.       -1.712p     0.        -1.7123p   -1.7123p   
-9.        -9.        -1.712p     0.        -1.7123p   -1.7123p   
-8.        -8.        -1.712p     0.        -1.7123p   -1.7123p   
-7.        -7.        -1.712p     0.        -1.7123p   -1.7123p   
-6.        -6.        -1.712p     0.        -1.7123p   -1.7123p   
-5.        -5.        -1.712p     0.        -1.7123p   -1.7123p   
-4.        -4.        -1.712p     0.        -1.7123p   -1.7123p   
-3.        -3.        -1.712p     0.        -1.7123p   -1.7123p   
-2.        -2.        -1.712p     0.        -1.7123p   -1.7123p   
-1.        -1.        -1.712p     0.        -1.7123p   -1.7123p   
 0.         0.        -1.712p     0.        -1.7123p   -1.7123p   
 1.         1.        -1.712p     0.        -1.7123p   -1.7123p   
 2.         2.        -1.712p     0.        -1.7123p   -1.7123p   
 3.         3.        -1.712p     0.        -1.7123p   -1.7123p   
 4.         4.        -1.712p     0.        -1.7123p   -1.7123p   
 5.         5.        -1.712p     0.        -1.7123p   -1.7123p   
 6.         6.        -1.712p     0.        -1.7123p   -1.7123p   
 7.         7.        -1.712p     0.        -1.7123p   -1.7123p   
 8.         8.        -1.712p     0.        -1.7123p   -1.7123p   
 9.         9.        -1.712p     0.        -1.7123p   -1.7123p   
 10.        10.       -1.712p     0.        -1.7123p   -1.7123p   
