nmos n gate, linear, lambda not specified, source tied to substrate 
cmosn: rsh - rs - rd conflict: using rsh
cmosn: is - js conflict
#           v(1)       v(2)       v(3)       iter(0)   
 27.        3.2367     0.0099989  0.01       5.        
#           i(Vgs)     i(Vds)     ps(Vgs)    ps(Vds)   
 27.        0.        -1.0757u    0.         10.757n   
#           id(M1)     vgs(M1)    vds(M1)    vbs(M1)    vth(M1)    vdsat(M1) 
 27.        1.0757u    3.2367     0.0099989  0.         1.0523     1.7556    
#           gm(M1)     gds(M1)    gmb(M1)    cbd(M1)    cbs(M1)   
 27.        365.34n    107.24u    195.64n    0.         0.        
#           cgsovl(M1) cgdovl(M1) cgbovl(M1) cgate(M1)  region(M1)
 27.        1.9707f    1.9707f    0.         62.973f    3.        
#           cgs(M1)    cgd(M1)    cgb(M1)    vgst(M1)   von(M1)   
 27.        31.547f    31.427f    0.         2.1844     1.0523    
#           cgst(M1)   cgdt(M1)   cgbt(M1)   is(M1)     ig(M1)     ib(M1)    
 27.        33.517f    33.397f    0.        -1.0757u    0.         0.        
#           p(M1)      pd(M1)     ps(M1)     ids(M1)    idstray(M1) iderror(M1)
 27.        10.756n    10.756n    0.         1.0757u    0.         ??        
#           vdm(M1)    vgm(M1)    vbm(M1)    vsm(M1)   
 27.        0.0049995  3.2317    -0.0049995 -0.0049995 
#           vd(M1)     vg(M1)     vb(M1)     vs(M1)    
 27.        0.0099989  3.2367     0.         0.        
#           v(1)       v(2)       v(3)       i(Vds)    
-10.       -10.        0.01       0.01       0.        
-9.        -9.         0.01       0.01       0.        
-8.        -8.         0.01       0.01       0.        
-7.        -7.         0.01       0.01       0.        
-6.        -6.         0.01       0.01       0.        
-5.        -5.         0.01       0.01       0.        
-4.        -4.         0.01       0.01       0.        
-3.        -3.         0.01       0.01       0.        
-2.        -2.         0.01       0.01       0.        
-1.        -1.         0.01       0.01       0.        
 0.         0.         0.01       0.01      -813.88p   
 1.         1.         0.0099999  0.01      -76.574n   
 2.         2.         0.0099995  0.01      -529.13n   
 3.         3.         0.009999   0.01      -982.49n   
 4.         4.         0.0099987  0.01      -1.3477u   
 5.         5.         0.0099983  0.01      -1.6876u   
 6.         6.         0.009998   0.01      -2.0135u   
 7.         7.         0.0099977  0.01      -2.3286u   
 8.         8.         0.0099974  0.01      -2.6351u   
 9.         9.         0.0099971  0.01      -2.9342u   
 10.        10.        0.0099968  0.01      -3.2272u   
