nmos n gate, linear, lambda specified 
cmosn: rsh - rs - rd conflict: using rsh
cmosn: is - js conflict
#           v(1)       v(2)       v(3)       v(4)       iter(0)   
 27.        3.2367     0.0099992  0.01      -1.2349     6.        
#           i(Vgs)     i(Vds)     i(Vbs)     ps(Vgs)    ps(Vds)    ps(Vbs)   
 27.        0.        -833.99n    0.         0.         8.3399n    0.        
#           id(M1)     vgs(M1)    vds(M1)    vbs(M1)    vth(M1)    vdsat(M1) 
 27.        833.99n    3.2367     0.0099992 -1.2349     1.3449     1.8918    
#           gm(M1)     gds(M1)    gmb(M1)    cbd(M1)    cbs(M1)   
 27.        442.01n    83.193u    140.81n    0.         0.        
#           cgsovl(M1) cgdovl(M1) cgbovl(M1) cgate(M1)  region(M1)
 27.        1.9707f    1.9707f    0.         62.973f    3.        
#           cgs(M1)    cgd(M1)    cgb(M1)    vgst(M1)   von(M1)   
 27.        31.698f    31.274f    0.         1.8918     1.3449    
#           cgst(M1)   cgdt(M1)   cgbt(M1)   is(M1)     ig(M1)     ib(M1)    
 27.        33.668f    33.244f    0.        -833.99n    0.         0.        
#           p(M1)      pd(M1)     ps(M1)     ids(M1)    idstray(M1) iderror(M1)
 27.        8.3392n    8.3392n    0.         833.99n    0.         ??        
#           vdm(M1)    vgm(M1)    vbm(M1)    vsm(M1)   
 27.        0.0049996  3.2317    -1.2399    -0.0049996 
#           vd(M1)     vg(M1)     vb(M1)     vs(M1)    
 27.        0.0099992  3.2367    -1.2349     0.        
#           v(1)       v(2)       v(3)       i(Vds)    
-10.       -10.        0.01       0.01       0.        
-9.        -9.         0.01       0.01       0.        
-8.        -8.         0.01       0.01       0.        
-7.        -7.         0.01       0.01       0.        
-6.        -6.         0.01       0.01       0.        
-5.        -5.         0.01       0.01       0.        
-4.        -4.         0.01       0.01       0.        
-3.        -3.         0.01       0.01       0.        
-2.        -2.         0.01       0.01       0.        
-1.        -1.         0.01       0.01       0.        
 0.         0.         0.01       0.01       0.        
 1.         1.         0.01       0.01       0.        
 2.         2.         0.0099997  0.01      -287.36n   
 3.         3.         0.0099993  0.01      -729.36n   
 4.         4.         0.0099988  0.01      -1.1713u   
 5.         5.         0.0099984  0.01      -1.6132u   
 6.         6.         0.0099979  0.01      -2.0551u   
 7.         7.         0.0099975  0.01      -2.497u    
 8.         8.         0.0099971  0.01      -2.9388u   
 9.         9.         0.0099966  0.01      -3.3805u   
 10.        10.        0.0099962  0.01      -3.8223u   
Vgs ( 1 0 )  DC  3.236734
M1 ( 2 1 0 4 )  cmosn  l=9.u w=9.u nrd=1. nrs=1.
Vds ( 3 0 )  DC  0.01
Rds ( 2 3 )  1.
Vbs ( 4 0 )  DC -1.234875
.model cmosn nmos1 ( level=1 kp=41.5964u vto=0.844345 gamma=0.863074 phi=0.6
+ lambda=.01 tox=41.8n nsub=15.3142E+15 nss=1.E+12 xj=400.n uo=503.521 tpg=1
+ tnom=NA( 27.) fc=0.5 pb=0.7 cj=384.4u mj=0.4884 cjsw=527.2p mjsw=0.3002 is=0
+ js=0. rsh=0. rd=0. rs=0. cbd=0. cbs=0. cgso=218.971p cgdo=218.971p cgbo=0.
+ ld=265.073n)
*    vmax= 55.9035K 
