.title mos7 inverter 
#          
 27.       
#           v(1)       v(2)       v(3)       v(4)       v(5)       v(6)       v(7)      
 0.         5.         0.         5.         4.656      5.         4.3833     5.        
 0.25       5.         0.25       5.         4.6379     5.         4.345      5.        
 0.5        5.         0.5        5.         4.6164     5.         4.2976     5.        
 0.75       5.         0.75       5.         4.5903     5.         4.237      4.9999    
 1.         5.         1.         4.9962     4.5534     4.9962     4.1551     4.9725    
 1.25       5.         1.25       4.9449     4.4416     4.9449     4.0333     4.6524    
 1.5        5.         1.5        4.8334     4.1831     4.8334     3.8079     4.1054    
 1.75       5.         1.75       4.6434     3.251      4.6434     3.3929     3.4404    
 2.         5.         2.         4.1824     1.5689     4.1824     2.9042     2.689     
 2.25       5.         2.25       0.50019    0.40069    0.50019    2.403      1.8867    
 2.5        5.         2.5        0.23364    0.21562    0.23364    1.9146     1.1001    
 2.75       5.         2.75       0.13874    0.13114    0.13874    1.4539     0.6237    
 3.         5.         3.         0.083035   0.079361   0.083035   1.033      0.47852   
 3.25       5.         3.25       0.046572   0.044802   0.046572   0.6636     0.4039    
 3.5        5.         3.5        0.022212   0.021459   0.022212   0.3558     0.35527   
 3.75       5.         3.75       0.0068481  0.0066359  0.0068481  0.12194    0.32024   
 4.         5.         4.         378.95u    368.u      378.95u    0.0073666  0.29353   
 4.25       5.         4.25       1.6913u    1.645u     1.6913u    34.874u    0.27237   
 4.5        5.         4.5        5.0867n    4.9542n    5.0867n    110.38n    0.25514   
 4.75       5.         4.75       1.2862n    1.2542n    1.2862n    29.232n    0.24081   
 5.         5.         5.         1.2259n    1.1967n    1.2259n    29.059n    0.22868   
#Time       v(1)       v(2)       v(3)       v(4)       v(5)       v(6)       v(7)      
 0.         5.         0.         5.         4.656      5.         4.3833     5.        
 100.p      5.         13.415p    5.         4.656      5.         4.3824     5.        
 200.p      5.        -16.178p    5.         4.656      5.         4.3844     5.        
 300.p      5.         18.155p    5.         4.656      5.         4.382      5.        
 400.p      5.        -20.711p    5.         4.656      5.         4.3848     5.        
 500.p      5.         23.653p    5.         4.656      5.         4.3815     5.        
 600.p      5.        -27.131p    5.         4.656      5.         4.3854     5.        
 700.p      5.         31.193p    5.         4.656      5.         4.3808     5.        
 800.p      5.        -25.655p    5.         4.656      5.         4.3853     5.        
 900.p      5.         21.249p    5.         4.656      5.         4.3817     5.        
 1.n        5.        -25.73p     5.         4.6561     5.         4.3853     5.        
 1.1n       5.         0.25       5.0108     4.6704     5.0008     4.3738     5.0403    
 1.2n       5.         0.5        5.001      4.6251     5.0014     4.3074     5.013     
 1.3n       5.         0.75       5.0109     4.6214     5.002      4.2681     5.0314    
 1.4n       5.         1.         5.0064     4.5818     5.0024     4.1853     5.0045    
 1.5n       5.         1.25       4.9645     4.4802     5.0006     4.0656     4.7189    
 1.6n       5.         1.5        4.8718     4.2613     4.9937     3.857      4.1796    
 1.7n       5.         1.75       4.6927     3.5885     4.9728     3.4442     3.5245    
 1.8n       5.         2.         4.3628     2.0252     4.9421     2.9698     2.7765    
 1.9n       5.         2.25       2.3303     0.50855    4.8977     2.4688     1.9742    
 2.n        5.         2.5        0.33472    0.22497    4.8377     1.9789     1.1735    
 2.1n       5.         2.75       0.12112    0.15347    4.7624     1.517      0.6519    
 2.2n       5.         3.         0.11836    0.085479   4.6685     1.092      0.49271   
 2.3n       5.         3.25       0.039895   0.057951   4.5528     0.71823    0.41736   
 2.4n       5.         3.5        0.043629   0.026537   4.4135     0.40463    0.36423   
 2.5n       5.         3.75      -951.12u    0.016258   4.247      0.16438    0.32939   
 2.6n       5.         4.         0.016257   0.0047952  4.0566     0.036565   0.30045   
 2.7n       5.         4.25      -0.0055704  0.0077252  3.8439     0.021699   0.27956   
 2.8n       5.         4.5        0.0129     0.004346   3.6105     0.025645   0.26095   
 2.9n       5.         4.75      -0.0039607  0.0067649  3.3555     0.022943   0.24685   
 3.n        5.         5.         0.010845   0.0041977  3.0789     0.024773   0.23378   
 3.1n       5.         5.        -0.010174  -0.003954   2.7916    -0.016783   0.22401   
 3.2n       5.         5.         0.0096214  0.003736   2.5063     0.01137    0.23301   
 3.3n       5.         5.        -0.0090282 -0.0035196  2.2232    -0.0077029  0.22472   
 3.4n       5.         5.         0.008534   0.003325   1.9428     0.0052185  0.23235   
 3.5n       5.         5.        -0.0080116 -0.003133   1.6661    -0.0035354  0.22532   
 3.6n       5.         5.         0.0075703  0.0029594  1.3953     0.0023952  0.2318    
 3.7n       5.         5.        -0.0071098 -0.0027889  1.1354    -0.0016226  0.22583   
 3.8n       5.         5.         0.0067161  0.0026341  0.89888    0.0023952  0.23133   
 3.9n       5.         5.        -0.0063098 -0.0024827  0.69097   -0.0029184  0.22626   
 4.n        5.         5.         0.0059586  0.0024074  0.51617    0.0019772  0.23093   
 4.1n       5.         5.        -0.0056    -0.0024207  0.37557   -0.0029184  0.22626   
 4.2n       5.         5.         0.005287   0.0026185  0.2671     0.0035562  0.23129   
 4.3n       5.         5.        -0.0049702 -0.002468   0.18642   -0.0024092  0.22629   
 4.4n       5.         5.         0.0046914  0.0023932  0.12822    0.0016322  0.2309    
 4.5n       5.         5.        -0.0044114 -0.0024064  0.087224  -0.0024092  0.22629   
 4.6n       5.         5.         0.0041631  0.002603   0.058865   0.0029356  0.23126   
 4.7n       5.         5.        -0.0039155 -0.0023894  0.039505  -0.0019888  0.22632   
 4.8n       5.         5.         0.0036944  0.002603   0.026352   0.0029356  0.23087   
 4.9n       5.         5.        -0.0034754 -0.0023894  0.017543  -0.003577   0.22632   
 5.n        5.         5.         0.0032787  0.002603   0.011663   0.0024234  0.23123   
Gnucap   System status
iterations: op=9, dc=128, tran=362, fourier=0, total=559
transient timesteps: accepted=60, rejected=2, total=62
nodes: user=7, subckt=0, model=0, total=7
dctran density=59.2%, ac density=59.2%
