nmos n gate, linear, lambda not specified, short channel 
cmosn: rsh - rs - rd conflict: using rsh
cmosn: is - js conflict
#           v(1)       v(2)       v(3)       v(4)       iter(0)   
 27.        3.2367     0.0099463  0.01      -1.2349     5.        
#           i(Vgs)     i(Vds)     i(Vbs)     ps(Vgs)    ps(Vds)    ps(Vbs)   
 27.        0.        -53.69u     0.         0.         536.9n     0.        
#           id(M1)     vgs(M1)    vds(M1)    vbs(M1)    vth(M1)    vdsat(M1) 
 27.        53.69u     3.2367     0.0099463 -1.2349     0.64031    2.6457    
#           gm(M1)     gds(M1)    gmb(M1)    cbd(M1)    cbs(M1)   
 27.        12.688u    0.0053929 -1.1585u    0.         0.        
#           cgsovl(M1) cgdovl(M1) cgbovl(M1) cgate(M1)  region(M1)
 27.        1.9707f    1.9707f    0.         2.7499f    3.        
#           cgs(M1)    cgd(M1)    cgb(M1)    vgst(M1)   von(M1)   
 27.        1.3767f    1.3732f    0.         2.5964     0.64031   
#           cgst(M1)   cgdt(M1)   cgbt(M1)   is(M1)     ig(M1)     ib(M1)    
 27.        3.3474f    3.3439f    0.        -53.69u     0.         0.        
#           p(M1)      pd(M1)     ps(M1)     ids(M1)    idstray(M1) iderror(M1)
 27.        534.02n    534.02n    0.         53.69u     0.         ??        
#           vdm(M1)    vgm(M1)    vbm(M1)    vsm(M1)   
 27.        0.0049732  3.2318    -1.2398    -0.0049732 
#           vd(M1)     vg(M1)     vb(M1)     vs(M1)    
 27.        0.0099463  3.2367    -1.2349     0.        
#           v(1)       v(2)       v(3)       i(Vds)    
-10.       -10.        0.01       0.01       0.        
-9.        -9.         0.01       0.01       0.        
-8.        -8.         0.01       0.01       0.        
-7.        -7.         0.01       0.01       0.        
-6.        -6.         0.01       0.01       0.        
-5.        -5.         0.01       0.01       0.        
-4.        -4.         0.01       0.01       0.        
-3.        -3.         0.01       0.01       0.        
-2.        -2.         0.01       0.01       0.        
-1.        -1.         0.01       0.01      -1.4674n   
 0.         0.         0.0099998  0.01      -202.6n    
 1.         1.         0.009987   0.01      -13.029u   
 2.         2.         0.0099662  0.01      -33.803u   
 3.         3.         0.0099494  0.01      -50.641u   
 4.         4.         0.0099372  0.01      -62.767u   
 5.         5.         0.0099267  0.01      -73.339u   
 6.         6.         0.0099171  0.01      -82.867u   
 7.         7.         0.0099083  0.01      -91.655u   
 8.         8.         0.0099001  0.01      -99.893u   
 9.         9.         0.0098923  0.01      -107.71u   
 10.        10.        0.0098848  0.01      -115.18u   
