.title mos7 inverter 
#          
 27.       
#           v(1)       v(2)       v(3)       v(4)       v(5)       v(6)       v(7)      
 0.         5.         0.         5.         4.656      5.         4.3833     5.        
 0.25       5.         0.25       5.         4.6379     5.         4.345      5.        
 0.5        5.         0.5        5.         4.6164     5.         4.2976     5.        
 0.75       5.         0.75       5.         4.5903     5.         4.237      4.9999    
 1.         5.         1.         4.9962     4.5534     4.9962     4.1551     4.9725    
 1.25       5.         1.25       4.9449     4.4416     4.9449     4.0333     4.6524    
 1.5        5.         1.5        4.8334     4.1831     4.8334     3.8079     4.1054    
 1.75       5.         1.75       4.6434     3.251      4.6434     3.3929     3.4404    
 2.         5.         2.         4.1824     1.5689     4.1824     2.9042     2.689     
 2.25       5.         2.25       0.50019    0.40069    0.50019    2.403      1.8867    
 2.5        5.         2.5        0.23364    0.21562    0.23364    1.9146     1.1001    
 2.75       5.         2.75       0.13874    0.13114    0.13874    1.4539     0.6237    
 3.         5.         3.         0.083035   0.079361   0.083035   1.033      0.47852   
 3.25       5.         3.25       0.046572   0.044802   0.046572   0.6636     0.4039    
 3.5        5.         3.5        0.022212   0.021459   0.022212   0.3558     0.35527   
 3.75       5.         3.75       0.0068481  0.0066359  0.0068481  0.12194    0.32024   
 4.         5.         4.         378.95u    368.u      378.95u    0.0073666  0.29353   
 4.25       5.         4.25       1.6913u    1.645u     1.6913u    34.874u    0.27237   
 4.5        5.         4.5        5.0867n    4.9542n    5.0867n    110.38n    0.25514   
 4.75       5.         4.75       1.2862n    1.2542n    1.2862n    29.232n    0.24081   
 5.         5.         5.         1.2259n    1.1967n    1.2259n    29.059n    0.22868   
#Time       v(1)       v(2)       v(3)       v(4)       v(5)       v(6)       v(7)      
 0.         5.         0.         5.         4.656      5.         4.3833     5.        
 100.p      5.        -1.774p     5.         4.656      5.         4.3834     5.        
 200.p      5.         1.786p     5.         4.656      5.         4.3833     5.        
 300.p      5.        -1.907p     5.         4.656      5.         4.3834     5.        
 400.p      5.         2.02p      5.         4.656      5.         4.3832     5.        
 500.p      5.        -2.167p     5.         4.656      5.         4.3834     5.        
 600.p      5.         2.328p     5.         4.656      5.         4.3832     5.        
 700.p      5.        -2.526p     5.         4.656      5.         4.3834     5.        
 800.p      5.         2.751p     5.         4.656      5.         4.3832     5.        
 900.p      5.        -3.022p     5.         4.656      5.         4.3835     5.        
 1.n        5.         3.333p     5.         4.656      5.         4.3831     5.        
 1.1n       5.         0.25       5.0191     4.6704     5.0008     4.3765     5.0403    
 1.2n       5.         0.5        5.0087     4.6329     5.0014     4.3141     5.019     
 1.3n       5.         0.75       5.0036     4.6152     5.002      4.2623     5.0273    
 1.4n       5.         1.         5.0055     4.5766     5.0023     4.1798     4.9985    
 1.5n       5.         1.25       4.9654     4.4846     5.         4.0708     4.7228    
 1.6n       5.         1.5        4.8711     4.2571     4.9938     3.8501     4.1769    
 1.7n       5.         1.75       4.6933     3.5944     4.9741     3.4494     3.5263    
 1.8n       5.         2.         4.362      2.0223     4.9433     2.9656     2.7752    
 1.9n       5.         2.25       2.3304     0.50855    4.8988     2.4677     1.9739    
 2.n        5.         2.5        0.33472    0.22497    4.8387     1.9797     1.1737    
 2.1n       5.         2.75       0.12112    0.15347    4.7633     1.5164     0.65184   
 2.2n       5.         3.         0.11836    0.085479   4.6694     1.0924     0.49274   
 2.3n       5.         3.25       0.039895   0.057951   4.5537     0.71797    0.41735   
 2.4n       5.         3.5        0.04363    0.026537   4.4145     0.40481    0.36424   
 2.5n       5.         3.75      -951.58u    0.016258   4.2479     0.16426    0.32939   
 2.6n       5.         4.         0.016258   0.0047953  4.0576     0.036653   0.30046   
 2.7n       5.         4.25      -0.0055708  0.0077252  3.8449     0.021639   0.27955   
 2.8n       5.         4.5        0.0129     0.0043461  3.6114     0.025685   0.26095   
 2.9n       5.         4.75      -0.003961   0.0067649  3.3564     0.022915   0.24685   
 3.n        5.         5.         0.010846   0.0041978  3.0798     0.024792   0.23379   
 3.1n       5.         5.        -0.010175  -0.003954   2.7925    -0.016796   0.22401   
 3.2n       5.         5.         0.0096216  0.003736   2.5072     0.011379   0.23301   
 3.3n       5.         5.        -0.0090284 -0.0035196  2.224     -0.0077086  0.22472   
 3.4n       5.         5.         0.0085342  0.0033251  1.9436     0.0052224  0.23236   
 3.5n       5.         5.        -0.0080118 -0.003133   1.6669    -0.003538   0.22532   
 3.6n       5.         5.         0.0075705  0.0029594  1.3961     0.0023969  0.2318    
 3.7n       5.         5.        -0.00711   -0.0027889  1.1362    -0.0016238  0.22583   
 3.8n       5.         5.         0.0067162  0.0026341  0.89959    0.0023969  0.23133   
 3.9n       5.         5.        -0.00631   -0.0024827  0.69158   -0.0029206  0.22626   
 4.n        5.         5.         0.0059588  0.0024074  0.51667    0.0019787  0.23093   
 4.1n       5.         5.        -0.0056002 -0.0024207  0.37597   -0.0029206  0.22626   
 4.2n       5.         5.         0.0052871  0.0026185  0.2674     0.0035588  0.2313    
 4.3n       5.         5.        -0.0049703 -0.002468   0.18664   -0.002411   0.22629   
 4.4n       5.         5.         0.0046915  0.0023932  0.12837    0.0016334  0.2309    
 4.5n       5.         5.        -0.0044115 -0.0024064  0.087332  -0.002411   0.22629   
 4.6n       5.         5.         0.0041631  0.002603   0.05894    0.0029378  0.23126   
 4.7n       5.         5.        -0.0039156 -0.0023894  0.039555  -0.0019903  0.22632   
 4.8n       5.         5.         0.0036945  0.002603   0.026386   0.0029378  0.23087   
 4.9n       5.         5.        -0.0034755 -0.0023894  0.017566  -0.0035797  0.22632   
 5.n        5.         5.         0.0032787  0.002603   0.011678   0.0024252  0.23123   
Gnucap   System status
iterations: op=9, dc=128, tran=406, fourier=0, total=598
transient timesteps: accepted=55, rejected=5, total=60
nodes: user=7, subckt=0, model=0, total=7
dctran density=59.2%, ac density=59.2%
