.title mos2 inverter 
#          
 27.       
#           v(1)       v(2)       v(3)       v(4)       v(5)       v(6)       v(7)      
 0.         5.         0.         5.         4.5941     5.         4.2966     5.        
 0.25       5.         0.25       5.         4.5687     5.         4.2523     5.        
 0.5        5.         0.5        5.         4.5397     5.         4.2014     5.        
 0.75       5.         0.75       4.9996     4.5058     4.9996     4.1421     4.9981    
 1.         5.         1.         4.9863     4.4525     4.9863     4.0719     4.9304    
 1.25       5.         1.25       4.95       4.3664     4.95       3.9868     4.766     
 1.5        5.         1.5        4.8833     4.2335     4.8833     3.8803     4.505     
 1.75       5.         1.75       4.7738     4.0264     4.7738     3.7408     4.1472    
 2.         5.         2.         4.5974     3.6708     4.5974     3.5426     3.6928    
 2.25       5.         2.25       4.2916     2.4863     4.2916     3.2017     3.1417    
 2.5        5.         2.5        1.7997     0.96441    1.7997     2.5062     2.4938    
 2.75       5.         2.75       0.70836    0.56397    0.70836    1.8583     1.7983    
 3.         5.         3.         0.40263    0.33902    0.40263    1.3072     1.4574    
 3.25       5.         3.25       0.22621    0.19589    0.22621    0.85279    1.2592    
 3.5        5.         3.5        0.11672    0.10288    0.11672    0.49504    1.1197    
 3.75       5.         3.75       0.05       0.044621   0.05       0.23399    1.0132    
 4.         5.         4.         0.013665   0.012309   0.013665   0.069615   0.92812   
 4.25       5.         4.25       352.14u    319.55u    352.14u    0.0019338  0.85788   
 4.5        5.         4.5        6.6046n    6.0301n    6.6046n    38.826n    0.79861   
 4.75       5.         4.75       6.1969n    5.6885n    6.1969n    38.826n    0.74772   
 5.         5.         5.         5.8366n    5.3834n    5.8366n    38.826n    0.70343   
#Time       v(1)       v(2)       v(3)       v(4)       v(5)       v(6)       v(7)      
 0.         5.         0.         5.         4.5941     5.         4.2966     5.        
 100.p      5.        -598.f      5.         4.5941     5.0001     4.2966     5.        
 200.p      5.         593.f      5.         4.5941     5.0001     4.2966     5.        
 300.p      5.        -597.f      5.         4.5941     5.0001     4.2966     5.        
 400.p      5.         593.f      5.         4.5941     5.0001     4.2966     5.        
 500.p      5.        -597.f      5.         4.5941     5.0001     4.2966     5.        
 600.p      5.         593.f      5.         4.5941     5.         4.2966     5.        
 700.p      5.        -596.f      5.         4.5941     5.         4.2966     5.        
 800.p      5.         594.f      5.         4.5941     5.         4.2966     5.        
 900.p      5.        -596.f      5.         4.5941     5.         4.2966     5.        
 1.n        5.         595.f      5.         4.5941     5.         4.2966     5.        
 1.1n       5.         0.25       5.0036     4.5726     5.0002     4.2564     5.        
 1.2n       5.         0.5        5.0001     4.5398     5.0004     4.2016     5.        
 1.3n       5.         0.75       5.0037     4.5103     5.0005     4.1469     4.9981    
 1.4n       5.         1.         4.9868     4.4532     5.0001     4.0723     4.9304    
 1.5n       5.         1.25       4.9551     4.3723     4.9985     3.9926     4.766     
 1.6n       5.         1.5        4.8847     4.2354     4.9933     3.8813     4.505     
 1.7n       5.         1.75       4.7811     4.0359     4.9832     3.7489     4.1472    
 1.8n       5.         2.         4.6014     3.6774     4.9667     3.5447     3.6928    
 1.9n       5.         2.25       4.3076     2.5396     4.9423     3.2158     3.1417    
 2.n        5.         2.5        3.3831     0.98029    4.9084     2.4993     2.4938    
 2.1n       5.         2.75       0.76532    0.57075    4.8633     1.8652     1.8068    
 2.2n       5.         3.         0.38105    0.34487    4.8052     1.3004     1.4629    
 2.3n       5.         3.25       0.25336    0.19927    4.7319     0.8596     1.2644    
 2.4n       5.         3.5        0.10213    0.10647    4.641      0.48823    1.1232    
 2.5n       5.         3.75       0.068749   0.046829   4.5295     0.2408     1.0168    
 2.6n       5.         4.         0.0023751  0.014893   4.3947     0.062805   0.93073   
 2.7n       5.         4.25       0.014863   0.0019397  4.234      0.0087439  0.86066   
 2.8n       5.         4.5       -0.0091904  0.0020795  4.0472    -0.0068101  0.80071   
 2.9n       5.         4.75       0.01204    0.001447   3.8351     0.0068101  0.75      
 3.n        5.         5.        -0.0075557  0.0018432  3.5981    -0.0068101  0.7052    
 3.1n       5.         5.         0.0073605 -0.0017956  3.35       0.0068101  0.70171   
 3.2n       5.         5.        -0.0071459  0.0018432  3.1098    -0.0068101  0.7052    
 3.3n       5.         5.         0.0069606 -0.0018881  2.8775     0.0068101  0.70161   
 3.4n       5.         5.        -0.0067582  0.0019357  2.6542    -0.0068101  0.70529   
 3.5n       5.         5.         0.0065825 -0.0019829  2.4408     0.0068101  0.70152   
 3.6n       5.         5.        -0.0063916  0.0020329  2.2381    -0.0068101  0.70539   
 3.7n       5.         5.         0.0062248 -0.0020824  2.0467     0.0068101  0.70142   
 3.8n       5.         5.        -0.0060449  0.002135   1.8669    -0.0068101  0.70549   
 3.9n       5.         5.         0.0058867 -0.0021869  1.6988     0.0068101  0.70132   
 4.n        5.         5.        -0.0057169  0.0022422  1.5423    -0.0068101  0.7056    
 4.1n       5.         5.         0.0055669 -0.0022967  1.3974     0.0068101  0.70121   
 4.2n       5.         5.        -0.0054068  0.0023548  1.2637    -0.0068101  0.70559   
 4.3n       5.         5.         0.0052645 -0.002412   1.1408     0.0068101  0.70132   
 4.4n       5.         5.        -0.0051134  0.0024731  1.0281    -0.0068101  0.70559   
 4.5n       5.         5.         0.0049785 -0.0025331  0.92522    0.0068101  0.70121   
 4.6n       5.         5.        -0.004836   0.00247    0.8315    -0.0068101  0.70559   
 4.7n       5.         5.         0.0047081 -0.002406   0.74635    0.0068101  0.70133   
 4.8n       5.         5.        -0.0045736  0.00247    0.66918   -0.0068101  0.70559   
 4.9n       5.         5.         0.0044524 -0.0025298  0.59939    0.0068101  0.70122   
 5.n        5.         5.        -0.0043254  0.0024668  0.53638   -0.0068101  0.70559   
Gnucap   System status
iterations: op=9, dc=148, tran=273, fourier=0, total=483
transient timesteps: accepted=53, rejected=0, total=53
nodes: user=7, subckt=0, model=0, total=7
dctran density=59.2%, ac density=59.2%
