.title na2 
#           v(1)       v(2)       v(4)       v(5)       z(5)       iter(0)   
 0.         0.         0.         0.         0.         1.E+12     0.        
-1.         5.         0.         2.6869     5.8842u    996.24Meg  1.        
-2.         5.         0.         154.84     6.2334u    996.23Meg  2.        
-3.         5.         0.         4.991      244.14n    996.23Meg  3.        
-4.         5.         0.         5.         261.7n     996.23Meg  4.        
-5.         5.         0.         5.         261.7n     996.23Meg  5.        
-6.         5.         0.         5.         261.7n     996.23Meg  6.        
-7.         5.         0.         5.         261.7n     996.23Meg  7.        
 27.        5.         0.         5.         261.7n     996.23Meg  8.        
#           region(XI10.Mp1.Ddb) region(XI10.Mp2.Ddb) region(XI10.Mn1.Ddb) region(XI10.Mn2.Ddb) region(XI10.Mn1.Dsb)
 0.        -1.        -1.        -1.        -1.        -1.        
-1.        -1.        -1.        -1.        -1.        -1.        
-2.        -1.        -1.        -1.        -1.        -1.        
-3.         1.         1.        -1.        -1.        -1.        
-4.        -1.        -1.        -1.        -1.        -1.        
-5.        -1.        -1.        -1.        -1.        -1.        
-6.        -1.        -1.        -1.        -1.        -1.        
-7.        -1.        -1.        -1.        -1.        -1.        
 27.       -1.        -1.        -1.        -1.        -1.        
#           V(XI10.Mp1.Ddb) V(XI10.Mp2.Ddb) V(XI10.Mn1.Ddb) V(XI10.Mn2.Ddb) V(XI10.Mn1.Dsb)
 0.         0.         0.         0.         0.         0.        
-1.        -2.3131    -2.3131    -2.6869    -5.8842u   -5.8842u   
-2.         149.84     149.84    -154.84    -6.2334u   -6.2334u   
-3.        -0.0089704 -0.0089704 -4.991     -244.14n   -244.14n   
-4.         28.028u    28.028u   -5.        -261.7n    -261.7n    
-5.        -3.4216n   -3.4216n   -5.        -261.7n    -261.7n    
-6.        -3.2751n   -3.2751n   -5.        -261.7n    -261.7n    
-7.        -3.2751n   -3.2751n   -5.        -261.7n    -261.7n    
 27.       -3.2751n   -3.2751n   -5.        -261.7n    -261.7n    
#           I(XI10.Mp1.Ddb) I(XI10.Mp2.Ddb) I(XI10.Mn1.Ddb) I(XI10.Mn2.Ddb) I(XI10.Mn1.Dsb)
 0.         0.         0.         0.         0.         0.        
-1.        -3.2074p   -3.2074p   -3.7258p   -8.159E-18 -8.159E-18 
-2.         149.83p    149.83p   -154.85p   -8.643E-18 -8.643E-18 
-3.        -46.453u   -46.453u   -5.001p    -339.E-21  -339.E-21  
-4.        -443.2E-18 -443.2E-18 -5.01p     -363.E-21  -363.E-21  
-5.        -11.E-21   -11.E-21   -5.01p     -363.E-21  -363.E-21  
-6.        -5.E-21    -5.E-21    -5.01p     -363.E-21  -363.E-21  
-7.        -5.E-21    -5.E-21    -5.01p     -363.E-21  -363.E-21  
 27.       -5.E-21    -5.E-21    -5.01p     -363.E-21  -363.E-21  
#Time       v(2)       v(4)       v(5)       iter(0)   
 0.         0.         5.         261.7n     8.        
 1.p        0.         5.         261.7n     3.        
 3.6757p    0.         5.         261.7n     3.        
 100.p      0.         5.         261.7n     3.        
 200.p      0.         5.         261.7n     3.        
 300.p      0.         5.         261.7n     3.        
 400.p      0.         5.         261.7n     3.        
 500.p      0.         5.         261.7n     3.        
 600.p      0.         5.         261.7n     3.        
 700.p      0.         5.         261.7n     3.        
 800.p      0.         5.         261.7n     3.        
 900.p      0.         5.         261.7n     3.        
 1.n        1.f        5.         261.7n     3.        
 1.1n       0.25       5.0038     0.25       5.        
 1.2n       0.5        5.0068     0.49999    5.        
 1.3n       0.75       5.009      0.74997    5.        
 1.4n       1.         5.0109     1.0014     5.        
 1.5n       1.25       5.0125     0.99593    5.        
 1.6n       1.5        5.0135     0.2618     8.        
 1.7n       1.75       5.0088     0.19554    7.        
 1.8n       2.         4.9958     0.2672     5.        
 1.9n       2.25       4.9769     0.29504    5.        
 2.n        2.5        4.9499     0.34525    5.        
 2.1n       2.75       4.9143     0.38181    5.        
 2.2n       3.         4.8679     0.42614    5.        
 2.3n       3.25       4.8085     0.46461    5.        
 2.4n       3.5        4.7318     0.50628    5.        
 2.5n       3.75       4.6345     0.5449     4.        
 2.6n       4.         4.5175     0.58491    5.        
 2.7n       4.25       4.382      0.6231     5.        
 2.8n       4.5        4.2299     0.66177    4.        
 2.9n       4.75       4.0609     0.6991     4.        
 3.n        5.         3.8748     0.73626    4.        
 3.1n       5.         3.6771     0.71499    4.        
 3.2n       5.         3.4798     0.72484    4.        
 3.3n       5.         3.2834     0.71003    4.        
 3.4n       5.         3.0875     0.71408    4.        
 3.5n       5.         2.8925     0.70275    4.        
 3.6n       5.         2.6983     0.70255    4.        
 3.7n       5.         2.5053     0.69227    4.        
 3.8n       5.         2.3134     0.68769    5.        
 3.9n       5.         2.1234     0.67496    5.        
 4.n        5.         1.936      0.66178    5.        
 4.1n       5.         1.7526     0.63692    5.        
 4.2n       5.         1.5749     0.60518    5.        
 4.3n       5.         1.4047     0.56406    5.        
 4.4n       5.         1.2436     0.51943    5.        
 4.5n       5.         1.0929     0.47076    5.        
 4.6n       5.         0.95349    0.42219    5.        
 4.7n       5.         0.82608    0.37363    5.        
 4.8n       5.         0.71094    0.32779    5.        
 4.9n       5.         0.60804    0.28444    5.        
 5.n        5.         0.51705    0.24514    5.        
 5.1n       5.         0.43736    0.20939    5.        
 5.2n       5.         0.36821    0.17796    5.        
 5.3n       5.         0.30868    0.15015    5.        
 5.4n       5.         0.25782    0.12626    5.        
 5.5n       5.         0.21465    0.10555    5.        
 5.6n       5.         0.17821    0.088065   5.        
 5.7n       5.         0.1476     0.073113   4.        
 5.8n       5.         0.12201    0.060664   4.        
 5.9n       5.         0.10068    0.050114   4.        
 6.n        5.         0.082955   0.041422   4.        
 6.1n       5.         0.068272   0.034096   4.        
 6.2n       5.         0.056131   0.02811    4.        
 6.3n       5.         0.046111   0.023077   4.        
 6.4n       5.         0.037853   0.018996   4.        
 6.5n       5.         0.031057   0.015564   4.        
 6.6n       5.         0.025468   0.0128     4.        
 6.7n       5.         0.020878   0.010471   4.        
 6.8n       5.         0.017109   0.0086081  4.        
 6.9n       5.         0.014017   0.0070325  4.        
 7.n        5.         0.011481   0.0057819  4.        
 7.1n       5.         0.0094023  0.0047177  4.        
 7.2n       5.         0.0076987  0.0038804  4.        
 7.3n       5.         0.0063033  0.0031621  4.        
 7.4n       5.         0.0051601  0.002603   4.        
 7.5n       5.         0.0042241  0.0021181  4.        
 7.6n       5.         0.0034574  0.0017457  4.        
 7.7n       5.         0.00283    0.0014181  4.        
 7.8n       5.         0.0023161  0.0011706  4.        
 7.9n       5.         0.0018956  949.03u    4.        
 8.n        5.         0.0015513  784.99u    4.        
 8.1n       5.         0.0012696  634.85u    4.        
 8.2n       5.         0.0010389  526.5u     4.        
 8.3n       5.         850.28u    424.51u    4.        
 8.4n       5.         695.76u    353.22u    4.        
 8.5n       5.         569.41u    283.72u    4.        
 8.6n       5.         465.91u    237.06u    4.        
 8.7n       5.         381.31u    189.52u    4.        
 8.8n       5.         311.99u    159.18u    4.        
 8.9n       5.         255.34u    126.51u    4.        
 9.n        5.         208.91u    106.96u    4.        
 9.1n       5.         170.98u    84.38u     4.        
 9.2n       5.         139.89u    71.931u    4.        
 9.3n       5.         114.5u     56.221u    4.        
 9.4n       5.         93.67u     48.424u    4.        
 9.5n       5.         76.672u    37.411u    4.        
 9.6n       5.         62.722u    32.642u    4.        
 9.7n       5.         51.343u    24.854u    4.        
 9.8n       5.         41.998u    22.039u    4.        
 9.9n       5.         34.383u    16.477u    4.        
 10.n       5.         28.122u    14.91u     4.        
Gnucap   System status
iterations: op=8, dc=0, tran=444, fourier=0, total=579
transient timesteps: accepted=103, rejected=0, total=103
nodes: user=4, subckt=0, model=0, total=4
dctran density=87.5%, ac density=87.5%
