nmos n gate, linear, lambda specified 
cmosn: rsh - rs - rd conflict: using rsh
cmosn: is - js conflict
#           v(1)       v(2)       v(3)       v(4)       iter(0)   
 27.        3.2367    -0.0099991 -0.01      -1.2349     5.        
#           i(Vgs)     i(Vds)     i(Vbs)     ps(Vgs)    ps(Vds)    ps(Vbs)   
 27.        0.         853.46n    0.         0.         8.5346n    0.        
#           id(M1)     vgs(M1)    vds(M1)    vbs(M1)    vth(M1)    vdsat(M1) 
 27.       -853.46n    3.2367    -0.0099991 -1.2349     1.5233     1.5304    
#           gm(M1)     gds(M1)    gmb(M1)    cbd(M1)    cbs(M1)   
 27.        442.01n    85.074u    134.17n    0.         0.        
#           cgsovl(M1) cgdovl(M1) cgbovl(M1) cgate(M1)  region(M1)
 27.        1.9707f    1.9707f    0.         62.973f   -3.        
#           cgs(M1)    cgd(M1)    cgb(M1)    vgst(M1)   von(M1)   
 27.        31.418f    31.555f    0.         1.7235     1.5233    
#           cgst(M1)   cgdt(M1)   cgbt(M1)   is(M1)     ig(M1)     ib(M1)    
 27.        33.389f    33.526f    0.         853.46n    0.         0.        
#           p(M1)      pd(M1)     ps(M1)     ids(M1)    idstray(M1) iderror(M1)
 27.        8.5338n    8.5338n    0.         853.46n    0.         ??        
#           vdm(M1)    vgm(M1)    vbm(M1)    vsm(M1)   
 27.       -0.0049996  3.2417    -1.2299     0.0049996 
#           vd(M1)     vg(M1)     vb(M1)     vs(M1)    
 27.       -0.0099991  3.2367    -1.2349     0.        
#           v(1)       v(2)       v(3)       i(Vds)    
-10.       -10.       -0.01      -0.01       0.        
-9.        -9.        -0.01      -0.01       0.        
-8.        -8.        -0.01      -0.01       0.        
-7.        -7.        -0.01      -0.01       0.        
-6.        -6.        -0.01      -0.01       0.        
-5.        -5.        -0.01      -0.01       0.        
-4.        -4.        -0.01      -0.01       0.        
-3.        -3.        -0.01      -0.01       0.        
-2.        -2.        -0.01      -0.01       0.        
-1.        -1.        -0.01      -0.01       0.        
 0.         0.        -0.01      -0.01       0.        
 1.         1.        -0.01      -0.01       8.3284n   
 2.         2.        -0.0099997 -0.01       306.83n   
 3.         3.        -0.0099993 -0.01       748.83n   
 4.         4.        -0.0099988 -0.01       1.151u    
 5.         5.        -0.0099985 -0.01       1.4931u   
 6.         6.        -0.0099982 -0.01       1.8204u   
 7.         7.        -0.0099979 -0.01       2.1365u   
 8.         8.        -0.0099976 -0.01       2.4436u   
 9.         9.        -0.0099973 -0.01       2.7434u   
 10.        10.       -0.009997  -0.01       3.0368u   
