nonlinear res test 
#           i(R1)      vin(R1)    i(V1)      iter(0)    f(R1)      df(R1)     in(R1)     iof(R1)   
 0.         0.1       -1.u       -0.1        4.        -1.u        2.0202     0.1        0.1       
 1.         0.99995    0.99999   -0.99995    9.         0.99999    0.20212    0.99995   -3.9476    
 2.         9.9951     1.9999    -9.9951     9.         1.9999     0.020302   9.9951    -88.514    
 3.         99.519     2.999     -99.519     9.         2.999      0.0021174  99.519    -1.3169K   
 4.         960.33     3.9904    -960.33     8.         3.9904     282.16u    960.33    -13.182K   
 5.         8.0114K    4.9199    -8.0114K    7.         4.9199     60.374u    8.0114K   -73.478K   
 6.         43.569K    5.5643    -43.569K    6.         5.5643     13.42u     43.569K   -371.05K   
 7.         100.K      6.0002    -99.983K    9.         6.         10.u       99.983K   -500.01K   
 8.         183.78K    6.1625    -183.75K    10.        6.1622     10.u       183.75K   -432.47K   
 9.         268.78K    6.3131    -268.69K    9.         6.3122     10.u       268.69K   -362.52K   
 10.        355.05K    6.4506    -354.94K    9.         6.4495     10.u       354.94K   -290.01K   
 9.         268.76K    6.3115    -268.85K    9.         6.3124     10.u       268.85K   -362.39K   
 8.         183.77K    6.162     -183.8K     10.        6.1623     10.u       183.8K    -432.42K   
 7.         99.996K    5.9998    -100.02K    10.        6.         10.u       100.02K   -499.98K   
 6.         43.569K    5.5643    -43.569K    6.         5.5643     13.42u     43.569K   -371.05K   
 5.         8.0114K    4.9199    -8.0114K    9.         4.9199     60.374u    8.0114K   -73.478K   
 4.         960.33     3.9904    -960.33     12.        3.9904     282.16u    960.33    -13.182K   
 3.         99.519     2.999     -99.519     12.        2.999      0.0021174  99.519    -1.3169K   
 2.         9.9951     1.9999    -9.9951     11.        1.9999     0.020302   9.9951    -88.514    
 1.         0.99995    0.99999   -0.99995    10.        0.99999    0.20212    0.99995   -3.9476    
 0.         0.1       -1.u       -0.1        5.        -1.u        2.0202     0.1        0.1       
Gnucap   System status
iterations: op=0, dc=183, tran=0, fourier=0, total=183
transient timesteps: accepted=0, rejected=0, total=0
nodes: user=1, subckt=0, model=0, total=1
dctran density=100.0%, ac density=100.0%
