nonlinear res test 
#           i(R1)      vin(R1)    i(V1)      iter(0)    f(R1)      df(R1)     in(R1)     iof(R1)   
 0.         0.099999  -999.99E-9 -0.099999   4.        -999.99E-9  1.1111     0.099999   0.1       
 1.         0.99999    0.99999   -0.99999    4.         0.99999    1.1111     0.99999    0.1       
 2.         9.9991     1.9999    -9.9991     5.         1.9999     0.11111    9.9991    -8.        
 3.         99.91      2.999     -99.91      5.         2.999      0.011111   99.91     -170.      
 4.         991.08     3.9901    -991.08     5.         3.9901     0.0011111  991.08    -2.6E+3    
 5.         9.1743E+3  4.9083    -9.1743E+3  5.         4.9083     111.11E-6  9.1743E+3 -35.E+3    
 6.         52.632E+3  5.4737    -52.632E+3  5.         5.4737     11.111E-6  52.632E+3 -440.E+3   
did not converge
 7.         100.E+3    6.        -100.E+3    124.       6.         11.111E-6  100.E+3   -440.E+3   
 8.         190.01E+3  6.1006    -189.94E+3  10.        6.0999     10.E-6     189.94E+3 -420.05E+3 
 9.         280.01E+3  6.2006    -279.94E+3  10.        6.1999     10.E-6     279.94E+3 -340.05E+3 
 10.        370.01E+3  6.3006    -369.94E+3  10.        6.2999     10.E-6     369.94E+3 -260.05E+3 
 9.         279.99E+3  6.1994    -280.06E+3  10.        6.2001     10.E-6     280.06E+3 -339.95E+3 
 8.         189.99E+3  6.0994    -190.06E+3  10.        6.1001     10.E-6     190.06E+3 -419.95E+3 
 7.         99.997E+3  5.9997    -100.03E+3  11.        6.         10.E-6     100.03E+3 -499.98E+3 
 6.         52.632E+3  5.4737    -52.632E+3  4.         5.4737     11.111E-6  52.632E+3 -440.E+3   
 5.         9.1743E+3  4.9083    -9.1743E+3  5.         4.9083     111.11E-6  9.1743E+3 -35.E+3    
 4.         991.08     3.9901    -991.08     5.         3.9901     0.0011111  991.08    -2.6E+3    
 3.         99.91      2.999     -99.91      5.         2.999      0.011111   99.91     -170.      
 2.         9.9991     1.9999    -9.9991     4.         1.9999     0.11111    9.9991    -8.        
 1.         0.99999    0.99999   -0.99999    4.         0.99999    1.1111     0.99999    0.1       
 0.         0.099999  -999.99E-9 -0.099999   4.        -999.99E-9  1.1111     0.099999   0.1       
Gnucap   System status
iterations: op=0, dc=249, tran=0, fourier=0, total=249
transient timesteps: accepted=0, rejected=0, total=0
nodes: user=1, subckt=0, model=0, total=1
dctran density=100.0%, ac density=100.0%
