' 
V1 ( 1 0 )  DC  1.  AC  1.
R1 ( 1 2 )  1.K
W1 ( 2 0 Rprobe )  sss 
V2 ( 3 0 )  DC  1.  AC  1.
R2 ( 3 4 )  1.K
W2 ( 4 0 Vprobe )  sss 
V3 ( 5 0 )  DC  1.  AC  1.
R3 ( 5 6 )  1.K
W3 ( 6 0 Vsig )  sss 
Vsig ( 7 0 ) pwl( 0., 0.  5., 5.  15.,-5.  25., 5. )
Rprobe ( 7 8 )  1.K
Vprobe ( 8 0 )  DC  0.
.model sss csw ( it=0. ih=.002 ion=NA( 0.002) ioff=NA(-0.002) ron=1.K roff=1.E+12 tnom=NA( 27.))
#           v(1)       v(2)       v(3)       v(4)       v(5)       v(6)       v(7)       v(8)       ev(W1)     ev(W2)     ev(W3)     i(Vsig)    i(Rprobe)  i(Vprobe) 
-5.         1.         1.         1.         1.         1.         0.5       -5.        -50.n       1.E+12     1.E+12     1.K        0.005     -0.005     -0.005     
-4.         1.         1.         1.         1.         1.         0.5       -4.        -40.n       1.E+12     1.E+12     1.K        0.004     -0.004     -0.004     
-3.         1.         1.         1.         1.         1.         0.5       -3.        -30.n       1.E+12     1.E+12     1.K        0.003     -0.003     -0.003     
-2.         1.         1.         1.         1.         1.         0.5       -2.        -20.n       1.E+12     1.E+12     1.K        0.002     -0.002     -0.002     
-1.         1.         1.         1.         1.         1.         0.5       -1.        -10.n       1.E+12     1.E+12     1.K        0.001     -0.001     -0.001     
 0.         1.         1.         1.         1.         1.         0.5        0.         0.         1.E+12     1.E+12     1.K        0.         0.         0.        
 1.         1.         1.         1.         1.         1.         0.5        1.         10.n       1.E+12     1.E+12     1.K       -0.001      0.001      0.001     
 2.         1.         1.         1.         1.         1.         0.5        2.         20.n       1.E+12     1.E+12     1.K       -0.002      0.002      0.002     
 3.         1.         0.5        1.         0.5        1.         1.         3.         30.n       1.K        1.K        1.E+12    -0.003      0.003      0.003     
 4.         1.         0.5        1.         0.5        1.         1.         4.         40.n       1.K        1.K        1.E+12    -0.004      0.004      0.004     
 5.         1.         0.5        1.         0.5        1.         1.         5.         50.n       1.K        1.K        1.E+12    -0.005      0.005      0.005     
 5.         1.         0.5        1.         0.5        1.         1.         5.         50.n       1.K        1.K        1.E+12    -0.005      0.005      0.005     
 4.         1.         0.5        1.         0.5        1.         1.         4.         40.n       1.K        1.K        1.E+12    -0.004      0.004      0.004     
 3.         1.         0.5        1.         0.5        1.         1.         3.         30.n       1.K        1.K        1.E+12    -0.003      0.003      0.003     
 2.         1.         0.5        1.         0.5        1.         1.         2.         20.n       1.K        1.K        1.E+12    -0.002      0.002      0.002     
 1.         1.         0.5        1.         0.5        1.         1.         1.         10.n       1.K        1.K        1.E+12    -0.001      0.001      0.001     
 0.         1.         0.5        1.         0.5        1.         1.         0.         0.         1.K        1.K        1.E+12     0.         0.         0.        
-1.         1.         0.5        1.         0.5        1.         1.        -1.        -10.n       1.K        1.K        1.E+12     0.001     -0.001     -0.001     
-2.         1.         0.5        1.         0.5        1.         1.        -2.        -20.n       1.K        1.K        1.E+12     0.002     -0.002     -0.002     
-3.         1.         1.         1.         1.         1.         0.5       -3.        -30.n       1.E+12     1.E+12     1.K        0.003     -0.003     -0.003     
-4.         1.         1.         1.         1.         1.         0.5       -4.        -40.n       1.E+12     1.E+12     1.K        0.004     -0.004     -0.004     
-5.         1.         1.         1.         1.         1.         0.5       -5.        -50.n       1.E+12     1.E+12     1.K        0.005     -0.005     -0.005     
#Freq       v(1)       v(2)       v(3)       v(4)       v(5)       v(6)       v(7)       v(8)       ev(W1)     ev(W2)     ev(W3)     i(Vsig)    i(Rprobe)  i(Vprobe) 
 1.K        1.         1.         1.         1.         1.         0.5        0.         0.         1.E+12     1.E+12     1.K        0.         0.         0.        
#Time       v(W1)      v(W2)      v(W3)      ev(W1)     ev(W2)     ev(W3)     i(Vsig)    i(Rprobe)  i(Vprobe)  timef(W1)  timef(W2)  timef(W3)  in(W1)     in(W2)     in(W3)     control(0)
 0.         1.         1.         1.         1.E+12     1.E+12     1.E+12     0.         0.         0.         Inf        Inf        Inf        0.         0.         0.         1.        
 0.01       1.         1.         1.         1.E+12     1.E+12     1.E+12    -10.u       10.u       10.u       2.         2.         2.         0.         0.         0.         9.        
 0.02       1.         1.         1.         1.E+12     1.E+12     1.E+12    -20.u       20.u       20.u       2.         2.         2.         10.u       10.u      -10.u       6.        
 0.03       1.         1.         1.         1.E+12     1.E+12     1.E+12    -30.u       30.u       30.u       2.         2.         2.         20.u       20.u      -20.u       6.        
 0.04       1.         1.         1.         1.E+12     1.E+12     1.E+12    -40.u       40.u       40.u       2.         2.         2.         30.u       30.u      -30.u       6.        
 0.05       1.         1.         1.         1.E+12     1.E+12     1.E+12    -50.u       50.u       50.u       2.         2.         2.         40.u       40.u      -40.u       6.        
 1.         1.         1.         1.         1.E+12     1.E+12     1.E+12    -0.001      0.001      0.001      2.         2.         2.         50.u       50.u      -50.u       1.        
 2.         1.         1.         1.         1.E+12     1.E+12     1.E+12    -0.002      0.002      0.002      2.         2.         2.         0.001      0.001     -0.001      1.        
 2.         1.         1.         1.         1.E+12     1.E+12     1.E+12    -0.002      0.002      0.002      2.         2.         Inf        0.002      0.002     -0.002      7.        
 2.         1.         1.         1.         1.E+12     1.E+12     1.E+12    -0.002      0.002      0.002      2.         2.         2.         0.002      0.002     -0.002      17.       
 2.         1.         1.         1.         1.E+12     1.E+12     1.E+12    -0.002      0.002      0.002      2.         2.         2.2749     0.002      0.002     -0.002      7.        
 2.         1.         1.         1.         1.E+12     1.E+12     1.E+12    -0.002      0.002      0.002      2.         2.         Inf        0.002      0.002     -0.002      7.        
 2.         1.         1.         1.         1.E+12     1.E+12     1.E+12    -0.002      0.002      0.002      2.         2.         Inf        0.002      0.002     -0.002      7.        
 2.         0.5        0.5        1.         1.K        1.K        1.E+12    -0.002      0.002      0.002      Inf        Inf        Inf        0.002      0.002     -0.002      7.        
 3.         0.5        0.5        1.         1.K        1.K        1.E+12    -0.003      0.003      0.003      Inf        Inf        Inf        0.002      0.002     -0.002      1.        
 4.         0.5        0.5        1.         1.K        1.K        1.E+12    -0.004      0.004      0.004      Inf        Inf        Inf        0.003      0.003     -0.003      1.        
 5.         0.5        0.5        1.         1.K        1.K        1.E+12    -0.005      0.005      0.005      Inf        Inf        Inf        0.004      0.004     -0.004      1.        
 6.         0.5        0.5        1.         1.K        1.K        1.E+12    -0.004      0.004      0.004      12.        12.        12.        0.005      0.005     -0.005      1.        
 7.         0.5        0.5        1.         1.K        1.K        1.E+12    -0.003      0.003      0.003      12.        12.        12.        0.004      0.004     -0.004      1.        
 8.         0.5        0.5        1.         1.K        1.K        1.E+12    -0.002      0.002      0.002      12.        12.        12.        0.003      0.003     -0.003      1.        
 9.         0.5        0.5        1.         1.K        1.K        1.E+12    -0.001      0.001      0.001      12.        12.        12.        0.002      0.002     -0.002      1.        
 10.        0.5        0.5        1.         1.K        1.K        1.E+12     0.         0.         0.         12.        12.        12.        0.001      0.001     -0.001      1.        
 11.        0.5        0.5        1.         1.K        1.K        1.E+12     0.001     -0.001     -0.001      12.        12.        12.        0.         0.         0.         1.        
 12.        0.5        0.5        1.         1.K        1.K        1.E+12     0.002     -0.002     -0.002      12.        12.        12.       -0.001     -0.001      0.001      1.        
 12.        0.5        0.5        1.         1.K        1.K        1.E+12     0.002     -0.002     -0.002      12.        12.        Inf       -0.002     -0.002      0.002      7.        
 12.        0.5        0.5        1.         1.K        1.K        1.E+12     0.002     -0.002     -0.002      12.        12.        Inf       -0.002     -0.002      0.002      17.       
 12.        0.5        0.5        1.         1.K        1.K        1.E+12     0.002     -0.002     -0.002      12.        12.        Inf       -0.002     -0.002      0.002      17.       
 12.        0.5        0.5        1.         1.K        1.K        1.E+12     0.002     -0.002     -0.002      12.        12.        12.       -0.002     -0.002      0.002      7.        
 12.        0.5        0.5        0.5        1.K        1.K        1.K        0.002     -0.002     -0.002      12.        12.        12.275    -0.002     -0.002      0.002      7.        
 12.        1.         1.         0.5        1.E+12     1.E+12     1.K        0.002     -0.002     -0.002      Inf        Inf        Inf       -0.002     -0.002      0.002      7.        
 13.        1.         1.         0.5        1.E+12     1.E+12     1.K        0.003     -0.003     -0.003      Inf        Inf        Inf       -0.002     -0.002      0.002      1.        
 14.        1.         1.         0.5        1.E+12     1.E+12     1.K        0.004     -0.004     -0.004      Inf        Inf        Inf       -0.003     -0.003      0.003      1.        
 15.        1.         1.         0.5        1.E+12     1.E+12     1.K        0.005     -0.005     -0.005      Inf        Inf        Inf       -0.004     -0.004      0.004      1.        
 16.        1.         1.         0.5        1.E+12     1.E+12     1.K        0.004     -0.004     -0.004      22.        22.        22.       -0.005     -0.005      0.005      1.        
 17.        1.         1.         0.5        1.E+12     1.E+12     1.K        0.003     -0.003     -0.003      22.        22.        22.       -0.004     -0.004      0.004      1.        
 18.        1.         1.         0.5        1.E+12     1.E+12     1.K        0.002     -0.002     -0.002      22.        22.        22.       -0.003     -0.003      0.003      1.        
 19.        1.         1.         0.5        1.E+12     1.E+12     1.K        0.001     -0.001     -0.001      22.        22.        22.       -0.002     -0.002      0.002      1.        
 20.        1.         1.         0.5        1.E+12     1.E+12     1.K        0.         0.         0.         22.        22.        22.       -0.001     -0.001      0.001      1.        
 21.        1.         1.         0.5        1.E+12     1.E+12     1.K       -0.001      0.001      0.001      22.        22.        22.        0.         0.         0.         1.        
 22.        1.         1.         0.5        1.E+12     1.E+12     1.K       -0.002      0.002      0.002      22.        22.        22.        0.001      0.001     -0.001      1.        
 22.        1.         1.         0.5        1.E+12     1.E+12     1.K       -0.002      0.002      0.002      22.        22.        Inf        0.002      0.002     -0.002      7.        
 22.        1.         1.         0.5        1.E+12     1.E+12     1.K       -0.002      0.002      0.002      22.        22.        Inf        0.002      0.002     -0.002      17.       
 22.        1.         1.         0.5        1.E+12     1.E+12     1.K       -0.002      0.002      0.002      22.        22.        Inf        0.002      0.002     -0.002      17.       
 22.        1.         1.         0.5        1.E+12     1.E+12     1.K       -0.002      0.002      0.002      22.        22.        22.        0.002      0.002     -0.002      7.        
 22.        1.         1.         1.         1.E+12     1.E+12     1.E+12    -0.002      0.002      0.002      22.        22.        22.275     0.002      0.002     -0.002      7.        
 22.        0.5        0.5        1.         1.K        1.K        1.E+12    -0.002      0.002      0.002      Inf        Inf        Inf        0.002      0.002     -0.002      7.        
 23.        0.5        0.5        1.         1.K        1.K        1.E+12    -0.003      0.003      0.003      Inf        Inf        Inf        0.002      0.002     -0.002      1.        
 24.        0.5        0.5        1.         1.K        1.K        1.E+12    -0.004      0.004      0.004      Inf        Inf        Inf        0.003      0.003     -0.003      1.        
 25.        0.5        0.5        1.         1.K        1.K        1.E+12    -0.005      0.005      0.005      Inf        Inf        Inf        0.004      0.004     -0.004      1.        
#Freq       v(1)       v(2)       v(3)       v(4)       v(5)       v(6)       v(7)       v(8)       ev(W1)     ev(W2)     ev(W3)     i(Vsig)    i(Rprobe)  i(Vprobe) 
 1.K        1.         0.5        1.         0.5        1.         1.         0.         0.         1.K        1.K        1.E+12     0.         0.         0.        
V1 ( 1 0 )  DC  1.  AC  1.
R1 ( 1 2 )  1.K
W1 ( 2 0 Rprobe )  sss 
V2 ( 3 0 )  DC  1.  AC  1.
R2 ( 3 4 )  1.K
W2 ( 4 0 Vprobe )  sss 
V3 ( 5 0 )  DC  1.  AC  1.
R3 ( 5 6 )  1.K
W3 ( 6 0 Vsig )  sss 
Vsig ( 7 0 ) pwl( 0., 0.  5., 5.  15.,-5.  25., 5. )
Rprobe ( 7 8 )  1.K
Vprobe ( 8 0 )  DC  0.
.model sss csw ( it=0. ih=.002 ion=NA( 0.002) ioff=NA(-0.002) ron=1.K roff=1.E+12 tnom=NA( 27.))
Gnucap   System status
iterations: op=0, dc=68, tran=147, fourier=0, total=275
transient timesteps: accepted=49, rejected=9, total=58
nodes: user=8, subckt=0, model=0, total=8
dctran density=25.0%, ac density=25.0%
