' 
V1 ( 1 0 )  DC  1.  AC  1.
R1 ( 1 2 )  1.K
W1 ( 2 0 Rprobe )  sss 
V2 ( 3 0 )  DC  1.  AC  1.
R2 ( 3 4 )  1.K
W2 ( 4 0 Vprobe )  sss 
V3 ( 5 0 )  DC  1.  AC  1.
R3 ( 5 6 )  1.K
W3 ( 6 0 Vsig )  sss 
Vsig ( 7 0 ) pwl( 0., 0.  5., 5.  15.,-5.  25., 5. )
Rprobe ( 7 8 )  1.K
Vprobe ( 8 0 )  DC  0.
.model sss csw ( it=0. ih=.002 ion=NA( 0.002) ioff=NA(-0.002) ron=1.K roff=1.E+12 tnom=NA( 27.))
#           v(1)       v(2)       v(3)       v(4)       v(5)       v(6)       v(7)       v(8)       ev(W1)     ev(W2)     ev(W3)     i(Vsig)    i(Rprobe)  i(Vprobe) 
-5.         1.         1.         1.         1.         1.         0.5       -5.        -50.n       1.E+12     1.E+12     1.K        0.005     -0.005     -0.005     
-4.         1.         1.         1.         1.         1.         0.5       -4.        -40.n       1.E+12     1.E+12     1.K        0.004     -0.004     -0.004     
-3.         1.         1.         1.         1.         1.         0.5       -3.        -30.n       1.E+12     1.E+12     1.K        0.003     -0.003     -0.003     
-2.         1.         1.         1.         1.         1.         0.5       -2.        -20.n       1.E+12     1.E+12     1.K        0.002     -0.002     -0.002     
-1.         1.         1.         1.         1.         1.         0.5       -1.        -10.n       1.E+12     1.E+12     1.K        0.001     -0.001     -0.001     
 0.         1.         1.         1.         1.         1.         0.5        0.         0.         1.E+12     1.E+12     1.K        0.         0.         0.        
 1.         1.         1.         1.         1.         1.         0.5        1.         10.n       1.E+12     1.E+12     1.K       -0.001      0.001      0.001     
 2.         1.         1.         1.         1.         1.         0.5        2.         20.n       1.E+12     1.E+12     1.K       -0.002      0.002      0.002     
 3.         1.         0.5        1.         0.5        1.         1.         3.         30.n       1.K        1.K        1.E+12    -0.003      0.003      0.003     
 4.         1.         0.5        1.         0.5        1.         1.         4.         40.n       1.K        1.K        1.E+12    -0.004      0.004      0.004     
 5.         1.         0.5        1.         0.5        1.         1.         5.         50.n       1.K        1.K        1.E+12    -0.005      0.005      0.005     
 5.         1.         0.5        1.         0.5        1.         1.         5.         50.n       1.K        1.K        1.E+12    -0.005      0.005      0.005     
 4.         1.         0.5        1.         0.5        1.         1.         4.         40.n       1.K        1.K        1.E+12    -0.004      0.004      0.004     
 3.         1.         0.5        1.         0.5        1.         1.         3.         30.n       1.K        1.K        1.E+12    -0.003      0.003      0.003     
 2.         1.         0.5        1.         0.5        1.         1.         2.         20.n       1.K        1.K        1.E+12    -0.002      0.002      0.002     
 1.         1.         0.5        1.         0.5        1.         1.         1.         10.n       1.K        1.K        1.E+12    -0.001      0.001      0.001     
 0.         1.         0.5        1.         0.5        1.         1.         0.         0.         1.K        1.K        1.E+12     0.         0.         0.        
-1.         1.         0.5        1.         0.5        1.         1.        -1.        -10.n       1.K        1.K        1.E+12     0.001     -0.001     -0.001     
-2.         1.         0.5        1.         0.5        1.         1.        -2.        -20.n       1.K        1.K        1.E+12     0.002     -0.002     -0.002     
-3.         1.         1.         1.         1.         1.         0.5       -3.        -30.n       1.E+12     1.E+12     1.K        0.003     -0.003     -0.003     
-4.         1.         1.         1.         1.         1.         0.5       -4.        -40.n       1.E+12     1.E+12     1.K        0.004     -0.004     -0.004     
-5.         1.         1.         1.         1.         1.         0.5       -5.        -50.n       1.E+12     1.E+12     1.K        0.005     -0.005     -0.005     
#Freq       v(1)       v(2)       v(3)       v(4)       v(5)       v(6)       v(7)       v(8)       ev(W1)     ev(W2)     ev(W3)     i(Vsig)    i(Rprobe)  i(Vprobe) 
 1.K        1.         1.         1.         1.         1.         0.5        0.         0.         1.E+12     1.E+12     1.K        0.         0.         0.        
#Time       v(1)       v(2)       v(3)       v(4)       v(5)       v(6)       v(7)       v(8)       ev(W1)     ev(W2)     ev(W3)     i(Vsig)    i(Rprobe)  i(Vprobe) 
 0.         1.         1.         1.         1.         1.         1.         0.         0.         1.E+12     1.E+12     1.E+12     0.         0.         0.        
 1.         1.         1.         1.         1.         1.         1.         1.         10.n       1.E+12     1.E+12     1.E+12    -0.001      0.001      0.001     
 2.         1.         1.         1.         1.         1.         1.         2.         20.n       1.E+12     1.E+12     1.E+12    -0.002      0.002      0.002     
 3.         1.         0.5        1.         0.5        1.         1.         3.         30.n       1.K        1.K        1.E+12    -0.003      0.003      0.003     
 4.         1.         0.5        1.         0.5        1.         1.         4.         40.n       1.K        1.K        1.E+12    -0.004      0.004      0.004     
 5.         1.         0.5        1.         0.5        1.         1.         5.         50.n       1.K        1.K        1.E+12    -0.005      0.005      0.005     
 6.         1.         0.5        1.         0.5        1.         1.         4.         40.n       1.K        1.K        1.E+12    -0.004      0.004      0.004     
 7.         1.         0.5        1.         0.5        1.         1.         3.         30.n       1.K        1.K        1.E+12    -0.003      0.003      0.003     
 8.         1.         0.5        1.         0.5        1.         1.         2.         20.n       1.K        1.K        1.E+12    -0.002      0.002      0.002     
 9.         1.         0.5        1.         0.5        1.         1.         1.         10.n       1.K        1.K        1.E+12    -0.001      0.001      0.001     
#Time       v(1)       v(2)       v(3)       v(4)       v(5)       v(6)       v(7)       v(8)       ev(W1)     ev(W2)     ev(W3)     i(Vsig)    i(Rprobe)  i(Vprobe) 
 9.         1.         0.5        1.         0.5        1.         1.         1.         10.n       1.K        1.K        1.E+12    -0.001      0.001      0.001     
 10.        1.         0.5        1.         0.5        1.         1.         0.         0.         1.K        1.K        1.E+12     0.         0.         0.        
 11.        1.         0.5        1.         0.5        1.         1.        -1.        -10.n       1.K        1.K        1.E+12     0.001     -0.001     -0.001     
 12.        1.         0.5        1.         0.5        1.         1.        -2.        -20.n       1.K        1.K        1.E+12     0.002     -0.002     -0.002     
 13.        1.         1.         1.         1.         1.         0.5       -3.        -30.n       1.E+12     1.E+12     1.K        0.003     -0.003     -0.003     
 14.        1.         1.         1.         1.         1.         0.5       -4.        -40.n       1.E+12     1.E+12     1.K        0.004     -0.004     -0.004     
 15.        1.         1.         1.         1.         1.         0.5       -5.        -50.n       1.E+12     1.E+12     1.K        0.005     -0.005     -0.005     
 16.        1.         1.         1.         1.         1.         0.5       -4.        -40.n       1.E+12     1.E+12     1.K        0.004     -0.004     -0.004     
 17.        1.         1.         1.         1.         1.         0.5       -3.        -30.n       1.E+12     1.E+12     1.K        0.003     -0.003     -0.003     
 18.        1.         1.         1.         1.         1.         0.5       -2.        -20.n       1.E+12     1.E+12     1.K        0.002     -0.002     -0.002     
#Time       v(1)       v(2)       v(3)       v(4)       v(5)       v(6)       v(7)       v(8)       ev(W1)     ev(W2)     ev(W3)     i(Vsig)    i(Rprobe)  i(Vprobe) 
 18.        1.         1.         1.         1.         1.         0.5       -2.        -20.n       1.E+12     1.E+12     1.K        0.002     -0.002     -0.002     
 19.        1.         1.         1.         1.         1.         0.5       -1.        -10.n       1.E+12     1.E+12     1.K        0.001     -0.001     -0.001     
 20.        1.         1.         1.         1.         1.         0.5        0.         0.         1.E+12     1.E+12     1.K        0.         0.         0.        
 21.        1.         1.         1.         1.         1.         0.5        1.         10.n       1.E+12     1.E+12     1.K       -0.001      0.001      0.001     
 22.        1.         1.         1.         1.         1.         0.5        2.         20.n       1.E+12     1.E+12     1.K       -0.002      0.002      0.002     
 23.        1.         0.5        1.         0.5        1.         1.         3.         30.n       1.K        1.K        1.E+12    -0.003      0.003      0.003     
 24.        1.         0.5        1.         0.5        1.         1.         4.         40.n       1.K        1.K        1.E+12    -0.004      0.004      0.004     
 25.        1.         0.5        1.         0.5        1.         1.         5.         50.n       1.K        1.K        1.E+12    -0.005      0.005      0.005     
 26.        1.         0.5        1.         0.5        1.         1.         5.         50.n       1.K        1.K        1.E+12    -0.005      0.005      0.005     
 27.        1.         0.5        1.         0.5        1.         1.         5.         50.n       1.K        1.K        1.E+12    -0.005      0.005      0.005     
#Freq       v(1)       v(2)       v(3)       v(4)       v(5)       v(6)       v(7)       v(8)       ev(W1)     ev(W2)     ev(W3)     i(Vsig)    i(Rprobe)  i(Vprobe) 
 1.K        1.         0.5        1.         0.5        1.         1.         0.         0.         1.K        1.K        1.E+12     0.         0.         0.        
V1 ( 1 0 )  DC  1.  AC  1.
R1 ( 1 2 )  1.K
W1 ( 2 0 Rprobe )  sss 
V2 ( 3 0 )  DC  1.  AC  1.
R2 ( 3 4 )  1.K
W2 ( 4 0 Vprobe )  sss 
V3 ( 5 0 )  DC  1.  AC  1.
R3 ( 5 6 )  1.K
W3 ( 6 0 Vsig )  sss 
Vsig ( 7 0 ) pwl( 0., 0.  5., 5.  15.,-5.  25., 5. )
Rprobe ( 7 8 )  1.K
Vprobe ( 8 0 )  DC  0.
.model sss csw ( it=0. ih=.002 ion=NA( 0.002) ioff=NA(-0.002) ron=1.K roff=1.E+12 tnom=NA( 27.))
