' 
#Time       v(1)       v(2)       v(3)      
 0.         0.         0.         0.        
 0.1        0.58773   -5.0365    -5.0365    
 0.2        0.95104   -1.8691    -1.8691    
 0.3        0.95108    2.0462     2.0462    
 0.4        0.58784    5.2186     5.2186    
 0.5        65.369u    6.5369     6.5369    
 0.6       -0.58774    4.9304     4.9304    
 0.7       -0.95104    1.7632     1.7632    
 0.8       -0.95108   -2.152     -2.152     
 0.9       -0.58784   -5.1129    -5.1129    
 1.        -66.425u   -6.6425    -6.6425    
#Time       v(1)       v(2)       v(3)      
 0.         0.         0.         0.        
 0.1        0.58773   -5.1155    -5.1155    
 0.2        0.95104   -1.9133    -1.9133    
 0.3        0.95108    1.9719     1.9719    
 0.4        0.58784    5.1137     5.1137    
 0.5        63.082u    6.3082     6.3082    
 0.6       -0.58773    5.0643     5.0643    
 0.7       -0.95104    1.9605     1.9605    
 0.8       -0.95108   -1.9253    -1.9253    
 0.9       -0.58784   -5.0673    -5.0673    
 1.        -62.684u   -6.2684    -6.2684    
Gnucap   System status
iterations: op=0, dc=0, tran=497, fourier=0, total=762
transient timesteps: accepted=191, rejected=0, total=191
nodes: user=3, subckt=0, model=0, total=3
dctran density=77.8%, ac density=77.8%
