' 
#Time       v(1)       v(2)       v(3)       q(C1)      q(C2)      dq(C1)     dq(C2)     dqdt(C1)   dqdt(C2)   i(C1)      i(C2)      timef(C1)  timef(C2) 
 0.         0.         0.         0.         0.         0.         0.         0.         0.         0.         0.         0.         Inf        Inf       
 351.3p     78.f      -220.72u   -220.72u    77.538f    77.538f    77.538f    77.538f    220.72u    220.72u    220.72u    220.72u    4.157n     4.157n    
 1.5599n    803.f     -980.01u   -980.01u    803.12f    803.12f    725.58f    725.58f    600.37u    600.37u    980.01u    980.01u    2.8735n    2.8735n   
 2.7684n    2.446p    -0.0017392 -0.0017392  2.4463p    2.4463p    1.6432p    1.6432p    0.0013596  0.0013596  0.0017392  0.0017392  4.5315n    4.5315n   
 3.977n     5.007p    -0.0024983 -0.0024983  5.007p     5.007p     2.5607p    2.5607p    0.0021188  0.0021188  0.0024983  0.0024983  27.712n    27.712n   
 27.712n    241.01p   -0.017388  -0.017388   241.01p    241.01p    236.01p    236.01p    0.0099432  0.0099432  0.017388   0.017388   88.584n    88.584n   
 88.584n    2.4568n   -0.055413  -0.055413   2.4568n    2.4568n    2.2157n    2.2157n    0.036401   0.036401   0.055413   0.055413   233.46n    233.46n   
 233.46n    16.973n   -0.14499   -0.14499    16.973n    16.973n    14.516n    14.516n    0.1002     0.1002     0.14499    0.14499    508.62n    508.62n   
 508.62n    79.791n   -0.3116    -0.3116     79.791n    79.791n    62.818n    62.818n    0.22829    0.22829    0.3116     0.3116     979.68n    979.68n   
 979.68n    291.3n    -0.58642   -0.58642    291.3n     291.3n     211.51n    211.51n    0.44901    0.44901    0.58642    0.58642    1.7141u    1.7141u   
 1.7141u    870.13n   -0.98996   -0.98996    870.13n    870.13n    578.83n    578.83n    0.78819    0.78819    0.98996    0.98996    2.792u     2.792u    
 2.4484u    1.7348u   -1.3649    -1.3649     1.7348u    1.7348u    864.69n    864.69n    1.1774     1.1774     1.3649     1.3649     3.8712u    3.8712u   
 3.8712u    4.1415u   -2.0182    -2.0182     4.1415u    4.1415u    2.4067u    2.4067u    1.6916     1.6916     2.0182     2.0182     5.7164u    5.7164u   
 5.294u     7.4159u   -2.5847    -2.5847     7.4159u    7.4159u    3.2744u    3.2744u    2.3015     2.3015     2.5847     2.5847     7.7866u    7.7866u   
 7.7866u    14.88u    -3.4044    -3.4044     14.88u     14.88u     7.4644u    7.4644u    2.9946     2.9946     3.4044     3.4044     10.887u    10.887u   
 10.279u    24.162u   -4.0425    -4.0425     24.162u    24.162u    9.2812u    9.2812u    3.7235     3.7235     4.0425     4.0425     14.407u    14.407u   
 14.407u    42.431u   -4.8092    -4.8092     42.431u    42.431u    18.269u    18.269u    4.4258     4.4258     4.8092     4.8092     19.536u    19.536u   
 18.535u    63.324u   -5.3135    -5.3135     63.324u    63.324u    20.893u    20.893u    5.0614     5.0614     5.3135     5.3135     25.427u    25.427u   
 25.426u    101.65u   -5.8105    -5.8105     101.65u    101.65u    38.331u    38.331u    5.562      5.562      5.8105     5.8105     34.235u    34.235u   
 32.318u    142.53u   -6.0528    -6.0528     142.53u    142.53u    40.878u    40.878u    5.9316     5.9316     6.0528     6.0528     44.746u    44.746u   
 44.746u    218.85u   -6.2294    -6.2294     218.85u    218.85u    76.319u    76.319u    6.1411     6.1411     6.2294     6.2294     61.875u    61.875u   
 57.173u    296.52u   -6.2706    -6.2706     296.52u    296.52u    77.673u    77.673u    6.25       6.25       6.2706     6.2706     84.5u      84.5u     
 84.495u    468.05u   -6.2851    -6.2851     468.05u    468.05u    171.52u    171.52u    6.2779     6.2779     6.2851     6.2851     129.78u    129.78u   
 129.77u    752.53u   -6.2824    -6.2824     752.53u    752.53u    284.48u    284.48u    6.2838     6.2838     6.2824     6.2824     242.82u    242.82u   
 242.74u    0.0014624 -6.2837    -6.2837     0.0014624  0.0014624  709.83u    709.83u    6.2831     6.2831     6.2837     6.2837     596.47u    596.47u   
 595.24u    0.0036772 -6.2827    -6.2827     0.0036772  0.0036772  0.0022148  0.0022148  6.2832     6.2832     6.2827     6.2827     0.0023627  0.0023627 
 0.0023392  0.014634  -6.2831    -6.2831     0.014634   0.014634   0.010957   0.010957   6.2829     6.2829     6.2831     6.2831     0.012663   0.012663  
 0.012105   0.075924  -6.2684    -6.2684     0.075924   0.075924   0.061289   0.061289   6.2757     6.2757     6.2684     6.2684     0.041964   0.041964  
 0.041404   0.25716   -6.1035    -6.1035     0.25716    0.25716    0.18124    0.18124    6.1859     6.1859     6.1035     6.1035     0.085798   0.085798  
 0.070702   0.42971   -5.6752    -5.6752     0.42971    0.42971    0.17255    0.17255    5.8893     5.8893     5.6752     5.6752     0.1237     0.1237    
 0.1        0.58773   -5.1122    -5.1122     0.58773    0.58773    0.15803    0.15803    5.3937     5.3937     5.1122     5.1122     0.15971    0.15971   
 0.15       0.80898   -3.7376    -3.7376     0.80898    0.80898    0.22125    0.22125    4.4249     4.4249     3.7376     3.7376     0.21891    0.21891   
 0.2        0.95104   -1.9447    -1.9447     0.95104    0.95104    0.14206    0.14206    2.8411     2.8411     1.9447     1.9447     0.27805    0.27805   
 0.25       1.        -0.013853  -0.013853   1.         1.         0.048963   0.048963   0.97926    0.97926    0.013853   0.013853   0.34106    0.34106   
 0.3        0.95108    1.9708     1.9708     0.95108    0.95108   -0.048924  -0.048924  -0.97847   -0.97847   -1.9708    -1.9708     0.42989    0.42989   
 0.4        0.58784    5.294      5.294      0.58784    0.58784   -0.36324   -0.36324   -3.6324    -3.6324    -5.294     -5.294      0.51222    0.51222   
 0.5        64.615u    6.4615     6.4615     64.615u    64.615u   -0.58777   -0.58777   -5.8777    -5.8777    -6.4615    -6.4615     0.56827    0.56827   
 0.55      -0.30896    5.8994     5.8994    -0.30896   -0.30896   -0.30902   -0.30902   -6.1805    -6.1805    -5.8994    -5.8994     0.59897    0.59897   
 0.575     -0.45393    5.6986     5.6986    -0.45393   -0.45393   -0.14498   -0.14498   -5.799     -5.799     -5.6986    -5.6986     0.6289     0.6289    
 0.6       -0.58774    5.0055     5.0055    -0.58774   -0.58774   -0.1338    -0.1338    -5.3521    -5.3521    -5.0055    -5.0055     0.65977    0.65977   
 0.65      -0.80898    3.8442     3.8442    -0.80898   -0.80898   -0.22124   -0.22124   -4.4249    -4.4249    -3.8442    -3.8442     0.71916    0.71916   
 0.7       -0.95104    1.8381     1.8381    -0.95104   -0.95104   -0.14206   -0.14206   -2.8412    -2.8412    -1.8381    -1.8381     0.77825    0.77825   
 0.75      -1.         0.12029    0.12029   -1.        -1.        -0.048961  -0.048961  -0.97921   -0.97921   -0.12029   -0.12029    0.84104    0.84104   
 0.8       -0.95108   -2.0771    -2.0771    -0.95108   -0.95108    0.048922   0.048922   0.97843    0.97843    2.0771     2.0771     0.92996    0.92996   
 0.9       -0.58784   -5.1877    -5.1877    -0.58784   -0.58784    0.36324    0.36324    3.6324     3.6324     5.1877     5.1877     1.0122     1.0122    
 1.        -65.678u   -6.5678    -6.5678    -65.678u   -65.678u    0.58777    0.58777    5.8777     5.8777     6.5678     6.5678     1.0683     1.0683    
#Time       v(1)       v(2)       v(3)       q(C1)      q(C2)      dq(C1)     dq(C2)     dqdt(C1)   dqdt(C2)   i(C1)      i(C2)      timef(C1)  timef(C2) 
 0.         0.         0.         0.         0.         0.         0.         0.         0.         0.         0.         0.         Inf        Inf       
 0.001      0.0062209 -6.2209    -6.2209     0.0062209  0.0062209  0.0062209  0.0062209  6.2209     6.2209     6.2209     6.2209     120.n      120.n     
 120.n      8.9405n   -0.074504  -0.074504   8.9405n    8.9405n    8.9405n    8.9405n    0.074504   0.074504   0.074504   0.074504   100.p      100.p     
 200.p      25.f      -125.66u   -125.66u    25.132f    25.132f    25.132f    25.132f    125.66u    125.66u    125.66u    125.66u    1.1549n    1.1549n   
 1.1549n    432.f     -725.63u   -725.63u    431.6f     431.6f     406.47f    406.47f    425.65u    425.65u    725.63u    725.63u    1.6356n    1.6356n   
 1.6356n    853.f     -0.0010276 -0.0010276  852.92f    852.92f    421.32f    421.32f    876.6u     876.6u     0.0010276  0.0010276  2.4797n    2.4797n   
 2.4797n    1.944p    -0.0015578 -0.0015578  1.9441p    1.9441p    1.0912p    1.0912p    0.0012927  0.0012927  0.0015578  0.0015578  14.209n    14.209n   
 14.209n    63.4p     -0.0089213 -0.0089213  63.4p      63.4p      61.456p    61.456p    0.0052396  0.0052396  0.0089213  0.0089213  25.294n    25.294n   
 25.938n    211.17p   -0.016276  -0.016276   211.17p    211.17p    147.77p    147.77p    0.012599   0.012599   0.016276   0.016276   39.445n    39.445n   
 37.667n    445.16p   -0.023622  -0.023622   445.16p    445.16p    233.99p    233.99p    0.019949   0.019949   0.023622   0.023622   50.082n    50.082n   
 49.396n    765.26p   -0.03096   -0.03096    765.26p    765.26p    320.1p     320.1p     0.027291   0.027291   0.03096    0.03096    61.816n    61.816n   
 61.125n    1.1714n   -0.038289  -0.038289   1.1714n    1.1714n    406.12p    406.12p    0.034625   0.034625   0.038289   0.038289   74.223n    74.223n   
 72.855n    1.6634n   -0.045609  -0.045609   1.6634n    1.6634n    492.03p    492.03p    0.041949   0.041949   0.045609   0.045609   87.582n    87.582n   
 84.584n    2.2412n   -0.052921  -0.052921   2.2412n    2.2412n    577.84p    577.84p    0.049265   0.049265   0.052921   0.052921   100.86n    100.86n   
 96.313n    2.9048n   -0.060225  -0.060225   2.9048n    2.9048n    663.55p    663.55p    0.056573   0.056573   0.060225   0.060225   114.06n    114.06n   
 114.06n    4.0717n   -0.07126   -0.07126    4.0717n    4.0717n    1.1669n    1.1669n    0.065742   0.065742   0.07126    0.07126    133.47n    133.47n   
 131.81n    5.4342n   -0.082276  -0.082276   5.4342n    5.4342n    1.3626n    1.3626n    0.076768   0.076768   0.082276   0.082276   154.19n    154.19n   
 149.56n    6.9922n   -0.093272  -0.093272   6.9922n    6.9922n    1.5579n    1.5579n    0.087774   0.087774   0.093272   0.093272   173.38n    173.38n   
 167.31n    8.7451n   -0.10425   -0.10425    8.7451n    8.7451n    1.7529n    1.7529n    0.098761   0.098761   0.10425    0.10425    192.99n    192.99n   
 185.06n    10.693n   -0.11521   -0.11521    10.693n    10.693n    1.9476n    1.9476n    0.10973    0.10973    0.11521    0.11521    212.54n    212.54n   
 212.54n    14.091n   -0.13213   -0.13213    14.091n    14.091n    3.3982n    3.3982n    0.12367    0.12367    0.13213    0.13213    241.95n    241.95n   
 240.02n    17.954n   -0.14901   -0.14901    17.954n    17.954n    3.8627n    3.8627n    0.14057    0.14057    0.14901    0.14901    273.49n    273.49n   
 267.49n    22.279n   -0.16584   -0.16584    22.279n    22.279n    4.3258n    4.3258n    0.15743    0.15743    0.16584    0.16584    302.67n    302.67n   
 294.97n    27.067n   -0.18263   -0.18263    27.067n    27.067n    4.7877n    4.7877n    0.17424    0.17424    0.18263    0.18263    332.54n    332.54n   
 322.45n    32.315n   -0.19937   -0.19937    32.315n    32.315n    5.2483n    5.2483n    0.191      0.191      0.19937    0.19937    362.34n    362.34n   
 349.93n    38.023n   -0.21606   -0.21606    38.023n    38.023n    5.7077n    5.7077n    0.20772    0.20772    0.21606    0.21606    392.08n    392.08n   
 392.08n    47.669n   -0.24158   -0.24158    47.669n    47.669n    9.6454n    9.6454n    0.22882    0.22882    0.24158    0.24158    436.49n    436.49n   
 434.23n    58.387n   -0.267     -0.267      58.387n    58.387n    10.719n    10.719n    0.25429    0.25429    0.267      0.267      484.09n    484.09n   
 476.38n    70.175n   -0.2923    -0.2923     70.175n    70.175n    11.788n    11.788n    0.27965    0.27965    0.2923     0.2923     528.27n    528.27n   
 518.54n    83.028n   -0.3175    -0.3175     83.028n    83.028n    12.852n    12.852n    0.3049     0.3049     0.3175     0.3175     573.49n    573.49n   
 560.69n    96.94n    -0.3426    -0.3426     96.94n     96.94n     13.912n    13.912n    0.33005    0.33005    0.3426     0.3426     618.64n    618.64n   
 602.84n    111.91n   -0.36759   -0.36759    111.91n    111.91n    14.968n    14.968n    0.35509    0.35509    0.36759    0.36759    663.71n    663.71n   
 644.99n    127.93n   -0.39247   -0.39247    127.93n    127.93n    16.019n    16.019n    0.38003    0.38003    0.39247    0.39247    708.73n    708.73n   
 708.73n    154.13n   -0.4299    -0.4299     154.13n    154.13n    26.208n    26.208n    0.41118    0.41118    0.4299     0.4299     775.1n     775.1n    
 772.47n    182.72n   -0.46709   -0.46709    182.72n    182.72n    28.587n    28.587n    0.44849    0.44849    0.46709    0.46709    846.1n     846.1n    
 836.21n    213.67n   -0.50404   -0.50404    213.67n    213.67n    30.949n    30.949n    0.48556    0.48556    0.50404    0.50404    912.24n    912.24n   
 899.95n    246.97n   -0.54076   -0.54076    246.97n    246.97n    33.297n    33.297n    0.5224     0.5224     0.54076    0.54076    979.91n    979.91n   
 963.69n    282.6n    -0.57724   -0.57724    282.6n     282.6n     35.63n     35.63n     0.559      0.559      0.57724    0.57724    1.0475u    1.0475u   
 1.0274u    320.55n   -0.6135    -0.6135     320.55n    320.55n    37.949n    37.949n    0.59537    0.59537    0.6135     0.6135     1.115u     1.115u    
 1.0912u    360.8n    -0.64952   -0.64952    360.8n     360.8n     40.252n    40.252n    0.63151    0.63151    0.64952    0.64952    1.1825u    1.1825u   
 1.1549u    403.34n   -0.68532   -0.68532    403.34n    403.34n    42.541n    42.541n    0.66742    0.66742    0.68532    0.68532    1.2499u    1.2499u   
 1.2186u    448.16n   -0.72088   -0.72088    448.16n    448.16n    44.815n    44.815n    0.7031     0.7031     0.72088    0.72088    1.3172u    1.3172u   
 1.3172u    521.9n    -0.77544   -0.77544    521.9n     521.9n     73.744n    73.744n    0.74816    0.74816    0.77544    0.77544    1.4187u    1.4187u   
 1.4158u    600.99n   -0.82946   -0.82946    600.99n    600.99n    79.095n    79.095n    0.80245    0.80245    0.82946    0.82946    1.5276u    1.5276u   
 1.5143u    685.39n   -0.88295   -0.88295    685.39n    685.39n    84.394n    84.394n    0.85621    0.85621    0.88295    0.88295    1.6288u    1.6288u   
 1.6129u    775.03n   -0.93592   -0.93592    775.03n    775.03n    89.641n    89.641n    0.90944    0.90944    0.93592    0.93592    1.7326u    1.7326u   
 1.7115u    869.87n   -0.98837   -0.98837    869.87n    869.87n    94.836n    94.836n    0.96215    0.96215    0.98837    0.98837    1.8363u    1.8363u   
 1.81u      969.85n   -1.0403    -1.0403     969.85n    969.85n    99.98n     99.98n     1.0143     1.0143     1.0403     1.0403     1.9399u    1.9399u   
 1.9086u    1.0749u   -1.0917    -1.0917     1.0749u    1.0749u    105.07n    105.07n    1.066      1.066      1.0917     1.0917     2.0434u    2.0434u   
 2.0072u    1.185u    -1.1426    -1.1426     1.185u     1.185u     110.12n    110.12n    1.1172     1.1172     1.1426     1.1426     2.1469u    2.1469u   
 2.1058u    1.3001u   -1.1931    -1.1931     1.3001u    1.3001u    115.11n    115.11n    1.1679     1.1679     1.1931     1.1931     2.2503u    2.2503u   
 2.2043u    1.4202u   -1.243     -1.243      1.4202u    1.4202u    120.06n    120.06n    1.218      1.218      1.243      1.243      2.3537u    2.3537u   
 2.3537u    1.6114u   -1.3177    -1.3177     1.6114u    1.6114u    191.23n    191.23n    1.2804     1.2804     1.3177     1.3177     2.5064u    2.5064u   
 2.503u     1.8137u   -1.3913    -1.3913     1.8137u    1.8137u    202.3n     202.3n     1.3545     1.3545     1.3913     1.3913     2.67u      2.67u     
 2.6524u    2.0269u   -1.4638    -1.4638     2.0269u    2.0269u    213.21n    213.21n    1.4276     1.4276     1.4638     1.4638     2.8226u    2.8226u   
 2.8017u    2.2509u   -1.5353    -1.5353     2.2509u    2.2509u    223.97n    223.97n    1.4996     1.4996     1.5353     1.5353     2.9789u    2.9789u   
 2.9511u    2.4855u   -1.6057    -1.6057     2.4855u    2.4855u    234.56n    234.56n    1.5705     1.5705     1.6057     1.6057     3.1351u    3.1351u   
 3.1004u    2.7305u   -1.675     -1.675      2.7305u    2.7305u    244.99n    244.99n    1.6403     1.6403     1.675      1.675      3.2913u    3.2913u   
 3.2498u    2.9857u   -1.7433    -1.7433     2.9857u    2.9857u    255.27n    255.27n    1.7092     1.7092     1.7433     1.7433     3.4474u    3.4474u   
 3.3991u    3.2511u   -1.8106    -1.8106     3.2511u    3.2511u    265.4n     265.4n     1.777      1.777      1.8106     1.8106     3.6035u    3.6035u   
 3.5485u    3.5265u   -1.8769    -1.8769     3.5265u    3.5265u    275.38n    275.38n    1.8438     1.8438     1.8769     1.8769     3.7595u    3.7595u   
 3.6979u    3.8117u   -1.9423    -1.9423     3.8117u    3.8117u    285.21n    285.21n    1.9096     1.9096     1.9423     1.9423     3.9155u    3.9155u   
 3.8472u    4.1066u   -2.0066    -2.0066     4.1066u    4.1066u    294.89n    294.89n    1.9744     1.9744     2.0066     2.0066     4.0714u    4.0714u   
 4.0714u    4.5671u   -2.1014    -2.1014     4.5671u    4.5671u    460.47n    460.47n    2.054      2.054      2.1014     2.1014     4.2998u    4.2998u   
 4.2956u    5.0486u   -2.1941    -2.1941     5.0486u    5.0486u    481.49n    481.49n    2.1478     2.1478     2.1941     2.1941     4.544u     4.544u    
 4.5198u    5.5506u   -2.2848    -2.2848     5.5506u    5.5506u    502.05n    502.05n    2.2395     2.2395     2.2848     2.2848     4.7723u    4.7723u   
 4.7439u    6.0728u   -2.3734    -2.3734     6.0728u    6.0728u    522.14n    522.14n    2.3291     2.3291     2.3734     2.3734     5.0061u    5.0061u   
 4.9681u    6.6146u   -2.4601    -2.4601     6.6146u    6.6146u    541.8n     541.8n     2.4168     2.4168     2.4601     2.4601     5.2399u    5.2399u   
 5.1923u    7.1756u   -2.5449    -2.5449     7.1756u    7.1756u    561.01n    561.01n    2.5025     2.5025     2.5449     2.5449     5.4736u    5.4736u   
 5.4165u    7.7554u   -2.6277    -2.6277     7.7554u    7.7554u    579.8n     579.8n     2.5863     2.5863     2.6277     2.6277     5.7074u    5.7074u   
 5.6407u    8.3535u   -2.7088    -2.7088     8.3535u    8.3535u    598.18n    598.18n    2.6683     2.6683     2.7088     2.7088     5.9411u    5.9411u   
 5.8648u    8.9697u   -2.788     -2.788      8.9697u    8.9697u    616.14n    616.14n    2.7484     2.7484     2.788      2.788      6.1748u    6.1748u   
 6.089u     9.6034u   -2.8655    -2.8655     9.6034u    9.6034u    633.71n    633.71n    2.8268     2.8268     2.8655     2.8655     6.4085u    6.4085u   
 6.3132u    10.254u   -2.9413    -2.9413     10.254u    10.254u    650.89n    650.89n    2.9034     2.9034     2.9413     2.9413     6.6422u    6.6422u   
 6.5374u    10.922u   -3.0154    -3.0154     10.922u    10.922u    667.69n    667.69n    2.9783     2.9783     3.0154     3.0154     6.8759u    6.8759u   
 6.8759u    11.961u   -3.1241    -3.1241     11.961u    11.961u    1.039u     1.039u     3.0697     3.0697     3.1241     3.1241     7.2199u    7.2199u   
 7.2143u    13.036u   -3.2293    -3.2293     13.036u    13.036u    1.0752u    1.0752u    3.1767     3.1767     3.2293     3.2293     7.5882u    7.5882u   
 7.5528u    14.146u   -3.3309    -3.3309     14.146u    14.146u    1.1102u    1.1102u    3.2801     3.2801     3.3309     3.3309     7.9322u    7.9322u   
 7.8912u    15.29u    -3.4292    -3.4292     15.29u     15.29u     1.144u     1.144u     3.38       3.38       3.4292     3.4292     8.2851u    8.2851u   
 8.2297u    16.467u   -3.5242    -3.5242     16.467u    16.467u    1.1767u    1.1767u    3.4767     3.4767     3.5242     3.5242     8.638u     8.638u    
 8.5682u    17.675u   -3.616     -3.616      17.675u    17.675u    1.2083u    1.2083u    3.5701     3.5701     3.616      3.616      8.9909u    8.9909u   
