' 
#Time       v(1)       v(2)       v(3)      
 0.         0.         0.         0.        
 334.9p     70.f      -210.42u   -210.42u   
 1.3329n    593.f     -837.44u   -837.44u   
 2.3309n    1.742p    -0.0014644 -0.0014644 
 3.9361n    4.902p    -0.0024726 -0.0024726 
 27.04n     229.46p   -0.016967  -0.016967  
 87.265n    2.3843n   -0.054592  -0.054592  
 230.39n    16.533n   -0.14311   -0.14311   
 503.23n    78.122n   -0.30838   -0.30838   
 970.78n    286.12n   -0.58135   -0.58135   
 1.7007u    856.97n   -0.98286   -0.98286   
 2.4305u    1.7106u   -1.3561    -1.3561    
 3.8462u    4.0914u   -2.0075    -2.0075    
 5.2618u    7.3333u   -2.5728    -2.5728    
 7.7434u    14.734u   -3.3919    -3.3919    
 10.225u    23.944u   -4.0302    -4.0302    
 14.335u    42.088u   -4.7984    -4.7984    
 18.446u    62.852u   -5.3047    -5.3047    
 25.306u    100.96u   -5.8045    -5.8045    
 32.166u    141.62u   -6.049     -6.049     
 44.525u    217.48u   -6.2279    -6.2279    
 56.883u    294.71u   -6.2701    -6.2701    
 83.983u    464.83u   -6.2852    -6.2852    
 128.79u    746.38u   -6.2824    -6.2824    
 239.88u    0.0014444 -6.2837    -6.2837    
 583.88u    0.0036058 -6.2827    -6.2827    
 0.002298   0.014375  -6.2831    -6.2831    
 0.012068   0.075691  -6.2685    -6.2685    
 0.041379   0.25701   -6.1037    -6.1037    
 0.070689   0.42964   -5.6755    -5.6755    
 0.1        0.58773   -5.1122    -5.1122    
 0.15       0.80898   -3.7376    -3.7376    
 0.2        0.95104   -1.9447    -1.9447    
 0.25       1.        -0.013837  -0.013837  
 0.3        0.95108    1.9708     1.9708    
 0.4        0.58784    5.294      5.294     
 0.5        64.615u    6.4615     6.4615    
 0.55      -0.30896    5.8994     5.8994    
 0.575     -0.45393    5.6986     5.6986    
 0.6       -0.58774    5.0055     5.0055    
 0.65      -0.80898    3.8442     3.8442    
 0.7       -0.95104    1.8382     1.8382    
 0.75      -1.         0.12027    0.12027   
 0.8       -0.95108   -2.0771    -2.0771    
 0.9       -0.58784   -5.1877    -5.1877    
 1.        -65.678u   -6.5678    -6.5678    
#Time       v(1)       v(2)       v(3)      
 0.         0.         0.         0.        
 199.98p    25.f      -125.65u   -125.65u   
 1.155n     432.f     -725.67u   -725.67u   
 1.6356n    853.f     -0.0010276 -0.0010276 
 2.4798n    1.944p    -0.0015579 -0.0015579 
 14.209n    63.4p     -0.0089213 -0.0089213 
 25.938n    211.17p   -0.016276  -0.016276  
 37.667n    445.16p   -0.023622  -0.023622  
 49.396n    765.26p   -0.03096   -0.03096   
 61.125n    1.1714n   -0.038289  -0.038289  
 72.854n    1.6634n   -0.045609  -0.045609  
 84.583n    2.2412n   -0.052921  -0.052921  
 96.312n    2.9048n   -0.060224  -0.060224  
 114.06n    4.0716n   -0.07126   -0.07126   
 131.81n    5.4342n   -0.082276  -0.082276  
 149.56n    6.9921n   -0.093272  -0.093272  
 167.31n    8.745n    -0.10425   -0.10425   
 185.06n    10.693n   -0.11521   -0.11521   
 212.54n    14.091n   -0.13213   -0.13213   
 240.01n    17.953n   -0.14901   -0.14901   
 267.49n    22.279n   -0.16584   -0.16584   
 294.97n    27.067n   -0.18263   -0.18263   
 322.45n    32.315n   -0.19937   -0.19937   
 349.93n    38.023n   -0.21606   -0.21606   
 392.08n    47.668n   -0.24158   -0.24158   
 434.23n    58.387n   -0.267     -0.267     
 476.38n    70.175n   -0.2923    -0.2923    
 518.53n    83.027n   -0.3175    -0.3175    
 560.69n    96.939n   -0.3426    -0.3426    
 602.84n    111.91n   -0.36758   -0.36758   
 644.99n    127.93n   -0.39247   -0.39247   
 708.73n    154.13n   -0.42989   -0.42989   
 772.47n    182.72n   -0.46708   -0.46708   
 836.21n    213.67n   -0.50404   -0.50404   
 899.95n    246.97n   -0.54076   -0.54076   
 963.69n    282.6n    -0.57724   -0.57724   
 1.0274u    320.55n   -0.6135    -0.6135    
 1.0912u    360.8n    -0.64952   -0.64952   
 1.1549u    403.34n   -0.68531   -0.68531   
 1.2186u    448.15n   -0.72088   -0.72088   
 1.3172u    521.9n    -0.77544   -0.77544   
 1.4158u    600.99n   -0.82946   -0.82946   
 1.5143u    685.39n   -0.88295   -0.88295   
 1.6129u    775.03n   -0.93592   -0.93592   
 1.7115u    869.86n   -0.98837   -0.98837   
 1.81u      969.84n   -1.0403    -1.0403    
 1.9086u    1.0749u   -1.0917    -1.0917    
 2.0072u    1.185u    -1.1426    -1.1426    
 2.1057u    1.3001u   -1.1931    -1.1931    
 2.2043u    1.4202u   -1.243     -1.243     
 2.3537u    1.6114u   -1.3177    -1.3177    
 2.503u     1.8137u   -1.3913    -1.3913    
 2.6524u    2.0269u   -1.4638    -1.4638    
 2.8017u    2.2509u   -1.5353    -1.5353    
 2.9511u    2.4855u   -1.6057    -1.6057    
 3.1004u    2.7305u   -1.675     -1.675     
 3.2498u    2.9857u   -1.7433    -1.7433    
 3.3991u    3.2511u   -1.8106    -1.8106    
 3.5485u    3.5265u   -1.8769    -1.8769    
 3.6978u    3.8117u   -1.9423    -1.9423    
 3.8472u    4.1066u   -2.0066    -2.0066    
 4.0714u    4.5671u   -2.1014    -2.1014    
 4.2956u    5.0486u   -2.1941    -2.1941    
 4.5197u    5.5506u   -2.2848    -2.2848    
 4.7439u    6.0727u   -2.3734    -2.3734    
 4.9681u    6.6145u   -2.4601    -2.4601    
 5.1923u    7.1755u   -2.5449    -2.5449    
 5.4165u    7.7553u   -2.6277    -2.6277    
 5.6407u    8.3535u   -2.7088    -2.7088    
 5.8648u    8.9697u   -2.788     -2.788     
 6.089u     9.6034u   -2.8655    -2.8655    
 6.3132u    10.254u   -2.9413    -2.9413    
 6.5374u    10.922u   -3.0154    -3.0154    
 6.8758u    11.961u   -3.1241    -3.1241    
 7.2143u    13.036u   -3.2293    -3.2293    
 7.5528u    14.146u   -3.3309    -3.3309    
 7.8912u    15.29u    -3.4292    -3.4292    
 8.2297u    16.467u   -3.5242    -3.5242    
 8.5682u    17.675u   -3.616     -3.616     
 8.9066u    18.914u   -3.7048    -3.7048    
 9.2451u    20.183u   -3.7906    -3.7906    
 9.5835u    21.48u    -3.8735    -3.8735    
 9.922u     22.804u   -3.9537    -3.9537    
 10.26u     24.156u   -4.0313    -4.0313    
 10.599u    25.533u   -4.1062    -4.1062    
 11.11u     27.66u    -4.2148    -4.2148    
 11.622u    29.842u   -4.3179    -4.3179    
 12.133u    32.075u   -4.4159    -4.4159    
 12.644u    34.357u   -4.509     -4.509     
 13.156u    36.685u   -4.5975    -4.5975    
 13.667u    39.058u   -4.6815    -4.6815    
 14.178u    41.472u   -4.7614    -4.7614    
 14.69u     43.926u   -4.8373    -4.8373    
 15.201u    46.418u   -4.9094    -4.9094    
 15.713u    48.946u   -4.9779    -4.9779    
 16.224u    51.509u   -5.0429    -5.0429    
 16.996u    55.44u    -5.1352    -5.1352    
 17.769u    59.44u    -5.2206    -5.2206    
 18.542u    63.504u   -5.2996    -5.2996    
 19.314u    67.627u   -5.3728    -5.3728    
 20.087u    71.804u   -5.4405    -5.4405    
 20.859u    76.031u   -5.5032    -5.5032    
 21.632u    80.305u   -5.5612    -5.5612    
 22.404u    84.622u   -5.6149    -5.6149    
 23.177u    88.979u   -5.6646    -5.6646    
 23.95u     93.373u   -5.7106    -5.7106    
 25.152u    100.28u   -5.7756    -5.7756    
 26.355u    107.26u   -5.8332    -5.8332    
 27.557u    114.3u    -5.8842    -5.8842    
 28.76u     121.41u   -5.9295    -5.9295    
 29.962u    128.56u   -5.9696    -5.9696    
 31.165u    135.76u   -6.0052    -6.0052    
 32.367u    143.u     -6.0367    -6.0367    
 33.57u     150.28u   -6.0646    -6.0646    
 35.469u    161.83u   -6.1026    -6.1026    
 37.368u    173.45u   -6.1339    -6.1339    
 39.267u    185.13u   -6.1598    -6.1598    
 41.167u    196.85u   -6.1812    -6.1812    
 43.066u    208.6u    -6.1989    -6.1989    
 44.965u    220.39u   -6.2135    -6.2135    
 48.006u    239.31u   -6.2319    -6.2319    
 51.048u    258.29u   -6.2454    -6.2454    
 54.089u    277.3u    -6.2554    -6.2554    
 57.131u    296.33u   -6.2627    -6.2627    
 61.863u    325.99u   -6.2706    -6.2706    
 66.596u    355.68u   -6.2754    -6.2754    
 71.329u    385.39u   -6.2784    -6.2784    
 78.863u    432.7u    -6.281     -6.281     
 86.398u    480.03u   -6.2822    -6.2822    
 98.705u    557.36u   -6.2829    -6.2829    
 111.01u    634.68u   -6.2831    -6.2831    
 134.86u    784.55u   -6.2832    -6.2832    
 171.4u     0.0010141 -6.2832    -6.2832    
 251.52u    0.0015175 -6.2832    -6.2832    
 459.33u    0.0028232 -6.2832    -6.2832    
 0.0017193  0.01074   -6.2829    -6.2829    
 0.0029794  0.018656  -6.2821    -6.2821    
 0.0050436  0.031622  -6.2802    -6.2802    
 0.0071079  0.044583  -6.2769    -6.2769    
 0.0091722  0.057536  -6.2729    -6.2729    
 0.011236   0.070479  -6.2676    -6.2676    
 0.014407   0.090333  -6.2579    -6.2579    
 0.017577   0.11015   -6.245     -6.245     
 0.020747   0.12992   -6.2303    -6.2303    
 0.023917   0.14965   -6.2124    -6.2124    
 0.027087   0.16931   -6.1929    -6.1929    
 0.030257   0.18891   -6.1701    -6.1701    
 0.033427   0.20843   -6.1456    -6.1456    
 0.036597   0.22787   -6.1179    -6.1179    
 0.041126   0.25548   -6.0755    -6.0755    
 0.045655   0.28288   -6.0266    -6.0266    
 0.050184   0.31005   -5.9743    -5.9743    
 0.054712   0.33698   -5.9157    -5.9157    
 0.059241   0.36363   -5.8538    -5.8538    
 0.06377    0.38999   -5.7857    -5.7857    
 0.068299   0.41603   -5.7144    -5.7144    
 0.072827   0.44173   -5.637     -5.637     
 0.077356   0.46708   -5.5564    -5.5564    
 0.081885   0.49204   -5.47      -5.47      
 0.086414   0.51661   -5.3805    -5.3805    
 0.090942   0.54076   -5.2853    -5.2853    
 0.095471   0.56448   -5.1871    -5.1871    
 0.1        0.58773   -5.0834    -5.0834    
 0.10667    0.6211    -4.9258    -4.9258    
 0.11333    0.65337   -4.7566    -4.7566    
 0.12       0.6845    -4.5819    -4.5819    
 0.12667    0.71443   -4.3963    -4.3963    
 0.13333    0.7431    -4.2059    -4.2059    
 0.14       0.77047   -4.0052    -4.0052    
 0.14667    0.79649   -3.8004    -3.8004    
 0.15333    0.82111   -3.586     -3.586     
 0.16       0.84429   -3.3682    -3.3682    
 0.16667    0.86599   -3.1417    -3.1417    
 0.17333    0.88617   -2.9124    -2.9124    
 0.18       0.9048    -2.6753    -2.6753    
 0.18667    0.92184   -2.4362    -2.4362    
 0.19333    0.93726   -2.1901    -2.1901    
 0.2        0.95104   -1.943     -1.943     
 0.21       0.96857   -1.5631    -1.5631    
 0.22       0.98228   -1.1784    -1.1784    
 0.23       0.99211   -0.78782   -0.78782   
 0.24       0.99802   -0.39537   -0.39537   
 0.25       1.        -75.77u    -75.77u    
 0.26667    0.99453    0.65666    0.65666   
 0.28333    0.97816    1.3075     1.3075    
 0.3        0.95108    1.9427     1.9427    
 0.31667    0.91357    2.5579     2.5579    
 0.32857    0.88063    2.977      2.977     
 0.34048    0.84275    3.3853     3.3853    
 0.35238    0.80017    3.7688     3.7688    
 0.36032    0.76928    4.0157     4.0157    
 0.36825    0.73648    4.2508     4.2508    
 0.37619    0.70184    4.4771     4.4771    
 0.38413    0.66546    4.6905     4.6905    
 0.39206    0.62743    4.894      4.894     
 0.4        0.58784    5.0836     5.0836    
 0.40794    0.54678    5.2623     5.2623    
 0.41587    0.50437    5.4261     5.4261    
 0.42381    0.4607     5.5783     5.5783    
 0.43175    0.41588    5.7148     5.7148    
 0.43795    0.38012    5.8123     5.8123    
 0.44416    0.34378    5.901      5.901     
 0.45036    0.30692    5.9807     5.9807    
 0.45657    0.26959    6.0513     6.0513    
 0.46277    0.23185    6.1127     6.1127    
 0.46898    0.19376    6.1649     6.1649    
 0.47341    0.16637    6.1956     6.1956    
 0.47784    0.13885    6.2231     6.2231    
 0.48227    0.11122    6.2442     6.2442    
 0.4867     0.083508   6.262      6.262     
 0.49114    0.055729   6.2734     6.2734    
 0.49409    0.037184   6.2792     6.2792    
 0.49705    0.018627   6.2821     6.2821    
 0.5        62.835u    6.2835     6.2835    
 0.50204   -0.01276    6.2825     6.2825    
 0.50408   -0.02558    6.2814     6.2814    
 0.50612   -0.038396   6.2784     6.2784    
 0.50816   -0.051206   6.2753     6.2753    
 0.5102    -0.064008   6.2702     6.2702    
 0.5133    -0.08341    6.2618     6.2618    
 0.5164    -0.10278    6.2498     6.2498    
 0.51949   -0.12211    6.2367     6.2367    
 0.52259   -0.1414     6.2199     6.2199    
 0.52569   -0.16063    6.2021     6.2021    
 0.52878   -0.1798     6.1807     6.1807    
 0.53188   -0.1989     6.1581     6.1581    
 0.53498   -0.21793    6.1321     6.1321    
 0.53962   -0.24632    6.0906     6.0906    
 0.54426   -0.27449    6.0417     6.0417    
 0.54891   -0.30243    5.9899     5.9899    
 0.55355   -0.33012    5.9309     5.9309    
 0.5582    -0.35752    5.8688     5.8688    
 0.56284   -0.38462    5.7998     5.7998    
 0.56749   -0.41139    5.7278     5.7278    
 0.57213   -0.43781    5.6489     5.6489    
 0.57678   -0.46385    5.5672     5.5672    
 0.58142   -0.48951    5.4788     5.4788    
 0.58607   -0.51474    5.3877     5.3877    
 0.59071   -0.53954    5.2901     5.2901    
 0.59536   -0.56388    5.1899     5.1899    
 0.6       -0.58773    5.0833     5.0833    
 0.60667   -0.6211     4.9259     4.9259    
 0.61333   -0.65337    4.7564     4.7564    
 0.62      -0.6845     4.582      4.582     
 0.62667   -0.71443    4.3962     4.3962    
 0.63333   -0.7431     4.206      4.206     
 0.64      -0.77047    4.0051     4.0051    
 0.64667   -0.79649    3.8005     3.8005    
 0.65333   -0.82111    3.5859     3.5859    
 0.66      -0.84429    3.3683     3.3683    
 0.66667   -0.86599    3.1416     3.1416    
 0.67333   -0.88617    2.9126     2.9126    
 0.68      -0.9048     2.6752     2.6752    
 0.68667   -0.92184    2.4363     2.4363    
 0.69333   -0.93726    2.19       2.19      
 0.7       -0.95104    1.9431     1.9431    
 0.71      -0.96857    1.563      1.563     
 0.72      -0.98228    1.1786     1.1786    
 0.73      -0.99211    0.78772    0.78772   
 0.74      -0.99802    0.39547    0.39547   
 0.75      -1.        -28.117u   -28.117u   
 0.76667   -0.99453   -0.65656   -0.65656   
 0.78333   -0.97816   -1.3076    -1.3076    
 0.8       -0.95108   -1.9426    -1.9426    
 0.81667   -0.91357   -2.558     -2.558     
 0.82857   -0.88063   -2.9769    -2.9769    
 0.84048   -0.84275   -3.3854    -3.3854    
 0.85238   -0.80017   -3.7687    -3.7687    
 0.86032   -0.76928   -4.0158    -4.0158    
 0.86825   -0.73648   -4.2507    -4.2507    
 0.87619   -0.70184   -4.4772    -4.4772    
 0.88413   -0.66546   -4.6904    -4.6904    
 0.89206   -0.62743   -4.8941    -4.8941    
 0.9       -0.58784   -5.0835    -5.0835    
 0.90794   -0.54678   -5.2624    -5.2624    
 0.91587   -0.50437   -5.426     -5.426     
 0.92381   -0.4607    -5.5784    -5.5784    
 0.93175   -0.41588   -5.7147    -5.7147    
 0.93795   -0.38012   -5.8124    -5.8124    
 0.94416   -0.34378   -5.9009    -5.9009    
 0.95036   -0.30692   -5.9808    -5.9808    
 0.95657   -0.26959   -6.0512    -6.0512    
 0.96277   -0.23185   -6.1128    -6.1128    
 0.96898   -0.19376   -6.1648    -6.1648    
 0.97341   -0.16637   -6.1957    -6.1957    
 0.97784   -0.13885   -6.223     -6.223     
 0.98227   -0.11122   -6.2443    -6.2443    
 0.9867    -0.083508  -6.2619    -6.2619    
 0.99114   -0.055729  -6.2735    -6.2735    
 0.99409   -0.037184  -6.2791    -6.2791    
 0.99705   -0.018627  -6.2822    -6.2822    
 0.99852   -0.0093452 -6.2829    -6.2829    
 1.        -62.833u   -6.2833    -6.2833    
Gnucap   System status
iterations: op=0, dc=0, tran=884, fourier=0, total=1390
transient timesteps: accepted=339, rejected=9, total=348
nodes: user=3, subckt=0, model=0, total=3
dctran density=77.8%, ac density=77.8%
