' 
#Time       v(1)       v(2)       v(3)      
 0.         0.         0.         0.        
 2.n        2.513p    -0.0012564 -0.0012564 
 3.1n       4.275p    -0.0019474 -0.0019474 
 5.0413n    9.239p    -0.0031666 -0.0031666 
 6.5572n    14.761p   -0.0041185 -0.0041185 
 34.966n    384.79p   -0.021931  -0.021931  
 106.15n    3.5269n   -0.066346  -0.066346  
 269.97n    22.669n   -0.16736   -0.16736   
 573.89n    101.35n   -0.35045   -0.35045   
 1.0853u    356.24n   -0.6463    -0.6463    
 1.8729u    1.0334u   -1.0734    -1.0734    
 2.6604u    2.0342u   -1.4682    -1.4682    
 4.1666u    4.7535u   -2.1426    -2.1426    
 5.6728u    8.4175u   -2.7226    -2.7226    
 8.2943u    16.636u   -3.5478    -3.5478    
 10.916u    26.768u   -4.1818    -4.1818    
 15.25u     46.516u   -4.9304    -4.9304    
 19.585u    68.93u    -5.4123    -5.4123    
 26.85u     109.94u   -5.8764    -5.8764    
 34.116u    153.42u   -6.0932    -6.0932    
 47.384u    235.27u   -6.2447    -6.2447    
 60.652u    318.33u   -6.2754    -6.2754    
 90.73u     507.23u   -6.2848    -6.2848    
 142.07u    829.8u    -6.2825    -6.2825    
 280.13u    0.0016973 -6.2837    -6.2837    
 762.85u    0.0047303 -6.2827    -6.2827    
 0.0032362  0.020269  -6.2826    -6.2826    
 0.017275   0.10827   -6.2537    -6.2537    
 0.050033   0.30915   -6.0113    -6.0113    
 0.08279    0.49699   -5.4569    -5.4569    
 0.13674    0.75727   -4.1915    -4.1915    
 0.1907     0.93136   -2.2618    -2.2618    
 0.24465    0.99943   -0.26167   -0.26167   
 0.32858    0.88061    3.0933     3.0933    
 0.44048    0.36537    6.1153     6.1153    
 0.49568    0.027228   6.1376     6.1376    
 0.55087   -0.31415    6.2325     6.2325    
 0.60606   -0.61813    4.7825     4.7825    
 0.66126   -0.8485     3.5653     3.5653    
 0.71645   -0.97785    1.122      1.122     
 0.77164   -0.99077   -0.65387   -0.65387   
 0.84776   -0.81724   -3.9058    -3.9058    
 1.        -68.297u   -6.8297    -6.8297    
#Time       v(1)       v(2)       v(3)      
 0.         0.         0.         0.        
 2.n        2.513p    -0.0012564 -0.0012564 
 3.1n       4.275p    -0.0019474 -0.0019474 
 4.2n       6.797p    -0.0026383 -0.0026383 
 5.3n       10.079p   -0.0033291 -0.0033291 
 17.709n    99.704p   -0.011117  -0.011117  
 30.117n    285.9p    -0.018895  -0.018895  
 42.526n    568.55p   -0.026663  -0.026663  
 54.934n    947.53p   -0.034421  -0.034421  
 67.343n    1.4227n   -0.04217   -0.04217   
 79.751n    1.994n    -0.04991   -0.04991   
 92.16n     2.6613n   -0.057639  -0.057639  
 104.57n    3.4244n   -0.06536   -0.06536   
 123.32n    4.7594n   -0.07701   -0.07701   
 142.08n    6.3128n   -0.088638  -0.088638  
 160.83n    8.084n    -0.10025   -0.10025   
 179.59n    10.073n   -0.11183   -0.11183   
 198.34n    12.278n   -0.12339   -0.12339   
 227.13n    16.085n   -0.1411    -0.1411    
 255.91n    20.401n   -0.15875   -0.15875   
 284.7n     25.224n   -0.17636   -0.17636   
 313.48n    30.554n   -0.19391   -0.19391   
 342.27n    36.387n   -0.21142   -0.21142   
 371.06n    42.724n   -0.22887   -0.22887   
 414.91n    53.341n   -0.25536   -0.25536   
 458.76n    65.117n   -0.28173   -0.28173   
 502.61n    78.047n   -0.30799   -0.30799   
 546.46n    92.125n   -0.33414   -0.33414   
 590.31n    107.35n   -0.36017   -0.36017   
 634.16n    123.71n   -0.38608   -0.38608   
 678.01n    141.21n   -0.41188   -0.41188   
 743.95n    169.64n   -0.45047   -0.45047   
 809.89n    200.6n    -0.48881   -0.48881   
 875.83n    234.09n   -0.52689   -0.52689   
 941.77n    270.08n   -0.56472   -0.56472   
 1.0077u    308.56n   -0.6023    -0.6023    
 1.0736u    349.5n    -0.63964   -0.63964   
 1.1396u    392.91n   -0.67673   -0.67673   
 1.2055u    438.74n   -0.71358   -0.71358   
 1.2715u    487.n     -0.75018   -0.75018   
 1.373u     565.99n   -0.80606   -0.80606   
 1.4745u    650.61n   -0.86138   -0.86138   
 1.576u     740.82n   -0.91613   -0.91613   
 1.6775u    836.57n   -0.97033   -0.97033   
 1.779u     937.78n   -1.024     -1.024     
 1.8805u    1.0444u   -1.0771    -1.0771    
 1.982u     1.1564u   -1.1297    -1.1297    
 2.0835u    1.2737u   -1.1817    -1.1817    
 2.185u     1.3963u   -1.2332    -1.2332    
 2.2865u    1.5241u   -1.2842    -1.2842    
 2.4398u    1.7268u   -1.3603    -1.3603    
 2.5931u    1.9411u   -1.4352    -1.4352    
 2.7464u    2.1667u   -1.509     -1.509     
 2.8997u    2.4036u   -1.5816    -1.5816    
 3.053u     2.6516u   -1.6531    -1.6531    
 3.2063u    2.9104u   -1.7236    -1.7236    
 3.3596u    3.18u     -1.7929    -1.7929    
 3.5129u    3.4601u   -1.8612    -1.8612    
 3.6663u    3.7506u   -1.9285    -1.9285    
 3.8196u    4.0513u   -1.9948    -1.9948    
 3.9729u    4.3621u   -2.06      -2.06      
 4.1262u    4.6828u   -2.1243    -2.1243    
 4.3625u    5.1964u   -2.2214    -2.2214    
 4.5989u    5.7326u   -2.3163    -2.3163    
 4.8352u    6.2911u   -2.409     -2.409     
 5.0716u    6.8711u   -2.4995    -2.4995    
 5.3079u    7.4723u   -2.5878    -2.5878    
 5.5443u    8.0942u   -2.6742    -2.6742    
 5.7806u    8.7362u   -2.7585    -2.7585    
 6.017u     9.3979u   -2.8408    -2.8408    
 6.2533u    10.079u   -2.9212    -2.9212    
 6.4897u    10.779u   -2.9997    -2.9997    
 6.7261u    11.497u   -3.0764    -3.0764    
 6.9624u    12.233u   -3.1514    -3.1514    
 7.3187u    13.375u   -3.261     -3.261     
 7.675u     14.556u   -3.3668    -3.3668    
 8.0313u    15.773u   -3.4689    -3.4689    
 8.3876u    17.027u   -3.5674    -3.5674    
 8.7439u    18.315u   -3.6625    -3.6625    
 9.1002u    19.636u   -3.7542    -3.7542    
 9.4564u    20.989u   -3.8427    -3.8427    
 9.8127u    22.374u   -3.9281    -3.9281    
 10.169u    23.788u   -4.0106    -4.0106    
 10.525u    25.231u   -4.0901    -4.0901    
 10.882u    26.702u   -4.1669    -4.1669    
 11.238u    28.2u     -4.241     -4.241     
 11.777u    30.517u   -4.3483    -4.3483    
 12.317u    32.89u    -4.4499    -4.4499    
 12.856u    35.316u   -4.5462    -4.5462    
 13.396u    37.794u   -4.6375    -4.6375    
 13.935u    40.319u   -4.7239    -4.7239    
 14.475u    42.889u   -4.8058    -4.8058    
 15.014u    45.503u   -4.8834    -4.8834    
 15.554u    48.157u   -4.957     -4.957     
 16.093u    50.85u    -5.0266    -5.0266    
 16.633u    53.58u    -5.0926    -5.0926    
 17.172u    56.344u   -5.1552    -5.1552    
 17.993u    60.61u    -5.2441    -5.2441    
 18.813u    64.945u   -5.326     -5.326     
 19.633u    69.346u   -5.4014    -5.4014    
 20.454u    73.806u   -5.4709    -5.4709    
 21.274u    78.32u    -5.5349    -5.5349    
 22.095u    82.885u   -5.5939    -5.5939    
 22.915u    87.497u   -5.6482    -5.6482    
 23.735u    92.151u   -5.6982    -5.6982    
 24.556u    96.845u   -5.7443    -5.7443    
 25.795u    104.u     -5.8072    -5.8072    
 27.034u    111.23u   -5.8627    -5.8627    
 28.273u    118.53u   -5.9118    -5.9118    
 29.512u    125.88u   -5.9551    -5.9551    
 30.751u    133.28u   -5.9934    -5.9934    
 31.99u     140.73u   -6.0272    -6.0272    
 33.229u    148.21u   -6.0571    -6.0571    
 35.094u    159.55u   -6.0957    -6.0957    
 36.96u     170.95u   -6.1277    -6.1277    
 38.825u    182.41u   -6.1542    -6.1542    
 40.691u    193.91u   -6.1762    -6.1762    
 42.557u    205.45u   -6.1945    -6.1945    
 44.422u    217.02u   -6.2096    -6.2096    
 47.399u    235.53u   -6.2287    -6.2287    
 50.376u    254.09u   -6.2428    -6.2428    
 53.353u    272.69u   -6.2533    -6.2533    
 56.33u     291.32u   -6.261     -6.261     
 60.928u    320.13u   -6.2693    -6.2693    
 65.527u    348.97u   -6.2745    -6.2745    
 70.125u    377.83u   -6.2777    -6.2777    
 77.371u    423.33u   -6.2806    -6.2806    
 84.617u    468.85u   -6.282     -6.282     
 96.283u    542.14u   -6.2829    -6.2829    
 107.95u    615.43u   -6.2831    -6.2831    
 129.97u    753.77u   -6.2832    -6.2832    
 151.98u    892.1u    -6.2832    -6.2832    
 216.02u    0.0012945 -6.2832    -6.2832    
 358.71u    0.002191  -6.2832    -6.2832    
 0.0012666  0.0078956 -6.283     -6.283     
 0.0028223  0.017669  -6.2823    -6.2823    
 0.004378   0.027441  -6.2809    -6.2809    
 0.0067429  0.042291  -6.2778    -6.2778    
 0.0091078  0.057132  -6.273     -6.273     
 0.011473   0.07196   -6.2671    -6.2671    
 0.013838   0.086772  -6.2595    -6.2595    
 0.016202   0.10156   -6.2509    -6.2509    
 0.01986    0.1244    -6.2347    -6.2347    
 0.023517   0.14716   -6.215     -6.215     
 0.027174   0.16985   -6.1922    -6.1922    
 0.030831   0.19245   -6.1659    -6.1659    
 0.034489   0.21495   -6.1367    -6.1367    
 0.038146   0.23733   -6.1039    -6.1039    
 0.041803   0.25959   -6.0681    -6.0681    
 0.04546    0.28171   -6.0289    -6.0289    
 0.049118   0.30368   -5.9868    -5.9868    
 0.052775   0.32549   -5.9412    -5.9412    
 0.056432   0.34713   -5.8928    -5.8928    
 0.062015   0.37981   -5.8132    -5.8132    
 0.067599   0.41202   -5.7254    -5.7254    
 0.073182   0.44373   -5.6316    -5.6316    
 0.078765   0.47488   -5.5298    -5.5298    
 0.084348   0.50546   -5.4223    -5.4223    
 0.089932   0.53541   -5.307     -5.307     
 0.095515   0.5647    -5.1863    -5.1863    
 0.1011     0.5933    -5.0581    -5.0581    
 0.10668    0.62117   -4.9247    -4.9247    
 0.11226    0.64827   -4.7843    -4.7843    
 0.11785    0.67458   -4.639     -4.639     
 0.12343    0.70006   -4.487     -4.487     
 0.12901    0.72467   -4.3304    -4.3304    
 0.1346     0.74839   -4.1675    -4.1675    
 0.14018    0.7712    -4.0005    -4.0005    
 0.14576    0.79305   -3.8276    -3.8276    
 0.15414    0.82399   -3.5616    -3.5616    
 0.16251    0.85265   -3.2829    -3.2829    
 0.17089    0.87895   -2.9979    -2.9979    
 0.17926    0.90282   -2.7018    -2.7018    
 0.18764    0.92419   -2.4011    -2.4011    
 0.19601    0.943     -2.0908    -2.0908    
 0.20439    0.9592    -1.7776    -1.7776    
 0.21276    0.97274   -1.4567    -1.4567    
 0.22114    0.98359   -1.1346    -1.1346    
 0.22951    0.99172   -0.80646   -0.80646   
 0.24257    0.99891   -0.29467   -0.29467   
 0.25563    0.99938    0.22294    0.22294   
 0.26869    0.99312    0.73522    0.73522   
 0.28503    0.97589    1.3738     1.3738    
 0.30137    0.94839    1.9931     1.9931    
 0.31771    0.91089    2.5962     2.5962    
 0.32947    0.87794    3.0074     3.0074    
 0.34123    0.84018    3.4112     3.4112    
 0.353      0.79784    3.7874     3.7874    
 0.36224    0.7615     4.0752     4.0752    
 0.37148    0.7226     4.343      4.343     
 0.38073    0.68126    4.6024     4.6024    
 0.38997    0.63762    4.84       4.84      
 0.39921    0.59183    5.0676     5.0676    
 0.40846    0.54405    5.2719     5.2719    
 0.41558    0.50594    5.4215     5.4215    
 0.42271    0.46682    5.5565     5.5565    
 0.42984    0.42677    5.6842     5.6842    
 0.43696    0.38586    5.7966     5.7966    
 0.44409    0.34417    5.9012     5.9012    
 0.45122    0.30179    5.9903     5.9903    
 0.45682    0.26807    6.0544     6.0544    
 0.46242    0.23401    6.1088     6.1088    
 0.46802    0.19967    6.1578     6.1578    
 0.47362    0.16508    6.1971     6.1971    
 0.47922    0.13028    6.2308     6.2308    
 0.48352    0.10342    6.2491     6.2491    
 0.48782    0.076489   6.2659     6.2659    
 0.49213    0.049501   6.2751     6.2751    
 0.49545    0.028661   6.2814     6.2814    
 0.49877    0.0078081  6.2826     6.2826    
 0.50117   -0.0072604  6.2836     6.2836    
 0.50272   -0.017024   6.2818     6.2818    
 0.50427   -0.026785   6.2815     6.2815    
 0.50583   -0.036545   6.2785     6.2785    
 0.50847   -0.053132   6.275      6.275     
 0.51111   -0.069704   6.2675     6.2675    
 0.51376   -0.086258   6.2605     6.2605    
 0.5164    -0.10279    6.2495     6.2495    
 0.51904   -0.11929    6.239      6.239     
 0.52168   -0.13576    6.2246     6.2246    
 0.52574   -0.16094    6.2023     6.2023    
 0.52979   -0.18603    6.1731     6.1731    
 0.53384   -0.21099    6.1428     6.1428    
 0.5379    -0.23581    6.1056     6.1056    
 0.54195   -0.26048    6.0673     6.0673    
 0.546     -0.28499    6.0223     6.0223    
 0.55006   -0.3093     5.9761     5.9761    
 0.55411   -0.33342    5.9233     5.9233    
 0.55817   -0.35732    5.8694     5.8694    
 0.56222   -0.38099    5.8089     5.8089    
 0.56627   -0.40441    5.7474     5.7474    
 0.57033   -0.42757    5.6795     5.6795    
 0.57638   -0.46163    5.5753     5.5753    
 0.58243   -0.49502    5.459      5.459     
 0.58848   -0.52769    5.3388     5.3388    
 0.59453   -0.5596     5.2069     5.2069    
 0.60058   -0.5907     5.0715     5.0715    
 0.60664   -0.62095    4.9247     4.9247    
 0.61269   -0.6503     4.7748     4.7748    
 0.61874   -0.67871    4.614      4.614     
 0.62479   -0.70614    4.4505     4.4505    
 0.63084   -0.73254    4.2766     4.2766    
 0.63689   -0.75789    4.1005     4.1005    
 0.64295   -0.78214    3.9146     3.9146    
 0.649     -0.80526    3.7268     3.7268    
 0.65505   -0.82722    3.5298     3.5298    
 0.6611    -0.84798    3.3316     3.3316    
 0.66715   -0.86752    3.1247     3.1247    
 0.67615   -0.89423    2.8145     2.8145    
 0.68515   -0.91809    2.4897     2.4897    
 0.69414   -0.93902    2.1625     2.1625    
 0.70314   -0.95694    1.823      1.823     
 0.71213   -0.97181    1.483      1.483     
 0.72113   -0.98358    1.1329     1.1329    
 0.73012   -0.9922     0.78455    0.78455   
 0.73912   -0.99766    0.42834    0.42834   
 0.75361   -0.99974   -0.14084   -0.14084   
 0.76811   -0.99354   -0.71491   -0.71491   
 0.79709   -0.95656   -1.8368    -1.8368    
 0.814     -0.92025   -2.4578    -2.4578    
 0.8264    -0.887     -2.9051    -2.9051    
 0.8388    -0.84837   -3.3258    -3.3258    
 0.8512    -0.80459   -3.7352    -3.7352    
 0.8605    -0.76854   -4.0181    -4.0181    
 0.8698    -0.72986   -4.2994    -4.2994    
 0.8791    -0.6887    -4.5539    -4.5539    
 0.8884    -0.64518   -4.8049    -4.8049    
 0.8977    -0.59946   -5.0275    -5.0275    
 0.907     -0.55169   -5.2449    -5.2449    
 0.91416   -0.51366   -5.3883    -5.3883    
 0.92131   -0.47459   -5.535     -5.535     
 0.92846   -0.43456   -5.6563    -5.6563    
 0.93562   -0.39365   -5.7804    -5.7804    
 0.94277   -0.35195   -5.8787    -5.8787    
 0.94992   -0.30953   -5.9791    -5.9791    
 0.95549   -0.27611   -6.0357    -6.0357    
 0.96105   -0.24234   -6.1003    -6.1003    
 0.96662   -0.20829   -6.1422    -6.1422    
 0.97218   -0.17397   -6.1918    -6.1918    
 0.97774   -0.13945   -6.2187    -6.2187    
 0.98145   -0.11633   -6.2441    -6.2441    
 0.98516   -0.093154  -6.2528    -6.2528    
 0.98887   -0.069925  -6.2714    -6.2714    
 0.99258   -0.046659  -6.2734    -6.2734    
 0.99629   -0.023367  -6.285     -6.285     
 0.99815   -0.011716  -6.2795    -6.2795    
 1.        -62.865u   -6.2865    -6.2865    
Gnucap   System status
iterations: op=0, dc=0, tran=869, fourier=0, total=1362
transient timesteps: accepted=330, rejected=11, total=341
nodes: user=3, subckt=0, model=0, total=3
dctran density=77.8%, ac density=77.8%
