' 
#Time       v(1)       v(2)       v(3)      
 0.         0.         0.         0.        
 0.1        0.58773   -5.1551    -5.1551    
 0.2        0.95104   -1.9875    -1.9875    
 0.3        0.95108    1.928      1.928     
 0.4        0.58784    5.3367     5.3367    
 0.5        64.188u    6.4188     6.4188    
 0.6       -0.58773    5.2089     5.2089    
 0.7       -0.95104    2.0413     2.0413    
 0.8       -0.95108   -1.8744    -1.8744    
 0.9       -0.58784   -5.3904    -5.3904    
 1.        -63.651u   -6.3651    -6.3651    
#Time       v(1)       v(2)       v(3)      
 0.         0.         0.         0.        
 0.1        0.58773   -5.0837    -5.0837    
 0.2        0.95104   -1.9418    -1.9418    
 0.3        0.95108    1.9439     1.9439    
 0.4        0.58784    5.0814     5.0814    
 0.5        62.855u    6.2855     6.2855    
 0.6       -0.58773    5.0819     5.0819    
 0.7       -0.95104    1.9437     1.9437    
 0.8       -0.95108   -1.9421    -1.9421    
 0.9       -0.58784   -5.0832    -5.0832    
 1.        -62.841u   -6.2841    -6.2841    
Gnucap   System status
iterations: op=0, dc=0, tran=896, fourier=0, total=1402
transient timesteps: accepted=341, rejected=10, total=351
nodes: user=3, subckt=0, model=0, total=3
dctran density=77.8%, ac density=77.8%
