' 
#Time       v(1)       v(2)       v(3)      
 0.         0.         0.         0.        
 2.n        2.513p    -0.0012564 -0.0012564 
 3.n        4.083p    -0.0018845 -0.0018845 
 4.n        6.282p    -0.0025126 -0.0025126 
 5.n        9.108p    -0.0031407 -0.0031407 
 29.n       265.13p   -0.018195  -0.018195  
 92.n       2.6508n   -0.05754   -0.05754   
 240.n      17.935n   -0.149     -0.149     
 521.n      83.687n   -0.31899   -0.31899   
 1.u        303.3n    -0.59799   -0.59799   
 1.745u     900.91n   -1.0063    -1.0063    
 2.49u      1.7918u   -1.3853    -1.3853    
 3.929u     4.2584u   -2.0428    -2.0428    
 5.368u     7.6076u   -2.6121    -2.6121    
 7.886u     15.218u   -3.4331    -3.4331    
 10.404u    24.665u   -4.0705    -4.0705    
 14.572u    43.222u   -4.8337    -4.8337    
 18.74u     64.41u    -5.3336    -5.3336    
 25.704u    103.26u   -5.8241    -5.8241    
 32.668u    144.65u   -6.0612    -6.0612    
 45.257u    222.03u   -6.2327    -6.2327    
 57.846u    300.74u   -6.2717    -6.2717    
 85.69u     475.56u   -6.2851    -6.2851    
 132.1u     767.17u   -6.2824    -6.2824    
 249.58u    0.0015053 -6.2837    -6.2837    
 624.86u    0.0038633 -6.2827    -6.2827    
 0.0025034  0.015666  -6.283     -6.283     
 0.013465   0.084439  -6.2651    -6.2651    
 0.044294   0.27467   -6.0758    -6.0758    
 0.075123   0.45462   -5.5986    -5.5986    
 0.12651    0.71372   -4.4864    -4.4864    
 0.17789    0.89907   -2.7282    -2.7282    
 0.22927    0.99152   -0.87037   -0.87037   
 0.29934    0.95236    1.9882     1.9882    
 0.39943    0.59073    5.2375     5.2375    
 0.49953    0.0030457  6.505      6.505     
 0.56208   -0.38022    5.7477     5.7477    
 0.62464   -0.70548    4.6508     4.6508    
 0.6872    -0.92314    2.3078     2.3078    
 0.74976   -1.         0.1492     0.1492    
 0.81232   -0.92433   -2.5682    -2.5682    
 0.90616   -0.55609   -5.2803    -5.2803    
 1.        -65.703u   -6.5703    -6.5703    
#Time       v(1)       v(2)       v(3)      
 0.         0.         0.         0.        
 2.n        2.513p    -0.0012564 -0.0012564 
 3.n        4.083p    -0.0018845 -0.0018845 
 4.n        6.282p    -0.0025126 -0.0025126 
 5.n        9.108p    -0.0031407 -0.0031407 
 17.n       91.986p   -0.010672  -0.010672  
 29.n       265.19p   -0.018195  -0.018195  
 41.n       528.6p    -0.025708  -0.025708  
 53.n       882.13p   -0.033213  -0.033213  
 65.n       1.3257n   -0.040708  -0.040708  
 77.n       1.8591n   -0.048195  -0.048195  
 89.n       2.4823n   -0.055672  -0.055672  
 101.n      3.1951n   -0.063141  -0.063141  
 113.n      3.9976n   -0.0706    -0.0706    
 133.n      5.5337n   -0.083013  -0.083013  
 153.n      7.3179n   -0.095401  -0.095401  
 173.n      9.3495n   -0.10776   -0.10776   
 193.n      11.628n   -0.1201    -0.1201    
 213.n      14.153n   -0.13242   -0.13242   
 233.n      16.925n   -0.14471   -0.14471   
 265.n      21.869n   -0.16432   -0.16432   
 297.n      27.44n    -0.18387   -0.18387   
 329.n      33.635n   -0.20335   -0.20335   
 361.n      40.454n   -0.22278   -0.22278   
 393.n      47.892n   -0.24214   -0.24214   
 425.n      55.949n   -0.26144   -0.26144   
 457.n      64.623n   -0.28068   -0.28068   
 507.n      79.406n   -0.31062   -0.31062   
 557.n      95.681n   -0.34041   -0.34041   
 607.n      113.44n   -0.37005   -0.37005   
 657.n      132.68n   -0.39954   -0.39954   
 707.n      153.39n   -0.42888   -0.42888   
 757.n      175.57n   -0.45808   -0.45808   
 807.n      199.2n    -0.48713   -0.48713   
 857.n      224.28n   -0.51604   -0.51604   
 934.n      265.71n   -0.56028   -0.56028   
 1.011u     310.55n   -0.60418   -0.60418   
 1.088u     358.74n   -0.64774   -0.64774   
 1.165u     410.28n   -0.69096   -0.69096   
 1.242u     465.14n   -0.73386   -0.73386   
 1.319u     523.29n   -0.77642   -0.77642   
 1.396u     584.7n    -0.81866   -0.81866   
 1.473u     649.35n   -0.86058   -0.86058   
 1.55u      717.21n   -0.90217   -0.90217   
 1.627u     788.27n   -0.94345   -0.94345   
 1.748u     906.31n   -1.0077    -1.0077    
 1.869u     1.0321u   -1.0711    -1.0711    
 1.99u      1.1655u   -1.1338    -1.1338    
 2.111u     1.3064u   -1.1957    -1.1957    
 2.232u     1.4548u   -1.2569    -1.2569    
 2.353u     1.6105u   -1.3174    -1.3174    
 2.474u     1.7736u   -1.3771    -1.3771    
 2.595u     1.9438u   -1.4361    -1.4361    
 2.716u     2.1211u   -1.4944    -1.4944    
 2.837u     2.3054u   -1.552     -1.552     
 2.958u     2.4966u   -1.6089    -1.6089    
 3.143u     2.8022u   -1.6946    -1.6946    
 3.328u     3.1235u   -1.7787    -1.7787    
 3.513u     3.4602u   -1.8613    -1.8613    
 3.698u     3.812u    -1.9423    -1.9423    
 3.883u     4.1787u   -2.0219    -2.0219    
 4.068u     4.5599u   -2.1       -2.1       
 4.253u     4.9555u   -2.1767    -2.1767    
 4.438u     5.3652u   -2.252     -2.252     
 4.623u     5.7886u   -2.3259    -2.3259    
 4.808u     6.2256u   -2.3984    -2.3984    
 4.993u     6.6759u   -2.4696    -2.4696    
 5.178u     7.1393u   -2.5395    -2.5395    
 5.459u     7.8674u   -2.6432    -2.6432    
 5.74u      8.6244u   -2.7441    -2.7441    
 6.021u     9.4092u   -2.8422    -2.8422    
 6.302u     10.221u   -2.9375    -2.9375    
 6.583u     11.06u    -3.0302    -3.0302    
 6.864u     11.924u   -3.1204    -3.1204    
 7.145u     12.813u   -3.208     -3.208     
 7.426u     13.726u   -3.2932    -3.2932    
 7.707u     14.664u   -3.3761    -3.3761    
 7.988u     15.624u   -3.4567    -3.4567    
 8.269u     16.606u   -3.535     -3.535     
 8.55u      17.61u    -3.6111    -3.6111    
 8.973u     19.161u   -3.7218    -3.7218    
 9.396u     20.758u   -3.8279    -3.8279    
 9.819u     22.398u   -3.9296    -3.9296    
 10.242u    24.081u   -4.0271    -4.0271    
 10.665u    25.804u   -4.1206    -4.1206    
 11.088u    27.566u   -4.2102    -4.2102    
 11.511u    29.365u   -4.296     -4.296     
 11.934u    31.2u     -4.3783    -4.3783    
 12.357u    33.069u   -4.4573    -4.4573    
 12.78u     34.97u    -4.5329    -4.5329    
 13.203u    36.903u   -4.6054    -4.6054    
 13.626u    38.866u   -4.6749    -4.6749    
 14.274u    41.928u   -4.7758    -4.7758    
 14.922u    45.053u   -4.8705    -4.8705    
 15.57u     48.238u   -4.9591    -4.9591    
 16.218u    51.478u   -5.0422    -5.0422    
 16.866u    54.771u   -5.1201    -5.1201    
 17.514u    58.112u   -5.1931    -5.1931    
 18.162u    61.5u     -5.2615    -5.2615    
 18.81u     64.93u    -5.3257    -5.3257    
 19.458u    68.401u   -5.3858    -5.3858    
 20.106u    71.909u   -5.4421    -5.4421    
 21.082u    77.258u   -5.5204    -5.5204    
 22.058u    82.681u   -5.5914    -5.5914    
 23.034u    88.17u    -5.6557    -5.6557    
 24.01u     93.718u   -5.7141    -5.7141    
 24.986u    99.321u   -5.7671    -5.7671    
 25.962u    104.97u   -5.8151    -5.8151    
 26.938u    110.67u   -5.8587    -5.8587    
 27.914u    116.41u   -5.8982    -5.8982    
 28.89u     122.18u   -5.934     -5.934     
 30.425u    131.33u   -5.9838    -5.9838    
 31.96u     140.55u   -6.0265    -6.0265    
 33.495u    149.82u   -6.0631    -6.0631    
 35.03u     159.16u   -6.0944    -6.0944    
 36.565u    168.53u   -6.1213    -6.1213    
 38.1u      177.95u   -6.1444    -6.1444    
 39.635u    187.39u   -6.1642    -6.1642    
 42.094u    202.58u   -6.1903    -6.1903    
 44.553u    217.83u   -6.2106    -6.2106    
 47.012u    233.12u   -6.2265    -6.2265    
 49.471u    248.45u   -6.2389    -6.2389    
 51.93u     263.8u    -6.2486    -6.2486    
 55.883u    288.52u   -6.26      -6.26      
 59.836u    313.28u   -6.2677    -6.2677    
 63.789u    338.07u   -6.2728    -6.2728    
 67.742u    362.87u   -6.2762    -6.2762    
 74.603u    405.95u   -6.2798    -6.2798    
 81.464u    449.04u   -6.2815    -6.2815    
 92.149u    516.16u   -6.2827    -6.2827    
 102.83u    583.29u   -6.283     -6.283     
 121.93u    703.3u    -6.2832    -6.2832    
 141.03u    823.3u    -6.2832    -6.2832    
 191.07u    0.0011377 -6.2832    -6.2832    
 291.4u     0.0017681 -6.2832    -6.2832    
 860.06u    0.0053411 -6.2831    -6.2831    
 0.002225   0.013917  -6.2826    -6.2826    
 0.00359    0.022492  -6.2816    -6.2816    
 0.0058042  0.036398  -6.2792    -6.2792    
 0.0080184  0.050297  -6.2752    -6.2752    
 0.010233   0.064187  -6.2704    -6.2704    
 0.012447   0.078064  -6.264     -6.264     
 0.015806   0.099086  -6.2527    -6.2527    
 0.019165   0.12006   -6.2378    -6.2378    
 0.022524   0.14099   -6.2209    -6.2209    
 0.025883   0.16185   -6.2004    -6.2004    
 0.029242   0.18264   -6.1779    -6.1779    
 0.032601   0.20335   -6.1519    -6.1519    
 0.03596    0.22397   -6.124     -6.124     
 0.039319   0.24448   -6.0925    -6.0925    
 0.042678   0.26489   -6.0592    -6.0592    
 0.047743   0.29544   -6.0033    -6.0033    
 0.052809   0.32569   -5.941     -5.941     
 0.057874   0.35561   -5.8731    -5.8731    
 0.062939   0.38517   -5.7988    -5.7988    
 0.068004   0.41434   -5.719     -5.719     
 0.073069   0.44309   -5.6331    -5.6331    
 0.078135   0.47139   -5.5418    -5.5418    
 0.0832     0.49922   -5.4446    -5.4446    
 0.088265   0.52654   -5.3422    -5.3422    
 0.09333    0.55332   -5.234     -5.234     
 0.098395   0.57955   -5.1209    -5.1209    
 0.10346    0.60519   -5.0023    -5.0023    
 0.10853    0.63021   -4.8789    -4.8789    
 0.11359    0.6546    -4.7503    -4.7503    
 0.11866    0.67832   -4.6171    -4.6171    
 0.12372    0.70136   -4.479     -4.479     
 0.13141    0.73495   -4.2621    -4.2621    
 0.13909    0.76683   -4.033     -4.033     
 0.14678    0.79693   -3.7968    -3.7968    
 0.15447    0.82516   -3.5495    -3.5495    
 0.16215    0.85147   -3.2961    -3.2961    
 0.16984    0.8758    -3.0328    -3.0328    
 0.17753    0.89808   -2.7647    -2.7647    
 0.18521    0.91826   -2.4879    -2.4879    
 0.1929     0.93631   -2.2075    -2.2075    
 0.20059    0.95217   -1.9197    -1.9197    
 0.20827    0.96581   -1.6297    -1.6297    
 0.21596    0.9772    -1.3337    -1.3337    
 0.22766    0.99016   -0.8806    -0.8806    
 0.23937    0.99776   -0.41923   -0.41923   
 0.25107    0.99998    0.040887   0.040887  
 0.26277    0.99679    0.50428    0.50428   
 0.28734    0.97261    1.4632     1.4632    
 0.31192    0.9253     2.3877     2.3877    
 0.32568    0.88909    2.8745     2.8745    
 0.33944    0.84624    3.3531     3.3531    
 0.3496     0.81051    3.6772     3.6772    
 0.35977    0.77149    4.0032     4.0032    
 0.36993    0.72932    4.296      4.296     
 0.38009    0.68418    4.5882     4.5882    
 0.38814    0.64642    4.7902     4.7902    
 0.39619    0.60702    4.999      4.999     
 0.40424    0.56606    5.176      5.176     
 0.41229    0.52365    5.3587     5.3587    
 0.42035    0.47991    5.5089     5.5089    
 0.4284     0.43493    5.6636     5.6636    
 0.43645    0.38885    5.7853     5.7853    
 0.44257    0.35311    5.8832     5.8832    
 0.4487     0.31685    5.9561     5.9561    
 0.45482    0.28012    6.0364     6.0364    
 0.46095    0.24297    6.0916     6.0916    
 0.46707    0.20547    6.1539     6.1539    
 0.4732     0.16766    6.1911     6.1911    
 0.47786    0.13871    6.2265     6.2265    
 0.48252    0.10965    6.2422     6.2422    
 0.48719    0.080489   6.2668     6.2668    
 0.49185    0.051262   6.2719     6.2719    
 0.49524    0.029995   6.2839     6.2839    
 0.49862    0.0087135  6.28       6.28      
 0.50107   -0.0066533  6.2862     6.2862    
 0.50266   -0.016668   6.2793     6.2793    
 0.50426   -0.026681   6.284      6.284     
 0.50585   -0.036692   6.2761     6.2761    
 0.50871   -0.05462    6.277      6.277     
 0.51156   -0.07253    6.2639     6.2639    
 0.51442   -0.090417   6.2605     6.2605    
 0.51728   -0.10828    6.2436     6.2436    
 0.52013   -0.1261     6.236      6.236     
 0.52299   -0.14388    6.2152     6.2152    
 0.52585   -0.16162    6.2035     6.2035    
 0.5287    -0.1793     6.1788     6.1788    
 0.53319   -0.20697    6.1505     6.1505    
 0.53768   -0.23448    6.1055     6.1055    
 0.54217   -0.2618     6.0673     6.0673    
 0.54666   -0.28891    6.0128     6.0128    
 0.55114   -0.31579    5.9649     5.9649    
 0.55563   -0.34242    5.901      5.901     
 0.56012   -0.36878    5.8435     5.8435    
 0.56461   -0.39484    5.7703     5.7703    
 0.5691    -0.42059    5.7035     5.7035    
 0.57359   -0.44601    5.6213     5.6213    
 0.57808   -0.47107    5.5454     5.5454    
 0.58256   -0.49576    5.4544     5.4544    
 0.58705   -0.52005    5.3697     5.3697    
 0.59154   -0.54393    5.2702     5.2702    
 0.59824   -0.57874    5.1278     5.1278    
 0.60493   -0.61253    4.9643     4.9643    
 0.61163   -0.64523    4.8039     4.8039    
 0.61833   -0.67679    4.6232     4.6232    
 0.62502   -0.70716    4.4461     4.4461    
 0.63172   -0.73627    4.2494     4.2494    
 0.63841   -0.76408    4.0569     4.0569    
 0.64511   -0.79054    3.8456     3.8456    
 0.65181   -0.8156     3.639      3.639     
 0.6585    -0.83921    3.4145     3.4145    
 0.6652    -0.86134    3.1953     3.1953    
 0.67189   -0.88195    2.9592     2.9592    
 0.67859   -0.90099    2.7291     2.7291    
 0.68529   -0.91844    2.4829     2.4829    
 0.69198   -0.93427    2.2435     2.2435    
 0.70192   -0.95469    1.8681     1.8681    
 0.71185   -0.9714     1.4948     1.4948    
 0.72179   -0.98432    1.1063     1.1063    
 0.73173   -0.99341    0.72279    0.72279   
 0.74166   -0.99862    0.32718    0.32718   
 0.75601   -0.99929   -0.23472   -0.23472   
 0.77037   -0.99183   -0.80443   -0.80443   
 0.78665   -0.97362   -1.4326    -1.4326    
 0.80293   -0.94524   -2.0548    -2.0548    
 0.81921   -0.90697   -2.6465    -2.6465    
 0.83051   -0.8748    -3.0464    -3.0464    
 0.8418    -0.83823   -3.4267    -3.4267    
 0.8531    -0.79744   -3.7939    -3.7939    
 0.8644    -0.75262   -4.1379    -4.1379    
 0.87288   -0.71651   -4.3843    -4.3843    
 0.88135   -0.67837   -4.6172    -4.6172    
 0.88983   -0.6383    -4.8381    -4.8381    
 0.8983    -0.59643   -5.0442    -5.0442    
 0.90678   -0.55286   -5.2371    -5.2371    
 0.91525   -0.50773   -5.4141    -5.4141    
 0.92373   -0.46116   -5.5768    -5.5768    
 0.93008   -0.42536   -5.6863    -5.6863    
 0.93644   -0.38889   -5.7902    -5.7902    
 0.9428    -0.3518    -5.8815    -5.8815    
 0.94915   -0.31414   -5.9667    -5.9667    
 0.95551   -0.27599   -6.0391    -6.0391    
 0.96186   -0.23739   -6.1052    -6.1052    
 0.96822   -0.19842   -6.1583    -6.1583    
 0.97276   -0.17038   -6.1921    -6.1921    
 0.9773    -0.14221   -6.2193    -6.2193    
 0.98184   -0.11392   -6.2431    -6.2431    
 0.98638   -0.085536  -6.2602    -6.2602    
 0.99092   -0.057084  -6.2738    -6.2738    
 0.99395   -0.038088  -6.2782    -6.2782    
 0.99697   -0.019079  -6.2828    -6.2828    
 0.99798   -0.012741  -6.2819    -6.2819    
 1.        -62.841u   -6.2841    -6.2841    
Gnucap   System status
iterations: op=0, dc=0, tran=872, fourier=0, total=1362
transient timesteps: accepted=331, rejected=10, total=341
nodes: user=3, subckt=0, model=0, total=3
dctran density=77.8%, ac density=77.8%
