' 
#Time       v(1)       v(2)       v(3)      
 0.         0.         0.         0.        
 0.1        0.58773   -5.1122    -5.1122    
 0.2        0.95104   -1.9447    -1.9447    
 0.3        0.95108    1.9708     1.9708    
 0.4        0.58784    5.294      5.294     
 0.5        64.615u    6.4615     6.4615    
 0.6       -0.58774    5.0055     5.0055    
 0.7       -0.95104    1.8382     1.8382    
 0.8       -0.95108   -2.0771    -2.0771    
 0.9       -0.58784   -5.1877    -5.1877    
 1.        -65.678u   -6.5678    -6.5678    
#Time       v(1)       v(2)       v(3)      
 0.         0.         0.         0.        
 0.1        0.58773   -5.0834    -5.0834    
 0.2        0.95104   -1.943     -1.943     
 0.3        0.95108    1.9427     1.9427    
 0.4        0.58784    5.0836     5.0836    
 0.5        62.835u    6.2835     6.2835    
 0.6       -0.58773    5.0833     5.0833    
 0.7       -0.95104    1.9431     1.9431    
 0.8       -0.95108   -1.9426    -1.9426    
 0.9       -0.58784   -5.0835    -5.0835    
 1.        -62.833u   -6.2833    -6.2833    
Gnucap   System status
iterations: op=0, dc=0, tran=884, fourier=0, total=1390
transient timesteps: accepted=339, rejected=9, total=348
nodes: user=3, subckt=0, model=0, total=3
dctran density=77.8%, ac density=77.8%
