' 
#Time       v(1)       v(2)       v(3)       q(C1)      q(C2)      dq(C1)     dq(C2)     dqdt(C1)   dqdt(C2)   i(C1)      i(C2)      timef(C1)  timef(C2) 
 0.         0.         0.         0.         0.         0.         0.         0.         0.         0.         0.         0.         Inf        Inf       
 400.p      101.f     -251.32u   -251.32u    100.53f    100.53f    100.53f    100.53f    251.32u    251.32u    251.32u    251.32u    3.7424n    3.7424n   
 1.6n       854.f     -0.0010052 -0.0010052  854.45f    854.45f    753.92f    753.92f    628.27u    628.27u    0.0010052  0.0010052  2.9352n    2.9352n   
 2.8n       2.513p    -0.001759  -0.001759   2.513p     2.513p     1.6586p    1.6586p    0.0013821  0.0013821  0.001759   0.001759   4.5092n    4.5092n   
 4.n        5.076p    -0.0025128 -0.0025128  5.0761p    5.0761p    2.5631p    2.5631p    0.0021359  0.0021359  0.0025128  0.0025128  27.735n    27.735n   
 27.7n      240.81p   -0.01738   -0.01738    240.81p    240.81p    235.73p    235.73p    0.0099466  0.0099466  0.01738    0.01738    88.549n    88.549n   
 88.5n      2.4521n   -0.055361  -0.055361   2.4521n    2.4521n    2.2113n    2.2113n    0.036371   0.036371   0.055361   0.055361   233.28n    233.28n   
 233.3n     16.95n    -0.14489   -0.14489    16.95n     16.95n     14.498n    14.498n    0.10013    0.10013    0.14489    0.14489    508.33n    508.33n   
 508.3n     79.691n   -0.31141   -0.31141    79.691n    79.691n    62.741n    62.741n    0.22815    0.22815    0.31141    0.31141    979.17n    979.17n   
 979.2n     291.02n   -0.58615   -0.58615    291.02n    291.02n    211.33n    211.33n    0.44878    0.44878    0.58615    0.58615    1.7133u    1.7133u   
 1.7133u    869.38n   -0.98956   -0.98956    869.38n    869.38n    578.36n    578.36n    0.78785    0.78785    0.98956    0.98956    2.7909u    2.7909u   
 2.4474u    1.7334u   -1.3644    -1.3644     1.7334u    1.7334u    864.02n    864.02n    1.177      1.177      1.3644     1.3644     3.8697u    3.8697u   
 3.8697u    4.1385u   -2.0176    -2.0176     4.1385u    4.1385u    2.4051u    2.4051u    1.691      1.691      2.0176     2.0176     5.7144u    5.7144u   
 5.292u     7.4109u   -2.584     -2.584      7.4109u    7.4109u    3.2724u    3.2724u    2.3008     2.3008     2.584      2.584      7.784u     7.784u    
 7.784u     14.871u   -3.4037    -3.4037     14.871u    14.871u    7.4606u    7.4606u    2.9938     2.9938     3.4037     3.4037     10.884u    10.884u   
 10.276u    24.148u   -4.0418    -4.0418     24.148u    24.148u    9.277u     9.277u     3.7227     3.7227     4.0418     4.0418     14.403u    14.403u   
 14.403u    42.411u   -4.8085    -4.8085     42.411u    42.411u    18.262u    18.262u    4.4251     4.4251     4.8085     4.8085     19.531u    19.531u   
 18.53u     63.296u   -5.313     -5.313      63.296u    63.296u    20.885u    20.885u    5.0608     5.0608     5.313      5.313      25.42u     25.42u    
 25.419u    101.61u   -5.8102    -5.8102     101.61u    101.61u    38.317u    38.317u    5.5616     5.5616     5.8102     5.8102     34.225u    34.225u   
 32.309u    142.48u   -6.0526    -6.0526     142.48u    142.48u    40.865u    40.865u    5.9314     5.9314     6.0526     6.0526     44.733u    44.733u   
 44.732u    218.77u   -6.2293    -6.2293     218.77u    218.77u    76.289u    76.289u    6.1409     6.1409     6.2293     6.2293     61.855u    61.855u   
 57.155u    296.41u   -6.2706    -6.2706     296.41u    296.41u    77.643u    77.643u    6.2499     6.2499     6.2706     6.2706     84.468u    84.468u   
 84.462u    467.84u   -6.2851    -6.2851     467.84u    467.84u    171.43u    171.43u    6.2779     6.2779     6.2851     6.2851     129.72u    129.72u   
 129.71u    752.19u   -6.2824    -6.2824     752.19u    752.19u    284.35u    284.35u    6.2838     6.2838     6.2824     6.2824     242.66u    242.66u   
 242.56u    0.0014612 -6.2837    -6.2837     0.0014612  0.0014612  709.03u    709.03u    6.2831     6.2831     6.2837     6.2837     595.73u    595.73u   
 595.06u    0.003676  -6.2827    -6.2827     0.003676   0.003676   0.0022148  0.0022148  6.2832     6.2832     6.2827     6.2827     0.002361   0.002361  
 0.002339   0.014633  -6.2831    -6.2831     0.014633   0.014633   0.010957   0.010957   6.2829     6.2829     6.2831     6.2831     0.01266    0.01266   
 0.012105   0.075923  -6.2684    -6.2684     0.075923   0.075923   0.06129    0.06129    6.2757     6.2757     6.2684     6.2684     0.041963   0.041963  
 0.041403   0.25716   -6.1035    -6.1035     0.25716    0.25716    0.18124    0.18124    6.1859     6.1859     6.1035     6.1035     0.085798   0.085798  
 0.070702   0.42971   -5.6752    -5.6752     0.42971    0.42971    0.17255    0.17255    5.8893     5.8893     5.6752     5.6752     0.1237     0.1237    
 0.1        0.58773   -5.1122    -5.1122     0.58773    0.58773    0.15803    0.15803    5.3937     5.3937     5.1122     5.1122     0.15971    0.15971   
 0.15       0.80898   -3.7376    -3.7376     0.80898    0.80898    0.22125    0.22125    4.4249     4.4249     3.7376     3.7376     0.21891    0.21891   
 0.2        0.95104   -1.9447    -1.9447     0.95104    0.95104    0.14206    0.14206    2.8411     2.8411     1.9447     1.9447     0.27805    0.27805   
 0.25       1.        -0.013852  -0.013852   1.         1.         0.048963   0.048963   0.97926    0.97926    0.013853   0.013853   0.34106    0.34106   
 0.3        0.95108    1.9708     1.9708     0.95108    0.95108   -0.048924  -0.048924  -0.97847   -0.97847   -1.9708    -1.9708     0.42989    0.42989   
 0.4        0.58784    5.294      5.294      0.58784    0.58784   -0.36324   -0.36324   -3.6324    -3.6324    -5.294     -5.294      0.51222    0.51222   
 0.5        64.615u    6.4615     6.4615     64.615u    64.615u   -0.58777   -0.58777   -5.8777    -5.8777    -6.4615    -6.4615     0.56827    0.56827   
 0.55      -0.30896    5.8994     5.8994    -0.30896   -0.30896   -0.30902   -0.30902   -6.1805    -6.1805    -5.8994    -5.8994     0.59897    0.59897   
 0.6       -0.58773    5.2516     5.2516    -0.58773   -0.58773   -0.27877   -0.27877   -5.5755    -5.5755    -5.2516    -5.2516     0.65887    0.65887   
 0.65      -0.80898    3.5983     3.5983    -0.80898   -0.80898   -0.22125   -0.22125   -4.425     -4.425     -3.5983    -3.5983     0.71778    0.71778   
 0.7       -0.95104    2.0838     2.0838    -0.95104   -0.95104   -0.14205   -0.14205   -2.8411    -2.8411    -2.0838    -2.0838     0.77724    0.77724   
 0.75      -1.        -0.12523   -0.12523   -1.        -1.        -0.048966  -0.048966  -0.97931   -0.97931    0.12523    0.12523    0.84108    0.84108   
 0.8       -0.95107   -1.8318    -1.8318    -0.95107   -0.95107    0.048926   0.048926   0.97853    0.97853    1.8318     1.8318     0.92979    0.92979   
 0.9       -0.58784   -5.4329    -5.4329    -0.58784   -0.58784    0.36324    0.36324    3.6324     3.6324     5.4329     5.4329     1.0122     1.0122    
 1.        -63.227u   -6.3227    -6.3227    -63.227u   -63.227u    0.58778    0.58778    5.8778     5.8778     6.3227     6.3227     1.0683     1.0683    
#Time       v(1)       v(2)       v(3)       q(C1)      q(C2)      dq(C1)     dq(C2)     dqdt(C1)   dqdt(C2)   i(C1)      i(C2)      timef(C1)  timef(C2) 
 0.         0.         0.         0.         0.         0.         0.         0.         0.         0.         0.         0.         Inf        Inf       
 0.001      0.0062209 -6.2209    -6.2209     0.0062209  0.0062209  0.0062209  0.0062209  6.2209     6.2209     6.2209     6.2209     120.n      120.n     
 120.n      8.9405n   -0.074504  -0.074504   8.9405n    8.9405n    8.9405n    8.9405n    0.074504   0.074504   0.074504   0.074504   100.p      100.p     
 200.p      25.f      -125.66u   -125.66u    25.132f    25.132f    25.132f    25.132f    125.66u    125.66u    125.66u    125.66u    1.1549n    1.1549n   
 1.2n       465.f     -753.94u   -753.94u    464.93f    464.93f    439.8f     439.8f     439.8u     439.8u     753.94u    753.94u    678.75p    678.75p   
 700.p      166.f     -439.81u   -439.81u    166.5f     166.5f     141.37f    141.37f    282.73u    282.73u    439.81u    439.81u    1.2171n    1.2171n   
 1.2n       465.f     -753.94u   -753.94u    464.93f    464.93f    298.44f    298.44f    596.87u    596.87u    753.94u    753.94u    1.8443n    1.8443n   
 1.7n       920.f     -0.001068  -0.001068   920.43f    920.43f    455.5f     455.5f     910.99u    910.99u    0.001068   0.001068   14.107n    14.107n   
 14.1n      62.431p   -0.008853  -0.008853   62.431p    62.431p    61.511p    61.511p    0.0049605  0.0049605  0.008853   0.008853   25.079n    25.079n   
 26.5n      220.42p   -0.016628  -0.016628   220.42p    220.42p    157.98p    157.98p    0.012741   0.012741   0.016628   0.016628   40.073n    40.073n   
 38.9n      474.76p   -0.024394  -0.024394   474.76p    474.76p    254.34p    254.34p    0.020511   0.020511   0.024394   0.024394   51.315n    51.315n   
 51.3n      825.33p   -0.03215   -0.03215    825.33p    825.33p    350.57p    350.57p    0.028272   0.028272   0.03215    0.03215    63.721n    63.721n   
 63.7n      1.272n    -0.039897  -0.039897   1.272n     1.272n     446.69p    446.69p    0.036023   0.036023   0.039897   0.039897   77.163n    77.163n   
 76.1n      1.8147n   -0.047634  -0.047634   1.8147n    1.8147n    542.69p    542.69p    0.043765   0.043765   0.047634   0.047634   91.262n    91.262n   
 88.5n      2.4533n   -0.055361  -0.055361   2.4533n    2.4533n    638.57p    638.57p    0.051497   0.051497   0.055361   0.055361   105.27n    105.27n   
 100.9n     3.1876n   -0.063079  -0.063079   3.1876n    3.1876n    734.32p    734.32p    0.05922    0.05922    0.063079   0.063079   119.21n    119.21n   
 113.3n     4.0176n   -0.070787  -0.070787   4.0176n    4.0176n    829.96p    829.96p    0.066933   0.066933   0.070787   0.070787   133.09n    133.09n   
 133.1n     5.5408n   -0.083075  -0.083075   5.5408n    5.5408n    1.5232n    1.5232n    0.076931   0.076931   0.083075   0.083075   154.56n    154.56n   
 152.9n     7.3071n   -0.095339  -0.095339   7.3071n    7.3071n    1.7663n    1.7663n    0.089207   0.089207   0.095339   0.095339   177.68n    177.68n   
 172.7n     9.316n    -0.10758   -0.10758    9.316n     9.316n     2.0089n    2.0089n    0.10146    0.10146    0.10758    0.10758    198.93n    198.93n   
 192.5n     11.567n   -0.11979   -0.11979    11.567n    11.567n    2.251n     2.251n     0.11369    0.11369    0.11979    0.11979    220.71n    220.71n   
 212.3n     14.06n    -0.13199   -0.13199    14.06n     14.06n     2.4926n    2.4926n    0.12589    0.12589    0.13199    0.13199    242.43n    242.43n   
 242.4n     18.311n   -0.15047   -0.15047    18.311n    18.311n    4.251n     4.251n     0.14123    0.14123    0.15047    0.15047    274.56n    274.56n   
 272.5n     23.117n   -0.16891   -0.16891    23.117n    23.117n    4.8066n    4.8066n    0.15969    0.15969    0.16891    0.16891    308.92n    308.92n   
 302.6n     28.478n   -0.18728   -0.18728    28.478n    28.478n    5.3606n    5.3606n    0.17809    0.17809    0.18728    0.18728    340.81n    340.81n   
 332.7n     34.391n   -0.2056    -0.2056     34.391n    34.391n    5.9129n    5.9129n    0.19644    0.19644    0.2056     0.2056     373.44n    373.44n   
 362.8n     40.854n   -0.22387   -0.22387    40.854n    40.854n    6.4635n    6.4635n    0.21474    0.21474    0.22387    0.22387    405.99n    405.99n   
 392.9n     47.867n   -0.24208   -0.24208    47.867n    47.867n    7.0125n    7.0125n    0.23297    0.23297    0.24208    0.24208    438.47n    438.47n   
 438.5n     59.532n   -0.26956   -0.26956    59.532n    59.532n    11.665n    11.665n    0.25582    0.25582    0.26956    0.26956    486.43n    486.43n   
 484.1n     72.448n   -0.29692   -0.29692    72.448n    72.448n    12.916n    12.916n    0.28324    0.28324    0.29692    0.29692    537.72n    537.72n   
 529.7n     86.609n   -0.32416   -0.32416    86.609n    86.609n    14.161n    14.161n    0.31054    0.31054    0.32416    0.32416    585.44n    585.44n   
 575.3n     102.01n   -0.35127   -0.35127    102.01n    102.01n    15.4n      15.4n      0.33772    0.33772    0.35127    0.35127    634.26n    634.26n   
 620.9n     118.64n   -0.37826   -0.37826    118.64n    118.64n    16.633n    16.633n    0.36476    0.36476    0.37826    0.37826    683.n      683.n     
 666.5n     136.5n    -0.40512   -0.40512    136.5n     136.5n     17.861n    17.861n    0.39169    0.39169    0.40512    0.40512    731.67n    731.67n   
 712.1n     155.59n   -0.43187   -0.43187    155.59n    155.59n    19.083n    19.083n    0.4185     0.4185     0.43187    0.43187    780.28n    780.28n   
 757.7n     175.89n   -0.45849   -0.45849    175.89n    175.89n    20.3n      20.3n      0.44518    0.44518    0.45849    0.45849    828.83n    828.83n   
 828.8n     209.95n   -0.49976   -0.49976    209.95n    209.95n    34.066n    34.066n    0.47912    0.47912    0.49976    0.49976    902.52n    902.52n   
 899.9n     246.94n   -0.54073   -0.54073    246.94n    246.94n    36.989n    36.989n    0.52024    0.52024    0.54073    0.54073    981.75n    981.75n   
 971.n      286.83n   -0.58141   -0.58141    286.83n    286.83n    39.892n    39.892n    0.56107    0.56107    0.58141    0.58141    1.0552u    1.0552u   
 1.0421u    329.61n   -0.62181   -0.62181    329.61n    329.61n    42.775n    42.775n    0.60161    0.60161    0.62181    0.62181    1.1305u    1.1305u   
 1.1132u    375.24n   -0.66192   -0.66192    375.24n    375.24n    45.637n    45.637n    0.64186    0.64186    0.66192    0.66192    1.2057u    1.2057u   
 1.1843u    423.72n   -0.70175   -0.70175    423.72n    423.72n    48.478n    48.478n    0.68183    0.68183    0.70175    0.70175    1.2809u    1.2809u   
 1.2554u    475.02n   -0.74129   -0.74129    475.02n    475.02n    51.3n      51.3n      0.72152    0.72152    0.74129    0.74129    1.356u     1.356u    
 1.3265u    529.12n   -0.78055   -0.78055    529.12n    529.12n    54.101n    54.101n    0.76092    0.76092    0.78055    0.78055    1.431u     1.431u    
 1.3976u    586.01n   -0.81954   -0.81954    586.01n    586.01n    56.883n    56.883n    0.80004    0.80004    0.81954    0.81954    1.506u     1.506u    
 1.506u     678.04n   -0.87844   -0.87844    678.04n    678.04n    92.031n    92.031n    0.84899    0.84899    0.87844    0.87844    1.6174u    1.6174u   
 1.6144u    776.42n   -0.93672   -0.93672    776.42n    776.42n    98.382n    98.382n    0.90758    0.90758    0.93672    0.93672    1.7369u    1.7369u   
 1.7228u    881.08n   -0.99436   -0.99436    881.08n    881.08n    104.66n    104.66n    0.96554    0.96554    0.99436    0.99436    1.8481u    1.8481u   
 1.8312u    991.96n   -1.0514    -1.0514     991.96n    991.96n    110.88n    110.88n    1.0229     1.0229     1.0514     1.0514     1.962u     1.962u    
 1.9396u    1.109u    -1.1078    -1.1078     1.109u     1.109u     117.03n    117.03n    1.0796     1.0796     1.1078     1.1078     2.0759u    2.0759u   
 2.048u     1.2321u   -1.1636    -1.1636     1.2321u    1.2321u    123.11n    123.11n    1.1357     1.1357     1.1636     1.1636     2.1896u    2.1896u   
 2.1564u    1.3612u   -1.2188    -1.2188     1.3612u    1.3612u    129.12n    129.12n    1.1912     1.1912     1.2188     1.2188     2.3033u    2.3033u   
 2.2648u    1.4963u   -1.2734    -1.2734     1.4963u    1.4963u    135.08n    135.08n    1.2461     1.2461     1.2734     1.2734     2.417u     2.417u    
 2.3732u    1.6373u   -1.3274    -1.3274     1.6373u    1.6373u    140.96n    140.96n    1.3004     1.3004     1.3274     1.3274     2.5306u    2.5306u   
 2.4816u    1.784u    -1.3808    -1.3808     1.784u     1.784u     146.79n    146.79n    1.3541     1.3541     1.3808     1.3808     2.6442u    2.6442u   
 2.59u      1.9366u   -1.4337    -1.4337     1.9366u    1.9366u    152.55n    152.55n    1.4073     1.4073     1.4337     1.4337     2.7577u    2.7577u   
 2.7577u    2.1838u   -1.5143    -1.5143     2.1838u    2.1838u    247.19n    247.19n    1.474      1.474      1.5143     1.5143     2.9287u    2.9287u   
 2.9254u    2.4444u   -1.5936    -1.5936     2.4444u    2.4444u    260.6n     260.6n     1.554      1.554      1.5936     1.5936     3.1126u    3.1126u   
 3.0931u    2.7182u   -1.6716    -1.6716     2.7182u    2.7182u    273.79n    273.79n    1.6326     1.6326     1.6716     1.6716     3.2834u    3.2834u   
 3.2608u    3.0049u   -1.7483    -1.7483     3.0049u    3.0049u    286.76n    286.76n    1.71       1.71       1.7483     1.7483     3.4587u    3.4587u   
 3.4285u    3.3045u   -1.8237    -1.8237     3.3045u    3.3045u    299.52n    299.52n    1.786      1.786      1.8237     1.8237     3.6339u    3.6339u   
 3.5962u    3.6165u   -1.8979    -1.8979     3.6165u    3.6165u    312.06n    312.06n    1.8608     1.8608     1.8979     1.8979     3.8091u    3.8091u   
 3.7639u    3.9409u   -1.9708    -1.9708     3.9409u    3.9409u    324.39n    324.39n    1.9344     1.9344     1.9708     1.9708     3.9842u    3.9842u   
 3.9316u    4.2774u   -2.0426    -2.0426     4.2774u    4.2774u    336.52n    336.52n    2.0067     2.0067     2.0426     2.0426     4.1593u    4.1593u   
 4.0993u    4.6259u   -2.1131    -2.1131     4.6259u    4.6259u    348.45n    348.45n    2.0778     2.0778     2.1131     2.1131     4.3343u    4.3343u   
 4.267u     4.9861u   -2.1824    -2.1824     4.9861u    4.9861u    360.18n    360.18n    2.1478     2.1478     2.1824     2.1824     4.5093u    4.5093u   
 4.4347u    5.3578u   -2.2506    -2.2506     5.3578u    5.3578u    371.71n    371.71n    2.2165     2.2165     2.2506     2.2506     4.6843u    4.6843u   
 4.6024u    5.7408u   -2.3177    -2.3177     5.7408u    5.7408u    383.05n    383.05n    2.2842     2.2842     2.3177     2.3177     4.8592u    4.8592u   
 4.8592u    6.3489u   -2.4182    -2.4182     6.3489u    6.3489u    608.09n    608.09n    2.368      2.368      2.4182     2.4182     5.1203u    5.1203u   
 5.116u     6.9825u   -2.5162    -2.5162     6.9825u    6.9825u    633.58n    633.58n    2.4672     2.4672     2.5162     2.5162     5.4004u    5.4004u   
 5.3728u    7.6409u   -2.6117    -2.6117     7.6409u    7.6409u    658.43n    658.43n    2.564      2.564      2.6117     2.6117     5.6613u    5.6613u   
 5.6296u    8.3236u   -2.7048    -2.7048     8.3236u    8.3236u    682.65n    682.65n    2.6583     2.6583     2.7048     2.7048     5.929u     5.929u    
 5.8864u    9.0298u   -2.7956    -2.7956     9.0298u    9.0298u    706.25n    706.25n    2.7502     2.7502     2.7956     2.7956     6.1967u    6.1967u   
 6.1432u    9.7591u   -2.884     -2.884      9.7591u    9.7591u    729.25n    729.25n    2.8398     2.8398     2.884      2.884      6.4644u    6.4644u   
 6.4u       10.511u   -2.9702    -2.9702     10.511u    10.511u    751.67n    751.67n    2.9271     2.9271     2.9702     2.9702     6.7321u    6.7321u   
 6.6568u    11.284u   -3.0542    -3.0542     11.284u    11.284u    773.52n    773.52n    3.0122     3.0122     3.0542     3.0542     6.9998u    6.9998u   
 6.9136u    12.079u   -3.136     -3.136      12.079u    12.079u    794.82n    794.82n    3.0951     3.0951     3.136      3.136      7.2675u    7.2675u   
 7.1704u    12.895u   -3.2158    -3.2158     12.895u    12.895u    815.58n    815.58n    3.1759     3.1759     3.2158     3.2158     7.5352u    7.5352u   
 7.4272u    13.73u    -3.2936    -3.2936     13.73u     13.73u     835.81n    835.81n    3.2547     3.2547     3.2936     3.2936     7.8029u    7.8029u   
 7.684u     14.586u   -3.3694    -3.3694     14.586u    14.586u    855.53n    855.53n    3.3315     3.3315     3.3694     3.3694     8.0706u    8.0706u   
 8.0706u    15.91u    -3.4799    -3.4799     15.91u     15.91u     1.324u     1.324u     3.4247     3.4247     3.4799     3.4799     8.4636u    8.4636u   
 8.4572u    17.276u   -3.5862    -3.5862     17.276u    17.276u    1.3659u    1.3659u    3.5331     3.5331     3.5862     3.5862     8.8843u    8.8843u   
