' 
#Time       v(1)       v(2)       v(3)      
 0.         0.         0.         0.        
 0.1        0.58773   -5.1122    -5.1122    
 0.2        0.95104   -1.9447    -1.9447    
 0.3        0.95108    1.9708     1.9708    
 0.4        0.58784    5.294      5.294     
 0.5        64.615u    6.4615     6.4615    
 0.6       -0.58773    5.2516     5.2516    
 0.7       -0.95104    2.0838     2.0838    
 0.8       -0.95107   -1.8318    -1.8318    
 0.9       -0.58784   -5.4329    -5.4329    
 1.        -63.227u   -6.3227    -6.3227    
#Time       v(1)       v(2)       v(3)      
 0.         0.         0.         0.        
 0.1        0.58773   -5.0837    -5.0837    
 0.2        0.95104   -1.943     -1.943     
 0.3        0.95108    1.9431     1.9431    
 0.4        0.58784    5.0844     5.0844    
 0.5        62.833u    6.2833     6.2833    
 0.6       -0.58773    5.0837     5.0837    
 0.7       -0.95104    1.9427     1.9427    
 0.8       -0.95108   -1.9429    -1.9429    
 0.9       -0.58784   -5.0838    -5.0838    
 1.        -62.835u   -6.2835    -6.2835    
Gnucap   System status
iterations: op=0, dc=0, tran=886, fourier=0, total=1389
transient timesteps: accepted=338, rejected=10, total=348
nodes: user=3, subckt=0, model=0, total=3
dctran density=77.8%, ac density=77.8%
