' 
#           v(2)       v(3)       v(4)       v(5)       v(6)       iter(0)   
 0.         0.         0.         0.         0.         0.         0.        
-1.         0.5        1.         1.         2.         1.         1.        
-2.         0.5        1.         0.5        2.         0.5        2.        
-3.         0.5        1.         0.5        2.         0.5        3.        
 27.        0.5        1.         0.5        2.         0.5        4.        
#Time       v(2)       v(3)       v(4)       v(5)       v(6)       iter(0)   
 0.         0.         0.         0.         0.         0.         0.        
-1.         0.5        1.         1.         1.         1.         1.        
-2.         0.5        1.         0.5        1.         0.5        2.        
-3.         0.5        1.         0.5        1.         0.5        3.        
 0.         0.5        1.         0.5        1.         0.5        4.        
 0.         0.5        1.         0.5        1.         0.5        0.        
-1.         0.5        1.         0.5        1.0063     0.49843    1.        
-2.         0.5        1.         0.5        1.0063     0.49843    2.        
-3.         0.5        1.         0.5        1.0063     0.49843    3.        
 1.u        0.5        1.         0.5        1.0063     0.49843    4.        
 0.         0.5        1.         0.5        1.0063     0.49843    0.        
-1.         0.5        1.         0.5        1.0126     0.49687    1.        
-2.         0.5        1.         0.5        1.0126     0.49688    2.        
-3.         0.5        1.         0.5        1.0126     0.49688    3.        
 2.u        0.5        1.         0.5        1.0126     0.49688    4.        
 0.         0.5        1.         0.5        1.0126     0.49688    0.        
-1.         0.5        1.         0.5        1.1004     0.4752     1.        
-2.         0.5        1.         0.5        1.1004     0.47611    2.        
-3.         0.5        1.         0.5        1.1004     0.47611    3.        
 16.u       0.5        1.         0.5        1.1004     0.47611    4.        
 0.         0.5        1.         0.5        1.1004     0.47611    0.        
-1.         0.5        1.         0.5        1.5878     0.36562    1.        
-2.         0.5        1.         0.5        1.5878     0.38643    2.        
-3.         0.5        1.         0.5        1.5878     0.38643    3.        
 100.u      0.5        1.         0.5        1.5878     0.38643    4.        
 0.         0.5        1.         0.5        1.5878     0.38643    0.        
-1.         0.5        1.         0.5        1.9511     0.33218    1.        
-2.         0.5        1.         0.5        1.9511     0.33886    2.        
-3.         0.5        1.         0.5        1.9511     0.33886    3.        
 200.u      0.5        1.         0.5        1.9511     0.33886    4.        
 0.         0.5        1.         0.5        1.9511     0.33886    0.        
-1.         0.5        1.         0.5        1.9511     0.33886    1.        
-2.         0.5        1.         0.5        1.9511     0.33886    2.        
 300.u      0.5        1.         0.5        1.9511     0.33886    3.        
 0.         0.5        1.         0.5        1.9511     0.33886    0.        
-1.         0.5        1.         0.5        1.5878     0.38058    1.        
-2.         0.5        1.         0.5        1.5878     0.38643    2.        
-3.         0.5        1.         0.5        1.5878     0.38643    3.        
 400.u      0.5        1.         0.5        1.5878     0.38643    4.        
 0.         0.5        1.         0.5        1.5878     0.38643    0.        
-1.         0.5        1.         0.5        1.         0.4742     1.        
-2.         0.5        1.         0.5        1.         0.5        2.        
-3.         0.5        1.         0.5        1.         0.5        3.        
 500.u      0.5        1.         0.5        1.         0.5        4.        
 0.         0.5        1.         0.5        1.         0.5        0.        
-1.         0.5        1.         0.5        0.41221    0.64695    1.        
-2.         0.5        1.         0.5        0.41221    0.70811    2.        
-3.         0.5        1.         0.5        0.41221    0.70811    3.        
 600.u      0.5        1.         0.5        0.41221    0.70811    4.        
 0.         0.5        1.         0.5        0.41221    0.70811    0.        
-1.         0.5        1.         0.5        0.048943   0.89026    1.        
-2.         0.5        1.         0.5        0.048943   0.95334    2.        
-3.         0.5        1.         0.5        0.048943   0.95334    3.        
 700.u      0.5        1.         0.5        0.048943   0.95334    4.        
 0.         0.5        1.         0.5        0.048943   0.95334    0.        
-1.         0.5        1.         0.5        0.048943   0.95334    1.        
-2.         0.5        1.         0.5        0.048943   0.95334    2.        
 800.u      0.5        1.         0.5        0.048943   0.95334    3.        
 0.         0.5        1.         0.5        0.048943   0.95334    0.        
-1.         0.5        1.         0.5        0.41221    0.62318    1.        
-2.         0.5        1.         0.5        0.41221    0.70811    2.        
-3.         0.5        1.         0.5        0.41221    0.70811    3.        
 900.u      0.5        1.         0.5        0.41221    0.70811    4.        
 0.         0.5        1.         0.5        0.41221    0.70811    0.        
-1.         0.5        1.         0.5        1.         0.41338    1.        
-2.         0.5        1.         0.5        1.         0.5        2.        
-3.         0.5        1.         0.5        1.         0.5        3.        
 0.001      0.5        1.         0.5        1.         0.5        4.        
