' 
#           v(1)       v(2)       v(3)       iter(0)   
 27.        20.        10.        1.         4.        
#Time       v(1)       v(2)       v(3)       iter(0)   
 0.         20.        10.        1.         4.        
 50.u       20.        10.309     1.0309     19.       
 100.u      20.        10.588     1.0588     4.        
 150.u      20.        10.809     1.0809     4.        
 200.u      20.        10.951     1.0951     4.        
 250.u      20.        11.        1.1        4.        
 300.u      20.        10.951     1.0951     4.        
 350.u      20.        10.809     1.0809     4.        
 400.u      20.        10.588     1.0588     4.        
 450.u      20.        10.309     1.0309     4.        
 500.u      20.        10.        1.         4.        
 550.u      20.        9.691      0.9691     4.        
 600.u      20.        9.4122     0.94122    4.        
 650.u      20.        9.191      0.9191     4.        
 700.u      20.        9.0489     0.90489    4.        
 750.u      20.        9.         0.9        4.        
 800.u      20.        9.0489     0.90489    4.        
 850.u      20.        9.191      0.9191     4.        
 900.u      20.        9.4122     0.94122    4.        
 950.u      20.        9.691      0.9691     4.        
 0.001      20.        10.        1.         4.        
#Freq       v(1)       v(2)       v(3)      
 1.K        0.         2.         0.2       
#Freq       vp(1)      vp(2)      vp(3)     
 1.K        0.         0.         0.        
