' truncation error test test 
#Time       v(1)       i(c1)     
 0.         0.         0.        
 500.u      0.00308    6.16      
 0.001      0.0062192  6.3968    
 0.0015     0.0093629  6.178     
 0.002      0.012502   6.3796    
 0.0025     0.015645   6.193     
 0.0051389  0.032219   6.3683    
 0.010123   0.063503   6.1839    
 0.023416   0.14653    6.309     
 0.05       0.30896    5.9107    
 0.075      0.45393    5.6874    
 0.1        0.58774    5.0168    
 0.15       0.80898    3.833     
 0.2        0.95104    1.8494    
 0.25       1.         0.10905   
 0.3        0.95108   -2.0659    
 0.35       0.80905   -3.615     
 0.4        0.58784   -5.2336    
 0.45       0.30908   -5.9169    
 0.5        64.436u   -6.4436    
 0.55      -0.30896   -5.9173    
 0.6       -0.58773   -5.2337    
 0.65      -0.80898   -3.6162    
 0.7       -0.95104   -2.066     
 0.75      -1.         0.10738   
 0.8       -0.95108    1.8497    
 0.85      -0.80906    3.8311    
 0.9       -0.58784    5.0177    
 0.95      -0.30908    6.1326    
 1.        -62.28u     6.228     
Gnucap   System status
iterations: op=0, dc=0, tran=119, fourier=0, total=149
transient timesteps: accepted=30, rejected=0, total=30
nodes: user=1, subckt=0, model=0, total=1
dctran density=100.0%, ac density=100.0%
