'inductance check, no tolerance 
V1 ( 1 0 ) generator scale= 1.
L3 ( 1 2 )  1.
R4 ( 2 0 )  1.
R5 ( 1 3 )  0.97
C6 ( 3 0 )  1.
.fanout 
 ^ ? fanout: no match
.fanout 2 
 ^ ? fanout: no match
#Time       iter(0)    v(1)       v(2)       v(3)       z(C6)      zraw(C6)   z(3)      
 0.         3.         0.         0.         0.         0.97       0.97       0.97      
 0.1        52.        1.         0.095202   0.097999   0.97       0.03836    0.03836   
 0.2        4.         1.         0.18137    0.18643    0.97       0.047549   0.047549  
 0.3        4.         1.         0.25934    0.26619    0.97       0.047549   0.047549  
 0.4        4.         1.         0.32988    0.33813    0.97       0.047549   0.047549  
 0.5        4.         1.         0.3937     0.40302    0.97       0.047549   0.047549  
 0.6        4.         1.         0.45144    0.46155    0.97       0.047549   0.047549  
 0.7        4.         1.         0.50368    0.51434    0.97       0.047549   0.047549  
 0.8        4.         1.         0.55095    0.56195    0.97       0.047549   0.047549  
 0.9        4.         1.         0.59372    0.6049     0.97       0.047549   0.047549  
 1.         4.         1.         0.63241    0.64363    0.97       0.047549   0.047549  
#Freq       v(2)       v(3)       vp(2)      vp(3)      z(C6)      zraw(C6)   z(3)      
 0.001      0.99998    0.99998   -0.36      -0.3492     0.97       0.96998    0.96998   
 0.0031623  0.9998     0.99981   -1.1383    -1.1041     0.97       0.96982    0.96982   
 0.01       0.99803    0.99815   -3.5953    -3.4877     0.97       0.9682     0.9682    
 0.031623   0.98083    0.98193   -11.238    -10.909     0.97       0.95247    0.95247   
 0.1        0.84673    0.85391   -32.142    -31.361     0.97       0.82829    0.82829   
 0.31623    0.44956    0.46055   -63.284    -62.577     0.97       0.44674    0.44674   
 1.         0.15718    0.16191   -80.957    -80.682     0.97       0.15705    0.15705   
 3.1623     0.050266   0.051816  -87.119    -87.03      0.97       0.050262   0.050262  
 10.        0.015913   0.016406  -89.088    -89.06      0.97       0.015913   0.015913  
V1 ( 1 0 ) generator scale= 1.
L3 ( 1 2 )  1.
R4 ( 2 0 )  1.
R5 ( 1 3 )  0.97
C6 ( 3 0 )  1.
Gnucap   System status
iterations: op=0, dc=0, tran=91, fourier=0, total=123
transient timesteps: accepted=16, rejected=7, total=23
nodes: user=3, subckt=0, model=0, total=3
dctran density=77.8%, ac density=77.8%
