'inductance check, no tolerance 
V1 ( 1 0 ) generator scale= 1.
L3 ( 1 2 )  1.
R4 ( 2 0 )  1.
R5 ( 1 3 )  0.97
C6 ( 3 0 )  1.
.fanout 
 ^ ? fanout: no match
.fanout 2 
 ^ ? fanout: no match
#Time       iter(0)    v(1)       v(2)       v(3)       z(C6)      zraw(C6)   z(3)      
 0.         3.         0.         0.         0.         0.97       0.97       0.97      
 0.1        28.        1.         0.095159   0.097974   0.97       0.023182   0.023182  
 0.2        4.         1.         0.18134    0.18641    0.97       0.047549   0.047549  
 0.3        4.         1.         0.25931    0.26617    0.97       0.047549   0.047549  
 0.4        4.         1.         0.32985    0.33812    0.97       0.047549   0.047549  
 0.5        4.         1.         0.39368    0.40301    0.97       0.047549   0.047549  
 0.6        4.         1.         0.45142    0.46154    0.97       0.047549   0.047549  
 0.7        4.         1.         0.50367    0.51433    0.97       0.047549   0.047549  
 0.8        4.         1.         0.55094    0.56194    0.97       0.047549   0.047549  
 0.9        4.         1.         0.59371    0.60489    0.97       0.047549   0.047549  
 1.         4.         1.         0.6324     0.64362    0.97       0.047549   0.047549  
#Freq       v(2)       v(3)       vp(2)      vp(3)      z(C6)      zraw(C6)   z(3)      
 0.001      0.99998    0.99998   -0.36      -0.3492     0.97       0.96998    0.96998   
 0.0031623  0.9998     0.99981   -1.1383    -1.1041     0.97       0.96982    0.96982   
 0.01       0.99803    0.99815   -3.5953    -3.4877     0.97       0.9682     0.9682    
 0.031623   0.98083    0.98193   -11.238    -10.909     0.97       0.95247    0.95247   
 0.1        0.84673    0.85391   -32.142    -31.361     0.97       0.82829    0.82829   
 0.31623    0.44956    0.46055   -63.284    -62.577     0.97       0.44674    0.44674   
 1.         0.15718    0.16191   -80.957    -80.682     0.97       0.15705    0.15705   
 3.1623     0.050266   0.051816  -87.119    -87.03      0.97       0.050262   0.050262  
 10.        0.015913   0.016406  -89.088    -89.06      0.97       0.015913   0.015913  
V1 ( 1 0 ) generator scale= 1.
L3 ( 1 2 )  1.
R4 ( 2 0 )  1.
R5 ( 1 3 )  0.97
C6 ( 3 0 )  1.
Gnucap   System status
iterations: op=0, dc=0, tran=67, fourier=0, total=93
transient timesteps: accepted=17, rejected=0, total=17
nodes: user=3, subckt=0, model=0, total=3
dctran density=77.8%, ac density=77.8%
