'trunc error check 
V1 ( 1 0 ) generator scale= 1.
L3 ( 1 2 )  0.1
R4 ( 2 0 )  1.
R5 ( 1 3 )  1.
C6 ( 3 0 )  0.1
.fanout 
 ^ ? fanout: no match
.fanout 2 
 ^ ? fanout: no match
#Time       iter(0)    v(1)       v(2)       v(3)       z(C6)      zraw(C6)   z(3)       control(0)
 0.         3.         0.         0.         0.         1.         1.         1.         1.        
 100.u      4.         1.         975.61u    999.u      1.         999.u      999.u      9.        
 8.4u       4.         1.         83.993u    83.993u    1.         83.993u    83.993u    16.       
 705.6n     4.         1.         7.056u     7.056u     1.         7.056u     7.056u     16.       
 59.27n     4.         1.         592.7n     592.7n     1.         592.7n     592.7n     16.       
 4.9787n    4.         1.         49.787n    49.787n    1.         49.787n    49.787n    16.       
 418.21p    4.         1.         4.1821n    4.1821n    1.         4.1821n    4.1821n    16.       
 35.13p     4.         1.         351.3p     351.3p     1.         351.3p     351.3p     16.       
 20.p       4.         1.         200.p      200.p      1.         200.p      200.p      16.       
 31.p       4.         1.         310.p      310.p      1.         55.p       55.p       6.        
 856.64n    4.         1.         8.5663u    8.5663u    1.         4.283u     4.283u     6.        
 15.561u    4.         1.         155.6u     155.6u     1.         73.518u    73.518u    6.        
 0.0020124  4.         1.         0.019924   0.019924   1.         0.0098857  0.0098857  6.        
 0.01       4.         1.         0.095202   0.095202   1.         0.038404   0.038404   1.        
 0.02       4.         1.         0.18137    0.18137    1.         0.047619   0.047619   1.        
 0.03       4.         1.         0.25934    0.25934    1.         0.047619   0.047619   1.        
 0.04       4.         1.         0.32988    0.32988    1.         0.047619   0.047619   1.        
 0.05       4.         1.         0.3937     0.3937     1.         0.047619   0.047619   1.        
 0.06       4.         1.         0.45144    0.45144    1.         0.047619   0.047619   1.        
 0.07       4.         1.         0.50368    0.50368    1.         0.047619   0.047619   1.        
 0.08       4.         1.         0.55095    0.55095    1.         0.047619   0.047619   1.        
 0.09       4.         1.         0.59372    0.59372    1.         0.047619   0.047619   1.        
 0.1        4.         1.         0.63241    0.63241    1.         0.047619   0.047619   1.        
#Freq       v(2)       v(3)       vp(2)      vp(3)      z(C6)      zraw(C6)   z(3)      
 0.001      1.         1.        -0.036     -0.036      1.         1.         1.        
 0.0031623  1.         1.        -0.11384   -0.11384    1.         1.         1.        
 0.01       0.99998    0.99998   -0.36      -0.36       1.         0.99998    0.99998   
 0.031623   0.9998     0.9998    -1.1383    -1.1383     1.         0.9998     0.9998    
 0.1        0.99803    0.99803   -3.5953    -3.5953     1.         0.99803    0.99803   
 0.31623    0.98083    0.98083   -11.238    -11.238     1.         0.98083    0.98083   
 1.         0.84673    0.84673   -32.142    -32.142     1.         0.84673    0.84673   
 3.1623     0.44956    0.44956   -63.284    -63.284     1.         0.44956    0.44956   
 10.        0.15718    0.15718   -80.957    -80.957     1.         0.15718    0.15718   
 31.623     0.050266   0.050266  -87.119    -87.119     1.         0.050266   0.050266  
 100.       0.015913   0.015913  -89.088    -89.088     1.         0.015913   0.015913  
V1 ( 1 0 ) generator scale= 1.
L3 ( 1 2 )  0.1
R4 ( 2 0 )  1.
R5 ( 1 3 )  1.
C6 ( 3 0 )  0.1
Gnucap   System status
iterations: op=0, dc=0, tran=91, fourier=0, total=125
transient timesteps: accepted=16, rejected=7, total=23
nodes: user=3, subckt=0, model=0, total=3
dctran density=77.8%, ac density=77.8%
