'trunc error check 
V1 ( 1 0 ) generator scale= 1.
L3 ( 1 2 )  0.1
R4 ( 2 0 )  1.
R5 ( 1 3 )  1.
C6 ( 3 0 )  0.1
.fanout 
 ^ ? fanout: no match
.fanout 2 
 ^ ? fanout: no match
#Time       iter(0)    v(1)       v(2)       v(3)       z(C6)      zraw(C6)   z(3)       control(0)
 0.         3.         0.         0.         0.         1.         1.         1.         1.        
 100.u      4.         1.         975.61u    999.u      1.         999.u      999.u      9.        
 200.u      4.         1.         0.0019742  0.0019975  1.         499.75u    499.75u    6.        
 300.u      4.         1.         0.0029717  0.002995   1.         499.75u    499.75u    6.        
 400.u      4.         1.         0.0039683  0.0039915  1.         499.75u    499.75u    6.        
 500.u      4.         1.         0.0049638  0.004987   1.         499.75u    499.75u    6.        
 0.00525    4.         1.         0.051133   0.051154   1.         0.023199   0.023199   6.        
 0.01       4.         1.         0.095159   0.095178   1.         0.023199   0.023199   1.        
 0.02       4.         1.         0.18134    0.18135    1.         0.047619   0.047619   1.        
 0.03       4.         1.         0.25931    0.25932    1.         0.047619   0.047619   1.        
 0.04       4.         1.         0.32985    0.32986    1.         0.047619   0.047619   1.        
 0.05       4.         1.         0.39368    0.39368    1.         0.047619   0.047619   1.        
 0.06       4.         1.         0.45142    0.45143    1.         0.047619   0.047619   1.        
 0.07       4.         1.         0.50367    0.50367    1.         0.047619   0.047619   1.        
 0.08       4.         1.         0.55094    0.55094    1.         0.047619   0.047619   1.        
 0.09       4.         1.         0.59371    0.59371    1.         0.047619   0.047619   1.        
 0.1        4.         1.         0.6324     0.6324     1.         0.047619   0.047619   1.        
#Freq       v(2)       v(3)       vp(2)      vp(3)      z(C6)      zraw(C6)   z(3)      
 0.001      1.         1.        -0.036     -0.036      1.         1.         1.        
 0.0031623  1.         1.        -0.11384   -0.11384    1.         1.         1.        
 0.01       0.99998    0.99998   -0.36      -0.36       1.         0.99998    0.99998   
 0.031623   0.9998     0.9998    -1.1383    -1.1383     1.         0.9998     0.9998    
 0.1        0.99803    0.99803   -3.5953    -3.5953     1.         0.99803    0.99803   
 0.31623    0.98083    0.98083   -11.238    -11.238     1.         0.98083    0.98083   
 1.         0.84673    0.84673   -32.142    -32.142     1.         0.84673    0.84673   
 3.1623     0.44956    0.44956   -63.284    -63.284     1.         0.44956    0.44956   
 10.        0.15718    0.15718   -80.957    -80.957     1.         0.15718    0.15718   
 31.623     0.050266   0.050266  -87.119    -87.119     1.         0.050266   0.050266  
 100.       0.015913   0.015913  -89.088    -89.088     1.         0.015913   0.015913  
V1 ( 1 0 ) generator scale= 1.
L3 ( 1 2 )  0.1
R4 ( 2 0 )  1.
R5 ( 1 3 )  1.
C6 ( 3 0 )  0.1
Gnucap   System status
iterations: op=0, dc=0, tran=67, fourier=0, total=95
transient timesteps: accepted=17, rejected=0, total=17
nodes: user=3, subckt=0, model=0, total=3
dctran density=77.8%, ac density=77.8%
