'trunc error check 
V1 ( 1 0 ) pwl( 0., 0.  1.p, 1. )  AC  1.
L3 ( 1 2 )  0.1
R4 ( 2 0 )  1.
R5 ( 1 3 )  1.
C6 ( 3 0 )  0.1
#Time       iter(0)    v(1)       v(2)       v(3)       z(C6)      zraw(C6)   z(3)       control(0) timef(C6)  timef(L3)  dt(C6)     dtr(C6)   
 0.         3.         0.         0.         0.         1.         1.         1.         1.         Inf        Inf        ??         Inf       
 20.p       4.         1.         0.         200.p      1.         200.p      200.p      7.         40.p       40.p       20.p       20.p      
 40.p       4.         1.         200.p      400.p      1.         133.33p    133.33p    6.         60.p       60.p       20.p       20.p      
 60.p       4.         1.         400.p      600.p      1.         133.33p    133.33p    6.         532.51n    532.51n    20.p       532.45n   
 80.p       4.         1.         600.p      800.p      1.         133.33p    133.33p    6.         590.78n    590.78n    20.p       590.7n    
 100.p      4.         1.         800.p      1.n        1.         133.33p    133.33p    6.         652.21n    652.21n    20.p       652.11n   
 652.2n     4.         1.         6.5218u    6.522u     1.         4.3473u    4.3473u    6.         45.979u    45.978u    652.1n     45.326u   
 45.898u    4.         1.         458.84u    458.84u    1.         301.55u    301.55u    6.         427.95u    427.95u    45.246u    382.05u   
 414.57u    4.         1.         0.004135   0.004135   1.         0.0024518  0.0024518  6.         0.0016014  0.0016014  368.67u    0.0011868 
 0.0014796  4.         1.         0.014671   0.014671   1.         0.0070503  0.0070503  6.         0.003848   0.003848   0.001065   0.0023684 
 0.0036097  4.         1.         0.035393   0.035393   1.         0.014002   0.014002   6.         0.0074105  0.0074105  0.0021301  0.0038008 
 0.0068049  4.         1.         0.065657   0.065657   1.         0.020857   0.020857   6.         0.012155   0.012155   0.0031951  0.0053497 
 0.01       4.         1.         0.095022   0.095022   1.         0.020857   0.020857   1.         0.016733   0.016733   0.0031951  0.006733  
 0.015      4.         1.         0.13904    0.13904    1.         0.032258   0.032258   6.         0.022861   0.022861   0.005      0.0078612 
 0.02       4.         1.         0.18101    0.18101    1.         0.032258   0.032258   1.         0.029642   0.029642   0.005      0.0096419 
 0.025      4.         1.         0.22097    0.22097    1.         0.032258   0.032258   6.         0.035735   0.035735   0.005      0.010735  
 0.03       4.         1.         0.25899    0.25899    1.         0.032258   0.032258   1.         0.041844   0.041844   0.005      0.011844  
 0.04       4.         1.         0.32906    0.32906    1.         0.0625     0.0625     1.         0.053183   0.053183   0.01       0.013183  
 0.05       4.         1.         0.3929     0.3929     1.         0.0625     0.0625     1.         0.066257   0.066257   0.01       0.016257  
 0.06       4.         1.         0.45079    0.45079    1.         0.0625     0.0625     1.         0.077852   0.077852   0.01       0.017852  
 0.07       4.         1.         0.5032     0.5032     1.         0.0625     0.0625     1.         0.089648   0.089648   0.01       0.019648  
 0.08       4.         1.         0.55063    0.55063    1.         0.0625     0.0625     1.         0.10153    0.10153    0.01       0.021535  
 0.09       4.         1.         0.59354    0.59354    1.         0.0625     0.0625     1.         0.11348    0.11348    0.01       0.023477  
 0.1        4.         1.         0.63235    0.63235    1.         0.0625     0.0625     1.         0.12547    0.12547    0.01       0.025467  
#Freq       v(2)       v(3)       vp(2)      vp(3)      z(C6)      zraw(C6)   z(3)      
 0.001      1.         1.        -0.036     -0.036      1.         1.         1.        
 0.0031623  1.         1.        -0.11384   -0.11384    1.         1.         1.        
 0.01       0.99998    0.99998   -0.36      -0.36       1.         0.99998    0.99998   
 0.031623   0.9998     0.9998    -1.1383    -1.1383     1.         0.9998     0.9998    
 0.1        0.99803    0.99803   -3.5953    -3.5953     1.         0.99803    0.99803   
 0.31623    0.98083    0.98083   -11.238    -11.238     1.         0.98083    0.98083   
 1.         0.84673    0.84673   -32.142    -32.142     1.         0.84673    0.84673   
 3.1623     0.44956    0.44956   -63.284    -63.284     1.         0.44956    0.44956   
 10.        0.15718    0.15718   -80.957    -80.957     1.         0.15718    0.15718   
 31.623     0.050266   0.050266  -87.119    -87.119     1.         0.050266   0.050266  
 100.       0.015913   0.015913  -89.088    -89.088     1.         0.015913   0.015913  
V1 ( 1 0 ) pwl( 0., 0.  1.p, 1. )  AC  1.
L3 ( 1 2 )  0.1
R4 ( 2 0 )  1.
R5 ( 1 3 )  1.
C6 ( 3 0 )  0.1
*.tran .01 .1 0 
Gnucap   System status
iterations: op=0, dc=0, tran=95, fourier=0, total=130
transient timesteps: accepted=24, rejected=0, total=24
nodes: user=3, subckt=0, model=0, total=3
dctran density=77.8%, ac density=77.8%
