'trunc error check 
V1 ( 1 0 ) pwl( 0., 0.  1.p, 1. )  AC  1.
L3 ( 1 2 )  0.1
R4 ( 2 0 )  1.
R5 ( 1 3 )  1.
C6 ( 3 0 )  0.1
#Time       iter(0)    v(1)       v(2)       v(3)       z(C6)      zraw(C6)   z(3)       control(0) timef(C6)  timef(L3)  dt(C6)     dtr(C6)   
 0.         3.         0.         0.         0.         1.         1.         1.         1.         Inf        Inf        ??         Inf       
 100.u      4.         1.         975.61u    999.u      1.         999.u      999.u      9.         4.2u       4.2u       100.u      4.2u      
 4.2u       4.         1.         41.998u    41.998u    1.         41.998u    41.998u    16.        176.4n     176.4n     4.2u       176.4n    
 176.4n     4.         1.         1.764u     1.764u     1.         1.764u     1.764u     16.        7.4088n    7.4088n    176.4n     7.4088n   
 7.41n      4.         1.         74.1n      74.1n      1.         74.1n      74.1n      16.        311.22p    311.22p    7.41n      311.22p   
 310.p      4.         1.         3.1n       3.1n       1.         3.1n       3.1n       16.        13.02p     13.02p     310.p      13.02p    
 20.p       4.         1.         200.p      200.p      1.         200.p      200.p      16.        30.p       30.p       20.p       10.p      
 30.p       4.         1.         300.p      300.p      1.         66.667p    66.667p    6.         532.48n    532.48n    10.p       532.45n   
 532.46n    4.         1.         5.3246u    5.3246u    1.         3.5495u    3.5495u    6.         41.487u    41.487u    532.43n    40.954u   
 41.347u    4.         1.         413.35u    413.35u    1.         272.02u    272.02u    6.         403.8u     403.8u     40.814u    362.45u   
 397.01u    4.         1.         0.0039603  0.0039603  1.         0.0023655  0.0023655  6.         0.0015558  0.0015558  355.67u    0.0011588 
 0.001464   4.         1.         0.014517   0.014517   1.         0.0070631  0.0070631  6.         0.0038136  0.0038136  0.001067   0.0023496 
 0.003598   4.         1.         0.03528    0.03528    1.         0.014027   0.014027   6.         0.0073937  0.0073937  0.002134   0.0037957 
 0.005732   4.         1.         0.055636   0.055636   1.         0.014027   0.014027   6.         0.010847   0.010847   0.002134   0.0051152 
 0.01       4.         1.         0.094958   0.094958   1.         0.027666   0.027666   1.         0.016261   0.016261   0.004268   0.006261  
 0.014268   4.         1.         0.13274    0.13274    1.         0.027666   0.027666   6.         0.022393   0.022393   0.004268   0.0081249 
 0.02       4.         1.         0.18096    0.18096    1.         0.036807   0.036807   1.         0.029277   0.029277   0.005732   0.0092767 
 0.025      4.         1.         0.22094    0.22094    1.         0.032258   0.032258   6.         0.03597    0.03597    0.005      0.01097   
 0.03       4.         1.         0.25897    0.25897    1.         0.032258   0.032258   1.         0.041787   0.041787   0.005      0.011787  
 0.04       4.         1.         0.32906    0.32906    1.         0.0625     0.0625     1.         0.053169   0.053169   0.01       0.013169  
 0.05       4.         1.         0.39289    0.39289    1.         0.0625     0.0625     1.         0.066251   0.066251   0.01       0.016251  
 0.06       4.         1.         0.45078    0.45078    1.         0.0625     0.0625     1.         0.07785    0.07785    0.01       0.01785   
 0.07       4.         1.         0.5032     0.5032     1.         0.0625     0.0625     1.         0.089647   0.089647   0.01       0.019647  
 0.08       4.         1.         0.55063    0.55063    1.         0.0625     0.0625     1.         0.10153    0.10153    0.01       0.021534  
 0.09       4.         1.         0.59354    0.59354    1.         0.0625     0.0625     1.         0.11348    0.11348    0.01       0.023477  
 0.1        4.         1.         0.63235    0.63235    1.         0.0625     0.0625     1.         0.12547    0.12547    0.01       0.025467  
#Freq       v(2)       v(3)       vp(2)      vp(3)      z(C6)      zraw(C6)   z(3)      
 0.001      1.         1.        -0.036     -0.036      1.         1.         1.        
 0.0031623  1.         1.        -0.11384   -0.11384    1.         1.         1.        
 0.01       0.99998    0.99998   -0.36      -0.36       1.         0.99998    0.99998   
 0.031623   0.9998     0.9998    -1.1383    -1.1383     1.         0.9998     0.9998    
 0.1        0.99803    0.99803   -3.5953    -3.5953     1.         0.99803    0.99803   
 0.31623    0.98083    0.98083   -11.238    -11.238     1.         0.98083    0.98083   
 1.         0.84673    0.84673   -32.142    -32.142     1.         0.84673    0.84673   
 3.1623     0.44956    0.44956   -63.284    -63.284     1.         0.44956    0.44956   
 10.        0.15718    0.15718   -80.957    -80.957     1.         0.15718    0.15718   
 31.623     0.050266   0.050266  -87.119    -87.119     1.         0.050266   0.050266  
 100.       0.015913   0.015913  -89.088    -89.088     1.         0.015913   0.015913  
V1 ( 1 0 ) pwl( 0., 0.  1.p, 1. )  AC  1.
L3 ( 1 2 )  0.1
R4 ( 2 0 )  1.
R5 ( 1 3 )  1.
C6 ( 3 0 )  0.1
*.tran .01 .1 0 
Gnucap   System status
iterations: op=0, dc=0, tran=103, fourier=0, total=140
transient timesteps: accepted=21, rejected=5, total=26
nodes: user=3, subckt=0, model=0, total=3
dctran density=77.8%, ac density=77.8%
