'trunc error check 
V1 ( 1 0 ) pwl( 0., 0.  1.p, 1. )  AC  1.
L3 ( 1 2 )  0.1
R4 ( 2 0 )  1.
R5 ( 1 3 )  1.
C6 ( 3 0 )  0.1
#Time       iter(0)    v(1)       v(2)       v(3)       z(C6)      zraw(C6)   z(3)       control(0) timef(C6)  timef(L3)  dt(C6)     dtr(C6)   
 0.         3.         0.         0.         0.         1.         1.         1.         1.         Inf        Inf        ??         Inf       
 100.u      4.         1.         975.61u    999.u      1.         999.u      999.u      9.         200.u      200.u      100.u      100.u     
 200.u      4.         1.         0.001974   0.0019973  1.         666.22u    666.22u    6.         300.u      300.u      100.u      100.u     
 300.u      4.         1.         0.0029715  0.0029948  1.         666.22u    666.22u    6.         0.0014909  0.0014909  100.u      0.0011909 
 400.u      4.         1.         0.003968   0.0039913  1.         666.22u    666.22u    6.         0.0017215  0.0017215  100.u      0.0013215 
 500.u      4.         1.         0.0049636  0.0049868  1.         666.22u    666.22u    6.         0.0019592  0.0019592  100.u      0.0014592 
 0.0018571  4.         1.         0.018349   0.018372   1.         0.0089665  0.0089665  6.         0.0043223  0.0043222  0.0013571  0.0024651 
 0.0038929  4.         1.         0.038097   0.038118   1.         0.01339    0.01339    6.         0.0079813  0.0079812  0.0020357  0.0040884 
 0.0069464  4.         1.         0.066965   0.066985   1.         0.019951   0.019951   6.         0.012334   0.012334   0.0030536  0.005388  
 0.01       4.         1.         0.095011   0.09503    1.         0.019951   0.019951   1.         0.016729   0.016729   0.0030536  0.006729  
 0.015      4.         1.         0.13902    0.13904    1.         0.032258   0.032258   6.         0.022835   0.022834   0.005      0.0078345 
 0.02       4.         1.         0.18099    0.181      1.         0.032258   0.032258   1.         0.029658   0.029658   0.005      0.0096582 
 0.025      4.         1.         0.22095    0.22096    1.         0.032258   0.032258   6.         0.035741   0.035741   0.005      0.010741  
 0.03       4.         1.         0.25897    0.25898    1.         0.032258   0.032258   1.         0.041846   0.041846   0.005      0.011846  
 0.04       4.         1.         0.32905    0.32906    1.         0.0625     0.0625     1.         0.053184   0.053184   0.01       0.013184  
 0.05       4.         1.         0.39288    0.39289    1.         0.0625     0.0625     1.         0.066257   0.066257   0.01       0.016257  
 0.06       4.         1.         0.45078    0.45078    1.         0.0625     0.0625     1.         0.077852   0.077852   0.01       0.017852  
 0.07       4.         1.         0.5032     0.5032     1.         0.0625     0.0625     1.         0.089648   0.089648   0.01       0.019648  
 0.08       4.         1.         0.55063    0.55063    1.         0.0625     0.0625     1.         0.10153    0.10153    0.01       0.021535  
 0.09       4.         1.         0.59354    0.59354    1.         0.0625     0.0625     1.         0.11348    0.11348    0.01       0.023477  
 0.1        4.         1.         0.63235    0.63235    1.         0.0625     0.0625     1.         0.12547    0.12547    0.01       0.025467  
#Freq       v(2)       v(3)       vp(2)      vp(3)      z(C6)      zraw(C6)   z(3)      
 0.001      1.         1.        -0.036     -0.036      1.         1.         1.        
 0.0031623  1.         1.        -0.11384   -0.11384    1.         1.         1.        
 0.01       0.99998    0.99998   -0.36      -0.36       1.         0.99998    0.99998   
 0.031623   0.9998     0.9998    -1.1383    -1.1383     1.         0.9998     0.9998    
 0.1        0.99803    0.99803   -3.5953    -3.5953     1.         0.99803    0.99803   
 0.31623    0.98083    0.98083   -11.238    -11.238     1.         0.98083    0.98083   
 1.         0.84673    0.84673   -32.142    -32.142     1.         0.84673    0.84673   
 3.1623     0.44956    0.44956   -63.284    -63.284     1.         0.44956    0.44956   
 10.        0.15718    0.15718   -80.957    -80.957     1.         0.15718    0.15718   
 31.623     0.050266   0.050266  -87.119    -87.119     1.         0.050266   0.050266  
 100.       0.015913   0.015913  -89.088    -89.088     1.         0.015913   0.015913  
V1 ( 1 0 ) pwl( 0., 0.  1.p, 1. )  AC  1.
L3 ( 1 2 )  0.1
R4 ( 2 0 )  1.
R5 ( 1 3 )  1.
C6 ( 3 0 )  0.1
*.tran .01 .1 0 
Gnucap   System status
iterations: op=0, dc=0, tran=83, fourier=0, total=115
transient timesteps: accepted=21, rejected=0, total=21
nodes: user=3, subckt=0, model=0, total=3
dctran density=77.8%, ac density=77.8%
