'trunc error check 
V1 ( 1 0 ) generator scale= 1.
L3 ( 1 2 )  0.1
R4 ( 2 0 )  1.
R5 ( 1 3 )  1.
C6 ( 3 0 )  0.1
.fanout 
 ^ ? fanout: no match
.fanout 2 
 ^ ? fanout: no match
#Time       iter(0)    v(1)       v(2)       v(3)       z(C6)      zraw(C6)   z(3)       control(0) timef(C6)  timef(L3) 
 0.         3.         0.         0.         0.         1.         1.         1.         1.         Inf        Inf       
 100.u      4.         1.         975.61u    999.u      1.         999.u      999.u      9.         8.4u       8.4u      
 8.3333u    4.         1.         83.326u    83.326u    1.         83.326u    83.326u    16.        700.n      700.n     
 694.44n    4.         1.         6.9444u    6.9444u    1.         6.9444u    6.9444u    16.        58.333n    58.333n   
 57.87n     4.         1.         578.7n     578.7n     1.         578.7n     578.7n     16.        4.8611n    4.8611n   
 4.8225n    4.         1.         48.225n    48.225n    1.         48.225n    48.225n    16.        405.09p    405.09p   
 401.88p    4.         1.         4.0188n    4.0188n    1.         4.0188n    4.0188n    16.        33.758p    33.758p   
 33.49p     4.         1.         334.9p     334.9p     1.         334.9p     334.9p     16.        10.p       10.p      
 16.745p    4.         1.         167.45p    167.45p    1.         167.45p    167.45p    16.        26.745p    26.745p   
 27.745p    4.         1.         277.45p    277.45p    1.         55.p       55.p       6.         766.73n    766.73n   
 766.72n    4.         1.         7.6672u    7.6672u    1.         3.8335u    3.8335u    6.         14.738u    14.738u   
 14.732u    4.         1.         147.31u    147.31u    1.         69.822u    69.822u    6.         0.0020717  0.0020717 
 0.0020118  4.         1.         0.019917   0.019917   1.         0.0098865  0.0098865  6.         0.012441   0.012441  
 0.01       4.         1.         0.095202   0.095202   1.         0.038407   0.038407   1.         0.029127   0.029127  
 0.02       4.         1.         0.18137    0.18137    1.         0.047619   0.047619   1.         0.046525   0.046525  
 0.03       4.         1.         0.25934    0.25934    1.         0.047619   0.047619   1.         0.059789   0.059789  
 0.04       4.         1.         0.32988    0.32988    1.         0.047619   0.047619   1.         0.072851   0.072851  
 0.05       4.         1.         0.3937     0.3937     1.         0.047619   0.047619   1.         0.086028   0.086028  
 0.06       4.         1.         0.45144    0.45144    1.         0.047619   0.047619   1.         0.098989   0.098989  
 0.07       4.         1.         0.50368    0.50368    1.         0.047619   0.047619   1.         0.11181    0.11181   
 0.08       4.         1.         0.55095    0.55095    1.         0.047619   0.047619   1.         0.12454    0.12454   
 0.09       4.         1.         0.59372    0.59372    1.         0.047619   0.047619   1.         0.13721    0.13721   
 0.1        4.         1.         0.63241    0.63241    1.         0.047619   0.047619   1.         0.14985    0.14985   
 0.11       4.         1.         0.66742    0.66742    1.         0.047619   0.047619   1.         0.16248    0.16248   
 0.12       4.         1.         0.6991     0.69909    1.         0.047619   0.047619   1.         0.1751     0.1751    
 0.13       4.         1.         0.72775    0.72775    1.         0.047619   0.047619   1.         0.18774    0.18774   
 0.14       4.         1.         0.75368    0.75368    1.         0.047619   0.047619   1.         0.2004     0.2004    
 0.15       4.         1.         0.77714    0.77714    1.         0.047619   0.047619   1.         0.21309    0.21309   
 0.16       4.         1.         0.79836    0.79836    1.         0.047619   0.047619   1.         0.22582    0.22582   
 0.17       4.         1.         0.81757    0.81757    1.         0.047619   0.047619   1.         0.23859    0.23859   
 0.18       4.         1.         0.83494    0.83494    1.         0.047619   0.047619   1.         0.25142    0.25142   
 0.19       4.         1.         0.85066    0.85066    1.         0.047619   0.047619   1.         0.2643     0.2643    
 0.2        4.         1.         0.86488    0.86488    1.         0.047619   0.047619   1.         0.27725    0.27725   
 0.21       4.         1.         0.87775    0.87775    1.         0.047619   0.047619   1.         0.29027    0.29027   
 0.22       4.         1.         0.8894     0.88939    1.         0.047619   0.047619   1.         0.30335    0.30335   
 0.23       4.         1.         0.89993    0.89993    1.         0.047619   0.047619   1.         0.31652    0.31652   
 0.24       4.         1.         0.90946    0.90946    1.         0.047619   0.047619   1.         0.32977    0.32977   
 0.25       4.         1.         0.91808    0.91808    1.         0.047619   0.047619   1.         0.34311    0.34311   
 0.26       4.         1.         0.92588    0.92588    1.         0.047619   0.047619   1.         0.35654    0.35654   
 0.27       4.         1.         0.93294    0.93294    1.         0.047619   0.047619   1.         0.37007    0.37007   
 0.28       4.         1.         0.93933    0.93933    1.         0.047619   0.047619   1.         0.3837     0.3837    
 0.29       4.         1.         0.94511    0.94511    1.         0.047619   0.047619   1.         0.39743    0.39743   
 0.3        4.         1.         0.95034    0.95033    1.         0.047619   0.047619   1.         0.41128    0.41128   
 0.31       4.         1.         0.95507    0.95506    1.         0.047619   0.047619   1.         0.42525    0.42525   
 0.32       4.         1.         0.95934    0.95934    1.         0.047619   0.047619   1.         0.43934    0.43934   
 0.33       4.         1.         0.96322    0.96322    1.         0.047619   0.047619   1.         0.45355    0.45355   
 0.34       4.         1.         0.96672    0.96672    1.         0.047619   0.047619   1.         0.4679     0.4679    
 0.35       4.         1.         0.96989    0.96989    1.         0.047619   0.047619   1.         0.48238    0.48238   
 0.36       4.         1.         0.97276    0.97276    1.         0.047619   0.047619   1.         0.497      0.497     
 0.37       4.         1.         0.97535    0.97535    1.         0.047619   0.047619   1.         0.51178    0.51178   
 0.38       4.         1.         0.9777     0.9777     1.         0.047619   0.047619   1.         0.5267     0.5267    
 0.39       4.         1.         0.97982    0.97982    1.         0.047619   0.047619   1.         0.54179    0.54179   
 0.4        4.         1.         0.98174    0.98174    1.         0.047619   0.047619   1.         0.55704    0.55704   
 0.41       4.         1.         0.98348    0.98348    1.         0.047619   0.047619   1.         0.57247    0.57247   
 0.42       4.         1.         0.98506    0.98506    1.         0.047619   0.047619   1.         0.58807    0.58807   
 0.43       4.         1.         0.98648    0.98648    1.         0.047619   0.047619   1.         0.60385    0.60385   
 0.44       4.         1.         0.98777    0.98777    1.         0.047619   0.047619   1.         0.61983    0.61983   
 0.45       4.         1.         0.98893    0.98893    1.         0.047619   0.047619   1.         0.636      0.636     
 0.46       4.         1.         0.98999    0.98999    1.         0.047619   0.047619   1.         0.65238    0.65238   
 0.47       3.         1.         0.99094    0.99094    1.         0.047619   0.047619   1.         0.66897    0.66897   
 0.48       3.         1.         0.9918     0.9918     1.         0.047619   0.047619   1.         0.68578    0.68578   
 0.49       3.         1.         0.99258    0.99258    1.         0.047619   0.047619   1.         0.70282    0.70282   
 0.5        3.         1.         0.99329    0.99329    1.         0.047619   0.047619   1.         0.72009    0.72009   
 0.51       3.         1.         0.99393    0.99393    1.         0.047619   0.047619   1.         0.7376     0.7376    
 0.52       3.         1.         0.99451    0.99451    1.         0.047619   0.047619   1.         0.75537    0.75537   
 0.53       3.         1.         0.99503    0.99503    1.         0.047619   0.047619   1.         0.7734     0.7734    
 0.54       3.         1.         0.9955     0.9955     1.         0.047619   0.047619   1.         0.7917     0.79169   
 0.55       3.         1.         0.99593    0.99593    1.         0.047619   0.047619   1.         0.81027    0.81027   
 0.56       3.         1.         0.99632    0.99632    1.         0.047619   0.047619   1.         0.82914    0.82913   
 0.57       3.         1.         0.99667    0.99667    1.         0.047619   0.047619   1.         0.8483     0.8483    
 0.58       3.         1.         0.99699    0.99699    1.         0.047619   0.047619   1.         0.86777    0.86777   
 0.59       3.         1.         0.99727    0.99727    1.         0.047619   0.047619   1.         0.88756    0.88756   
 0.6        3.         1.         0.99753    0.99753    1.         0.047619   0.047619   1.         0.90768    0.90768   
 0.61       3.         1.         0.99777    0.99777    1.         0.047619   0.047619   1.         0.92814    0.92814   
 0.62       3.         1.         0.99798    0.99798    1.         0.047619   0.047619   1.         0.94896    0.94896   
 0.63       3.         1.         0.99817    0.99817    1.         0.047619   0.047619   1.         0.97014    0.97014   
 0.64       3.         1.         0.99835    0.99835    1.         0.047619   0.047619   1.         0.9917     0.9917    
 0.65       3.         1.         0.9985     0.9985     1.         0.047619   0.047619   1.         1.0137     1.0137    
 0.66       3.         1.         0.99865    0.99865    1.         0.047619   0.047619   1.         1.036      1.036     
 0.67       3.         1.         0.99878    0.99877    1.         0.047619   0.047619   1.         1.0588     1.0588    
 0.68       3.         1.         0.99889    0.99889    1.         0.047619   0.047619   1.         1.082      1.082     
 0.69       3.         1.         0.999      0.999      1.         0.047619   0.047619   1.         1.1056     1.1056    
 0.7        3.         1.         0.99909    0.99909    1.         0.047619   0.047619   1.         1.1297     1.1297    
 0.71       3.         1.         0.99918    0.99918    1.         0.047619   0.047619   1.         1.1543     1.1543    
 0.72       3.         1.         0.99926    0.99926    1.         0.047619   0.047619   1.         1.1794     1.1794    
 0.73       3.         1.         0.99933    0.99933    1.         0.047619   0.047619   1.         1.205      1.205     
 0.74       3.         1.         0.99939    0.99939    1.         0.047619   0.047619   1.         1.2311     1.2311    
 0.75       3.         1.         0.99945    0.99945    1.         0.047619   0.047619   1.         1.2578     1.2578    
 0.76       3.         1.         0.9995     0.9995     1.         0.047619   0.047619   1.         1.2851     1.2851    
 0.77       3.         1.         0.99955    0.99955    1.         0.047619   0.047619   1.         1.3129     1.3129    
 0.78       3.         1.         0.99959    0.99959    1.         0.047619   0.047619   1.         1.3413     1.3413    
 0.79       3.         1.         0.99963    0.99963    1.         0.047619   0.047619   1.         1.3703     1.3703    
 0.8        3.         1.         0.99967    0.99967    1.         0.047619   0.047619   1.         1.4        1.4       
 0.81       3.         1.         0.9997     0.9997     1.         0.047619   0.047619   1.         1.4304     1.4304    
 0.82       3.         1.         0.99973    0.99973    1.         0.047619   0.047619   1.         1.4615     1.4615    
 0.83       3.         1.         0.99975    0.99975    1.         0.047619   0.047619   1.         1.4932     1.4932    
 0.84       3.         1.         0.99978    0.99978    1.         0.047619   0.047619   1.         1.5257     1.5257    
 0.85       3.         1.         0.9998     0.9998     1.         0.047619   0.047619   1.         1.559      1.559     
 0.86       3.         1.         0.99982    0.99982    1.         0.047619   0.047619   1.         1.5931     1.5931    
 0.87       3.         1.         0.99983    0.99983    1.         0.047619   0.047619   1.         1.6279     1.6279    
 0.88       3.         1.         0.99985    0.99985    1.         0.047619   0.047619   1.         1.6636     1.6636    
 0.89       3.         1.         0.99986    0.99986    1.         0.047619   0.047619   1.         1.7002     1.7002    
 0.9        3.         1.         0.99988    0.99988    1.         0.047619   0.047619   1.         1.7377     1.7377    
 0.91       3.         1.         0.99989    0.99989    1.         0.047619   0.047619   1.         1.7761     1.7761    
 0.92       3.         1.         0.9999     0.9999     1.         0.047619   0.047619   1.         1.8155     1.8155    
 0.93       3.         1.         0.99991    0.99991    1.         0.047619   0.047619   1.         1.8559     1.8559    
 0.94       3.         1.         0.99992    0.99992    1.         0.047619   0.047619   1.         1.8973     1.8973    
 0.95       3.         1.         0.99993    0.99992    1.         0.047619   0.047619   1.         1.9398     1.9398    
 0.96       3.         1.         0.99993    0.99993    1.         0.047619   0.047619   1.         1.9834     1.9834    
 0.97       3.         1.         0.99994    0.99994    1.         0.047619   0.047619   1.         2.0281     2.0281    
 0.98       3.         1.         0.99994    0.99994    1.         0.047619   0.047619   1.         2.074      2.074     
 0.99       3.         1.         0.99995    0.99995    1.         0.047619   0.047619   1.         2.1211     2.1211    
 1.         3.         1.         0.99995    0.99995    1.         0.047619   0.047619   1.         2.1695     2.1695    
#Freq       v(2)       v(3)       vp(2)      vp(3)      z(C6)      zraw(C6)   z(3)      
 0.001      1.         1.        -0.036     -0.036      1.         1.         1.        
 0.0031623  1.         1.        -0.11384   -0.11384    1.         1.         1.        
 0.01       0.99998    0.99998   -0.36      -0.36       1.         0.99998    0.99998   
 0.031623   0.9998     0.9998    -1.1383    -1.1383     1.         0.9998     0.9998    
 0.1        0.99803    0.99803   -3.5953    -3.5953     1.         0.99803    0.99803   
 0.31623    0.98083    0.98083   -11.238    -11.238     1.         0.98083    0.98083   
 1.         0.84673    0.84673   -32.142    -32.142     1.         0.84673    0.84673   
 3.1623     0.44956    0.44956   -63.284    -63.284     1.         0.44956    0.44956   
 10.        0.15718    0.15718   -80.957    -80.957     1.         0.15718    0.15718   
 31.623     0.050266   0.050266  -87.119    -87.119     1.         0.050266   0.050266  
 100.       0.015913   0.015913  -89.088    -89.088     1.         0.015913   0.015913  
V1 ( 1 0 ) generator scale= 1.
L3 ( 1 2 )  0.1
R4 ( 2 0 )  1.
R5 ( 1 3 )  1.
C6 ( 3 0 )  0.1
Gnucap   System status
iterations: op=0, dc=0, tran=397, fourier=0, total=521
transient timesteps: accepted=106, rejected=7, total=113
nodes: user=3, subckt=0, model=0, total=3
dctran density=77.8%, ac density=77.8%
