2 stage op-amp open loop  02/16/88 
#           iter(0)    v(1)       v(2)       v(3)       v(4)       v(5)      
+ v(6)       v(7)       v(8)       v(9)      
 27.        13.        0.         0.         1.5708     1.5709    -1.1669    
+ 0.079194  -1.6303    -2.5        2.5       
vdb(6) 0.                20.              40.               60.             80.
vp(6)-180.              -90.              0.                90.            180.
        +-----------------+----------------+-----------------+----------------+
 1.     |                 .                +                 *                |
 1.5849 |                 .               +.                 *                |
 2.5119 |                 .               +.                 *                |
 3.9811 |                 .              + .                 *                |
 6.3096 |                 .             +  .                 *                |
 10.    |                 .            +   .                *.                |
 15.849 |                 .          +     .                *.                |
 25.119 |                 .       +        .              *  .                |
 39.811 |                 .     +          .            *    .                |
 63.096 |                 .   +            .         *       .                |
 100.   |                 . +              .      *          .                |
 158.49 |                 .+               .   *             .                |
 251.19 |                 .+               *                 .                |
 398.11 |                 +             *  .                 .                |
 630.96 |                 +         *      .                 .                |
 1.K    |                +.      *         .                 .                |
 1.5849K|                +.  *             .                 .                |
 2.5119K|                +*                .                 .                |
 3.9811K|             * + .                .                 .                |
 6.3096K|          *   +  .                .                 .                |
 10.K   |      *      +   .                .                 .                |
 15.849K|  *        +     .                .                 .                |
 25.119K*        +        .                .                 .                |
 39.811K*     +           .                .                 .                |
 63.096K* +               .                .                 .                |
 100.K  *                 .                .                 .             +  |
 158.49K*                 .                .                 .         +      |
 251.19K*                 .                .                 .      +         |
 398.11K*                 .                .                 .   +            |
 630.96K*                 .                .                 . +              |
 1.Meg  *                 .                .                 .+               |
 1.5849M*                 .                .                 +                |
 2.5119M*                 .                .                +.                |
 3.9811M*                 .                .               + .                |
 6.3096M*                 .                .              +  .                |
 10.Meg *                 .                .            +    .                |
        +-----------------+----------------+-----------------+----------------+
v(6)  -4.               -2.               0.                2.               4.
        +-----------------+----------------+-----------------+----------------+
-500.u  |                 .     *          .                 .                |
-480.u  |                 .     *          .                 .                |
-460.u  |                 .     *          .                 .                |
-440.u  |                 .      *         .                 .                |
-420.u  |                 .      *         .                 .                |
-400.u  |                 .       *        .                 .                |
-380.u  |                 .       *        .                 .                |
-360.u  |                 .        *       .                 .                |
-340.u  |                 .        *       .                 .                |
-320.u  |                 .        *       .                 .                |
-300.u  |                 .         *      .                 .                |
-280.u  |                 .         *      .                 .                |
-260.u  |                 .          *     .                 .                |
-240.u  |                 .           *    .                 .                |
-220.u  |                 .           *    .                 .                |
-200.u  |                 .           *    .                 .                |
-180.u  |                 .            *   .                 .                |
-160.u  |                 .            *   .                 .                |
-140.u  |                 .             *  .                 .                |
-120.u  |                 .              * .                 .                |
-100.u  |                 .              * .                 .                |
-80.u   |                 .              * .                 .                |
-60.u   |                 .               *.                 .                |
-40.u   |                 .                *                 .                |
-20.u   |                 .                *                 .                |
 0.     |                 .                .*                .                |
 20.u   |                 .                .*                .                |
 40.u   |                 .                . *               .                |
 60.u   |                 .                . *               .                |
 80.u   |                 .                .  *              .                |
 100.u  |                 .                .  *              .                |
 120.u  |                 .                .   *             .                |
 140.u  |                 .                .   *             .                |
 160.u  |                 .                .    *            .                |
 180.u  |                 .                .     *           .                |
 200.u  |                 .                .     *           .                |
 220.u  |                 .                .      *          .                |
 240.u  |                 .                .      *          .                |
 260.u  |                 .                .       *         .                |
 280.u  |                 .                .       *         .                |
 300.u  |                 .                .        *        .                |
 320.u  |                 .                .        *        .                |
 340.u  |                 .                .         *       .                |
 360.u  |                 .                .          *      .                |
 380.u  |                 .                .          *      .                |
 400.u  |                 .                .           *     .                |
 420.u  |                 .                .           *     .                |
 440.u  |                 .                .            *    .                |
 460.u  |                 .                .            *    .                |
 480.u  |                 .                .             *   .                |
 500.u  |                 .                .              *  .                |
        +-----------------+----------------+-----------------+----------------+
#Time       v(vin)     v(6)      
 0.         0.         0.079311  
 31.25u     0.097545   0.45946   
 62.5u      0.19134    1.6898    
 93.75u     0.27779    2.4901    
 125.u      0.35355    2.4856    
 156.25u    0.41573    2.4951    
 187.5u     0.46194    2.4892    
 218.75u    0.49039    2.4895    
 250.u      0.5        2.4899    
 281.25u    0.49039    2.4938    
 312.5u     0.46194    2.49      
 343.75u    0.41573    2.4936    
 375.u      0.35355    2.49      
 406.25u    0.27779    2.4934    
 437.5u     0.19134    2.4899    
 468.75u    0.097545   2.4932    
 500.u     -7.3271f    2.4897    
 531.25u   -0.097545   2.4942    
 562.5u    -0.19134    2.4732    
 593.75u   -0.27779    2.2247    
 625.u     -0.35355    1.5055    
 656.25u   -0.41573    0.87484   
 687.5u    -0.46194    0.32201   
 718.75u   -0.49039   -0.16015   
 750.u     -0.5       -0.58045   
 781.25u   -0.49039   -0.94676   
 812.5u    -0.46194   -1.2656    
 843.75u   -0.41573   -1.5422    
 875.u     -0.35355   -1.7831    
 906.25u   -0.27779   -1.9921    
 937.5u    -0.19134   -2.1746    
 968.75u   -0.097545  -2.3349    
 0.001      7.4628f   -2.4311    
#Time       v(vin)     v(6)      
 0.001      7.4628f   -2.4311    
 0.0010312  0.097545  -2.4687    
 0.0010625  0.19134   -1.5089    
 0.0010937  0.27779    0.25326   
 0.001125   0.35355    2.2528    
 0.0011562  0.41573    2.4915    
 0.0011875  0.46194    2.4948    
 0.0012187  0.49039    2.4895    
 0.00125    0.5        2.4898    
 0.0012812  0.49039    2.4938    
 0.0013125  0.46194    2.4899    
 0.0013437  0.41573    2.4937    
 0.001375   0.35355    2.4899    
 0.0014062  0.27779    2.4935    
 0.0014375  0.19134    2.4898    
 0.0014688  0.097545   2.4933    
 0.0015    -6.7957f    2.4897    
 0.0015312 -0.097545   2.4943    
 0.0015625 -0.19134    2.4731    
 0.0015937 -0.27779    2.2264    
 0.001625  -0.35355    1.5099    
 0.0016562 -0.41573    0.87861   
 0.0016875 -0.46194    0.3253    
 0.0017187 -0.49039   -0.15729   
 0.00175   -0.5       -0.57796   
 0.0017812 -0.49039   -0.94462   
 0.0018125 -0.46194   -1.2637    
 0.0018437 -0.41573   -1.5406    
 0.001875  -0.35355   -1.7817    
 0.0019062 -0.27779   -1.9908    
 0.0019375 -0.19134   -2.1735    
 0.0019687 -0.097545  -2.334     
 0.002      6.9393f   -2.4309    
# v(vin)    --------- actual ---------  -------- relative --------
#freq       value        dB      phase  value        dB      phase
 0.         1.5422f   -296.24   90.000  3.0844f   -290.22   90.000
 1.K        0.5         -6.02   -0.000  1.           0.00   -0.000
 2.K        1.8938f   -294.45    1.024  3.7877f   -288.43    1.024
 3.K        2.7395f   -291.25   75.328  5.479f    -285.23   75.328
 4.K        678.4E-18 -303.37 -178.296  1.3568f   -297.35 -178.296
 5.K        995.7E-18 -300.04   48.630  1.9914f   -294.02   48.630
 6.K        1.9535f   -294.18   53.312  3.907f    -288.16   53.312
 7.K        2.7343f   -291.26   17.414  5.4687f   -285.24   17.414
 8.K        1.861f    -294.61  -25.035  3.722f    -288.58  -25.035
 9.K        2.6796f   -291.44  -88.405  5.3592f   -285.42  -88.405
 10.K       543.7E-18 -305.29  -94.779  1.0873f   -299.27  -94.779
# v(6)      --------- actual ---------  -------- relative --------
#freq       value        dB      phase  value        dB      phase
 0.         0.72312     -2.82   90.000  0.28489    -10.91  143.109
 1.K        2.5382       8.09  -53.109  1.           0.00   -0.000
 2.K        0.73932     -2.62  -40.851  0.29127    -10.71   12.258
 3.K        0.54824     -5.22 -108.130  0.21599    -13.31  -55.021
 4.K        0.32225     -9.84 -111.688  0.12696    -17.93  -58.579
 5.K        0.2488     -12.08 -168.155  0.098021   -20.17 -115.046
 6.K        0.1595     -15.94 -178.355  0.06284    -24.04 -125.246
 7.K        0.12412    -18.12  125.432  0.048902   -26.21  178.541
 8.K        0.075761   -22.41  113.154  0.029848   -30.50  166.263
 9.K        0.059768   -24.47   50.385  0.023547   -32.56  103.494
 10.K       0.029822   -30.51   35.665  0.011749   -38.60   88.774
Gnucap   System status
iterations: op=13, dc=291, tran=348, fourier=320, total=1114
transient timesteps: accepted=106, rejected=0, total=106
nodes: user=9, subckt=0, model=16, total=25
dctran density=47.5%, ac density=47.5%
