2 stage op-amp open loop  02/16/88 
#           iter(0)    v(1)       v(2)       v(3)       v(4)       v(5)      
+ v(6)       v(7)       v(8)       v(9)      
 27.        13.        0.         0.         1.5708     1.5709    -1.1669    
+ 0.079194  -1.6303    -2.5        2.5       
vdb(6) 0.                20.              40.               60.             80.
vp(6)-180.              -90.              0.                90.            180.
        +-----------------+----------------+-----------------+----------------+
 1.     |                 .                +                 *                |
 1.5849 |                 .               +.                 *                |
 2.5119 |                 .               +.                 *                |
 3.9811 |                 .              + .                 *                |
 6.3096 |                 .             +  .                 *                |
 10.    |                 .            +   .                *.                |
 15.849 |                 .          +     .                *.                |
 25.119 |                 .       +        .              *  .                |
 39.811 |                 .     +          .            *    .                |
 63.096 |                 .   +            .         *       .                |
 100.   |                 . +              .      *          .                |
 158.49 |                 .+               .   *             .                |
 251.19 |                 .+               *                 .                |
 398.11 |                 +             *  .                 .                |
 630.96 |                 +         *      .                 .                |
 1.K    |                +.      *         .                 .                |
 1.5849K|                +.  *             .                 .                |
 2.5119K|                +*                .                 .                |
 3.9811K|             * + .                .                 .                |
 6.3096K|          *   +  .                .                 .                |
 10.K   |      *      +   .                .                 .                |
 15.849K|  *        +     .                .                 .                |
 25.119K*        +        .                .                 .                |
 39.811K*     +           .                .                 .                |
 63.096K* +               .                .                 .                |
 100.K  *                 .                .                 .             +  |
 158.49K*                 .                .                 .         +      |
 251.19K*                 .                .                 .      +         |
 398.11K*                 .                .                 .   +            |
 630.96K*                 .                .                 . +              |
 1.Meg  *                 .                .                 .+               |
 1.5849M*                 .                .                 +                |
 2.5119M*                 .                .                +.                |
 3.9811M*                 .                .               + .                |
 6.3096M*                 .                .              +  .                |
 10.Meg *                 .                .            +    .                |
        +-----------------+----------------+-----------------+----------------+
v(6)  -4.               -2.               0.                2.               4.
        +-----------------+----------------+-----------------+----------------+
-500.u  |                 .     *          .                 .                |
-480.u  |                 .     *          .                 .                |
-460.u  |                 .     *          .                 .                |
-440.u  |                 .      *         .                 .                |
-420.u  |                 .      *         .                 .                |
-400.u  |                 .       *        .                 .                |
-380.u  |                 .       *        .                 .                |
-360.u  |                 .        *       .                 .                |
-340.u  |                 .        *       .                 .                |
-320.u  |                 .        *       .                 .                |
-300.u  |                 .         *      .                 .                |
-280.u  |                 .         *      .                 .                |
-260.u  |                 .          *     .                 .                |
-240.u  |                 .           *    .                 .                |
-220.u  |                 .           *    .                 .                |
-200.u  |                 .           *    .                 .                |
-180.u  |                 .            *   .                 .                |
-160.u  |                 .            *   .                 .                |
-140.u  |                 .             *  .                 .                |
-120.u  |                 .              * .                 .                |
-100.u  |                 .              * .                 .                |
-80.u   |                 .              * .                 .                |
-60.u   |                 .               *.                 .                |
-40.u   |                 .                *                 .                |
-20.u   |                 .                *                 .                |
 0.     |                 .                .*                .                |
 20.u   |                 .                .*                .                |
 40.u   |                 .                . *               .                |
 60.u   |                 .                . *               .                |
 80.u   |                 .                .  *              .                |
 100.u  |                 .                .  *              .                |
 120.u  |                 .                .   *             .                |
 140.u  |                 .                .   *             .                |
 160.u  |                 .                .    *            .                |
 180.u  |                 .                .     *           .                |
 200.u  |                 .                .     *           .                |
 220.u  |                 .                .      *          .                |
 240.u  |                 .                .      *          .                |
 260.u  |                 .                .       *         .                |
 280.u  |                 .                .       *         .                |
 300.u  |                 .                .        *        .                |
 320.u  |                 .                .        *        .                |
 340.u  |                 .                .         *       .                |
 360.u  |                 .                .          *      .                |
 380.u  |                 .                .          *      .                |
 400.u  |                 .                .           *     .                |
 420.u  |                 .                .           *     .                |
 440.u  |                 .                .            *    .                |
 460.u  |                 .                .            *    .                |
 480.u  |                 .                .             *   .                |
 500.u  |                 .                .              *  .                |
        +-----------------+----------------+-----------------+----------------+
#Time       v(vin)     v(6)      
 0.         0.         0.079194  
 31.25u     0.097545   0.45949   
 62.5u      0.19134    1.6937    
 93.75u     0.27779    2.4902    
 125.u      0.35355    2.4856    
 156.25u    0.41573    2.4951    
 187.5u     0.46194    2.4947    
 218.75u    0.49039    2.4944    
 250.u      0.5        2.4893    
 281.25u    0.49039    2.4943    
 312.5u     0.46194    2.4895    
 343.75u    0.41573    2.4942    
 375.u      0.35355    2.4895    
 406.25u    0.27779    2.4939    
 437.5u     0.19134    2.4894    
 468.75u    0.097545   2.4937    
 500.u     -8.1107f    2.4893    
 531.25u   -0.097545   2.4948    
 562.5u    -0.19134    2.4716    
 593.75u   -0.27779    2.2408    
 625.u     -0.35355    1.5192    
 656.25u   -0.41573    0.88639   
 687.5u    -0.46194    0.33209   
 718.75u   -0.49039   -0.15136   
 750.u     -0.5       -0.57279   
 781.25u   -0.49039   -0.9401    
 812.5u    -0.46194   -1.2598    
 843.75u   -0.41573   -1.5371    
 875.u     -0.35355   -1.7787    
 906.25u   -0.27779   -1.9882    
 937.5u    -0.19134   -2.1712    
 968.75u   -0.097545  -2.332     
 0.001      8.1936f   -2.4302    
#Time       v(vin)     v(6)      
 0.001      8.1936f   -2.4302    
 0.0010312  0.097545  -2.4688    
 0.0010625  0.19134   -1.5063    
 0.0010937  0.27779    0.25545   
 0.001125   0.35355    2.2544    
 0.0011562  0.41573    2.492     
 0.0011875  0.46194    2.495     
 0.0012187  0.49039    2.4894    
 0.00125    0.5        2.4897    
 0.0012812  0.49039    2.4939    
 0.0013125  0.46194    2.4898    
 0.0013437  0.41573    2.4938    
 0.001375   0.35355    2.4898    
 0.0014062  0.27779    2.4936    
 0.0014375  0.19134    2.4897    
 0.0014688  0.097545   2.4934    
 0.0015    -7.5834f    2.4896    
 0.0015312 -0.097545   2.4944    
 0.0015625 -0.19134    2.4728    
 0.0015937 -0.27779    2.2279    
 0.001625  -0.35355    1.5083    
 0.0016562 -0.41573    0.87728   
 0.0016875 -0.46194    0.32414   
 0.0017187 -0.49039   -0.1583    
 0.00175   -0.5       -0.57883   
 0.0017812 -0.49039   -0.94536   
 0.0018125 -0.46194   -1.2644    
 0.0018437 -0.41573   -1.5411    
 0.001875  -0.35355   -1.7822    
 0.0019062 -0.27779   -1.9912    
 0.0019375 -0.19134   -2.1738    
 0.0019687 -0.097545  -2.3342    
 0.002      7.7614f   -2.4309    
# v(vin)    --------- actual ---------  -------- relative --------
#freq       value        dB      phase  value        dB      phase
 0.         1.6475f   -295.66   90.000  3.2951f   -289.64   90.000
 1.K        0.5         -6.02   -0.000  1.           0.00   -0.000
 2.K        2.1153f   -293.49    0.939  4.2306f   -287.47    0.939
 3.K        2.9971f   -290.47   74.696  5.9941f   -284.45   74.696
 4.K        769.3E-18 -302.28 -178.143  1.5385f   -296.26 -178.143
 5.K        1.0817f   -299.32   48.146  2.1634f   -293.30   48.146
 6.K        2.1849f   -293.21   53.441  4.3697f   -287.19   53.441
 7.K        3.0093f   -290.43   16.422  6.0187f   -284.41   16.422
 8.K        2.0429f   -293.80  -25.771  4.0857f   -287.77  -25.771
 9.K        2.9942f   -290.47  -88.406  5.9884f   -284.45  -88.406
 10.K       549.7E-18 -305.20  -94.925  1.0994f   -299.18  -94.925
# v(6)      --------- actual ---------  -------- relative --------
#freq       value        dB      phase  value        dB      phase
 0.         0.72311     -2.82   90.000  0.28488    -10.91  143.092
 1.K        2.5383       8.09  -53.092  1.           0.00   -0.000
 2.K        0.73925     -2.62  -40.806  0.29124    -10.72   12.286
 3.K        0.54829     -5.22 -108.100  0.216      -13.31  -55.008
 4.K        0.32224     -9.84 -111.611  0.12695    -17.93  -58.519
 5.K        0.24886    -12.08 -168.136  0.098041   -20.17 -115.044
 6.K        0.15954    -15.94 -178.255  0.062853   -24.03 -125.163
 7.K        0.12418    -18.12  125.421  0.048922   -26.21  178.513
 8.K        0.07581    -22.41  113.335  0.029866   -30.50  166.427
 9.K        0.059768   -24.47   50.346  0.023546   -32.56  103.438
 10.K       0.029796   -30.52   36.161  0.011738   -38.61   89.253
Gnucap   System status
iterations: op=13, dc=291, tran=302, fourier=285, total=1032
transient timesteps: accepted=105, rejected=0, total=105
nodes: user=9, subckt=0, model=16, total=25
dctran density=47.5%, ac density=47.5%
