2 stage op-amp open loop  02/16/88 
#           iter(0)    v(1)       v(2)       v(3)       v(4)       v(5)      
+ v(6)       v(7)       v(8)       v(9)      
 27.        13.        0.         0.         1.5708     1.5709    -1.1669    
+ 0.079194  -1.6303    -2.5        2.5       
vdb(6) 0.                20.              40.               60.             80.
vp(6)-180.              -90.              0.                90.            180.
        +-----------------+----------------+-----------------+----------------+
 1.     |                 .                +                 *                |
 1.5849 |                 .               +.                 *                |
 2.5119 |                 .               +.                 *                |
 3.9811 |                 .              + .                 *                |
 6.3096 |                 .             +  .                 *                |
 10.    |                 .            +   .                *.                |
 15.849 |                 .          +     .                *.                |
 25.119 |                 .       +        .              *  .                |
 39.811 |                 .     +          .            *    .                |
 63.096 |                 .   +            .         *       .                |
 100.   |                 . +              .      *          .                |
 158.49 |                 .+               .   *             .                |
 251.19 |                 .+               *                 .                |
 398.11 |                 +             *  .                 .                |
 630.96 |                 +         *      .                 .                |
 1.K    |                +.      *         .                 .                |
 1.5849K|                +.  *             .                 .                |
 2.5119K|                +*                .                 .                |
 3.9811K|             * + .                .                 .                |
 6.3096K|          *   +  .                .                 .                |
 10.K   |      *      +   .                .                 .                |
 15.849K|  *        +     .                .                 .                |
 25.119K*        +        .                .                 .                |
 39.811K*     +           .                .                 .                |
 63.096K* +               .                .                 .                |
 100.K  *                 .                .                 .             +  |
 158.49K*                 .                .                 .         +      |
 251.19K*                 .                .                 .      +         |
 398.11K*                 .                .                 .   +            |
 630.96K*                 .                .                 . +              |
 1.Meg  *                 .                .                 .+               |
 1.5849M*                 .                .                 +                |
 2.5119M*                 .                .                +.                |
 3.9811M*                 .                .               + .                |
 6.3096M*                 .                .              +  .                |
 10.Meg *                 .                .            +    .                |
        +-----------------+----------------+-----------------+----------------+
v(6)  -4.               -2.               0.                2.               4.
        +-----------------+----------------+-----------------+----------------+
-500.u  |                 .     *          .                 .                |
-480.u  |                 .     *          .                 .                |
-460.u  |                 .     *          .                 .                |
-440.u  |                 .      *         .                 .                |
-420.u  |                 .      *         .                 .                |
-400.u  |                 .       *        .                 .                |
-380.u  |                 .       *        .                 .                |
-360.u  |                 .        *       .                 .                |
-340.u  |                 .        *       .                 .                |
-320.u  |                 .        *       .                 .                |
-300.u  |                 .         *      .                 .                |
-280.u  |                 .         *      .                 .                |
-260.u  |                 .          *     .                 .                |
-240.u  |                 .           *    .                 .                |
-220.u  |                 .           *    .                 .                |
-200.u  |                 .           *    .                 .                |
-180.u  |                 .            *   .                 .                |
-160.u  |                 .            *   .                 .                |
-140.u  |                 .             *  .                 .                |
-120.u  |                 .              * .                 .                |
-100.u  |                 .              * .                 .                |
-80.u   |                 .              * .                 .                |
-60.u   |                 .               *.                 .                |
-40.u   |                 .                *                 .                |
-20.u   |                 .                *                 .                |
 0.     |                 .                .*                .                |
 20.u   |                 .                .*                .                |
 40.u   |                 .                . *               .                |
 60.u   |                 .                . *               .                |
 80.u   |                 .                .  *              .                |
 100.u  |                 .                .  *              .                |
 120.u  |                 .                .   *             .                |
 140.u  |                 .                .   *             .                |
 160.u  |                 .                .    *            .                |
 180.u  |                 .                .     *           .                |
 200.u  |                 .                .     *           .                |
 220.u  |                 .                .      *          .                |
 240.u  |                 .                .      *          .                |
 260.u  |                 .                .       *         .                |
 280.u  |                 .                .       *         .                |
 300.u  |                 .                .        *        .                |
 320.u  |                 .                .        *        .                |
 340.u  |                 .                .         *       .                |
 360.u  |                 .                .          *      .                |
 380.u  |                 .                .          *      .                |
 400.u  |                 .                .           *     .                |
 420.u  |                 .                .           *     .                |
 440.u  |                 .                .            *    .                |
 460.u  |                 .                .            *    .                |
 480.u  |                 .                .             *   .                |
 500.u  |                 .                .              *  .                |
        +-----------------+----------------+-----------------+----------------+
#Time       v(vin)     v(6)      
 0.         0.         0.079311  
 31.25u     0.097545   0.45946   
 62.5u      0.19134    1.6898    
 93.75u     0.27779    2.4901    
 125.u      0.35355    2.4858    
 156.25u    0.41573    2.4947    
 187.5u     0.46194    2.4895    
 218.75u    0.49039    2.4898    
 250.u      0.5        2.4937    
 281.25u    0.49039    2.49      
 312.5u     0.46194    2.4937    
 343.75u    0.41573    2.4901    
 375.u      0.35355    2.4935    
 406.25u    0.27779    2.49      
 437.5u     0.19134    2.4933    
 468.75u    0.097545   2.4899    
 500.u      7.211f     2.4932    
 531.25u   -0.097545   2.49      
 562.5u    -0.19134    2.4852    
 593.75u   -0.27779    2.0983    
 625.u     -0.35355    1.396     
 656.25u   -0.41573    0.77736   
 687.5u    -0.46194    0.23686   
 718.75u   -0.49039   -0.23439   
 750.u     -0.5       -0.64512   
 781.25u   -0.49039   -1.003     
 812.5u    -0.46194   -1.3146    
 843.75u   -0.41573   -1.5847    
 875.u     -0.35355   -1.8201    
 906.25u   -0.27779   -2.024     
 937.5u    -0.19134   -2.2022    
 968.75u   -0.097545  -2.3586    
 0.001     -7.164f    -2.4384    
#Time       v(vin)     v(6)      
 0.001     -7.164f    -2.4384    
 0.0010312  0.097545  -2.4677    
 0.0010625  0.19134   -1.5279    
 0.0010937  0.27779    0.23583   
 0.001125   0.35355    2.2396    
 0.0011562  0.41573    2.4913    
 0.0011875  0.46194    2.4947    
 0.0012187  0.49039    2.4896    
 0.00125    0.5        2.4899    
 0.0012812  0.49039    2.4938    
 0.0013125  0.46194    2.49      
 0.0013437  0.41573    2.4936    
 0.001375   0.35355    2.49      
 0.0014062  0.27779    2.4934    
 0.0014375  0.19134    2.4899    
 0.0014688  0.097545   2.4932    
 0.0015     8.3352f    2.4898    
 0.0015312 -0.097545   2.4942    
 0.0015625 -0.19134    2.4733    
 0.0015937 -0.27779    2.2228    
 0.001625  -0.35355    1.5039    
 0.0016562 -0.41573    0.87345   
 0.0016875 -0.46194    0.32076   
 0.0017187 -0.49039   -0.16127   
 0.00175   -0.5       -0.58143   
 0.0017812 -0.49039   -0.94763   
 0.0018125 -0.46194   -1.2664    
 0.0018437 -0.41573   -1.5429    
 0.001875  -0.35355   -1.7837    
 0.0019062 -0.27779   -1.9926    
 0.0019375 -0.19134   -2.175     
 0.0019687 -0.097545  -2.3353    
 0.002     -8.1746f   -2.4313    
# v(vin)    --------- actual ---------  -------- relative --------
#freq       value        dB      phase  value        dB      phase
 0.         1.3295f   -297.53  -90.000  2.659f    -291.51  -90.000
 1.K        0.5         -6.02   -0.000  1.           0.00   -0.000
 2.K        1.8995f   -294.43  166.859  3.799f    -288.41  166.859
 3.K        2.1061f   -293.53 -108.041  4.2123f   -287.51 -108.041
 4.K        1.2043f   -298.39    3.710  2.4086f   -292.36    3.710
 5.K        691.3E-18 -303.21 -139.748  1.3827f   -297.19 -139.748
 6.K        2.3617f   -292.54 -117.025  4.7235f   -286.51 -117.025
 7.K        3.0659f   -290.27 -166.705  6.1318f   -284.25 -166.705
 8.K        2.2328f   -293.02  152.053  4.4655f   -287.00  152.053
 9.K        3.3902f   -289.40   88.681  6.7804f   -283.37   88.681
 10.K       580.E-18  -304.73   64.242  1.16f     -298.71   64.242
# v(6)      --------- actual ---------  -------- relative --------
#freq       value        dB      phase  value        dB      phase
 0.         0.72008     -2.85   90.000  0.28342    -10.95  143.139
 1.K        2.5407       8.10  -53.139  1.           0.00   -0.000
 2.K        0.73742     -2.65  -41.060  0.29025    -10.74   12.079
 3.K        0.54968     -5.20 -108.364  0.21635    -13.30  -55.225
 4.K        0.32126     -9.86 -112.052  0.12645    -17.96  -58.913
 5.K        0.24942    -12.06 -168.556  0.098173   -20.16 -115.417
 6.K        0.15863    -15.99 -178.837  0.062436   -24.09 -125.698
 7.K        0.12432    -18.11  124.840  0.048933   -26.21  177.979
 8.K        0.075047   -22.49  112.391  0.029538   -30.59  165.530
 9.K        0.060134   -24.42   49.496  0.023669   -32.52  102.635
 10.K       0.029756   -30.53   34.145  0.011712   -38.63   87.284
Gnucap   System status
iterations: op=13, dc=291, tran=352, fourier=320, total=1117
transient timesteps: accepted=105, rejected=0, total=105
nodes: user=9, subckt=0, model=16, total=25
dctran density=47.5%, ac density=47.5%
