2 stage op-amp open loop  02/16/88 
#           iter(0)    v(1)       v(2)       v(3)       v(4)       v(5)      
+ v(6)       v(7)       v(8)       v(9)      
 27.        13.        0.         0.         1.5708     1.5709    -1.1669    
+ 0.079194  -1.6303    -2.5        2.5       
vdb(6) 0.                20.              40.               60.             80.
vp(6)-180.              -90.              0.                90.            180.
        +-----------------+----------------+-----------------+----------------+
 1.     |                 .                +                 *                |
 1.5849 |                 .               +.                 *                |
 2.5119 |                 .               +.                 *                |
 3.9811 |                 .              + .                 *                |
 6.3096 |                 .             +  .                 *                |
 10.    |                 .            +   .                *.                |
 15.849 |                 .          +     .                *.                |
 25.119 |                 .       +        .              *  .                |
 39.811 |                 .     +          .            *    .                |
 63.096 |                 .   +            .         *       .                |
 100.   |                 . +              .      *          .                |
 158.49 |                 .+               .   *             .                |
 251.19 |                 .+               *                 .                |
 398.11 |                 +             *  .                 .                |
 630.96 |                 +         *      .                 .                |
 1.K    |                +.      *         .                 .                |
 1.5849K|                +.  *             .                 .                |
 2.5119K|                +*                .                 .                |
 3.9811K|             * + .                .                 .                |
 6.3096K|          *   +  .                .                 .                |
 10.K   |      *      +   .                .                 .                |
 15.849K|  *        +     .                .                 .                |
 25.119K*        +        .                .                 .                |
 39.811K*     +           .                .                 .                |
 63.096K* +               .                .                 .                |
 100.K  *                 .                .                 .             +  |
 158.49K*                 .                .                 .         +      |
 251.19K*                 .                .                 .      +         |
 398.11K*                 .                .                 .   +            |
 630.96K*                 .                .                 . +              |
 1.Meg  *                 .                .                 .+               |
 1.5849M*                 .                .                 +                |
 2.5119M*                 .                .                +.                |
 3.9811M*                 .                .               + .                |
 6.3096M*                 .                .              +  .                |
 10.Meg *                 .                .            +    .                |
        +-----------------+----------------+-----------------+----------------+
v(6)  -4.               -2.               0.                2.               4.
        +-----------------+----------------+-----------------+----------------+
-500.u  |                 .     *          .                 .                |
-480.u  |                 .     *          .                 .                |
-460.u  |                 .     *          .                 .                |
-440.u  |                 .      *         .                 .                |
-420.u  |                 .      *         .                 .                |
-400.u  |                 .       *        .                 .                |
-380.u  |                 .       *        .                 .                |
-360.u  |                 .        *       .                 .                |
-340.u  |                 .        *       .                 .                |
-320.u  |                 .        *       .                 .                |
-300.u  |                 .         *      .                 .                |
-280.u  |                 .         *      .                 .                |
-260.u  |                 .          *     .                 .                |
-240.u  |                 .           *    .                 .                |
-220.u  |                 .           *    .                 .                |
-200.u  |                 .           *    .                 .                |
-180.u  |                 .            *   .                 .                |
-160.u  |                 .            *   .                 .                |
-140.u  |                 .             *  .                 .                |
-120.u  |                 .              * .                 .                |
-100.u  |                 .              * .                 .                |
-80.u   |                 .              * .                 .                |
-60.u   |                 .               *.                 .                |
-40.u   |                 .                *                 .                |
-20.u   |                 .                *                 .                |
 0.     |                 .                .*                .                |
 20.u   |                 .                .*                .                |
 40.u   |                 .                . *               .                |
 60.u   |                 .                . *               .                |
 80.u   |                 .                .  *              .                |
 100.u  |                 .                .  *              .                |
 120.u  |                 .                .   *             .                |
 140.u  |                 .                .   *             .                |
 160.u  |                 .                .    *            .                |
 180.u  |                 .                .     *           .                |
 200.u  |                 .                .     *           .                |
 220.u  |                 .                .      *          .                |
 240.u  |                 .                .      *          .                |
 260.u  |                 .                .       *         .                |
 280.u  |                 .                .       *         .                |
 300.u  |                 .                .        *        .                |
 320.u  |                 .                .        *        .                |
 340.u  |                 .                .         *       .                |
 360.u  |                 .                .          *      .                |
 380.u  |                 .                .          *      .                |
 400.u  |                 .                .           *     .                |
 420.u  |                 .                .           *     .                |
 440.u  |                 .                .            *    .                |
 460.u  |                 .                .            *    .                |
 480.u  |                 .                .             *   .                |
 500.u  |                 .                .              *  .                |
        +-----------------+----------------+-----------------+----------------+
#Time       v(vin)     v(6)      
 0.         0.         0.079194  
 31.25u     0.097545   0.45949   
 62.5u      0.19134    1.6933    
 93.75u     0.27779    2.4902    
 125.u      0.35355    2.4858    
 156.25u    0.41573    2.4947    
 187.5u     0.46194    2.4895    
 218.75u    0.49039    2.4898    
 250.u      0.5        2.4937    
 281.25u    0.49039    2.49      
 312.5u     0.46194    2.4937    
 343.75u    0.41573    2.4901    
 375.u      0.35355    2.4935    
 406.25u    0.27779    2.49      
 437.5u     0.19134    2.4933    
 468.75u    0.097545   2.4898    
 500.u      8.2025f    2.4932    
 531.25u   -0.097545   2.49      
 562.5u    -0.19134    2.4852    
 593.75u   -0.27779    2.0973    
 625.u     -0.35355    1.3961    
 656.25u   -0.41573    0.77785   
 687.5u    -0.46194    0.2373    
 718.75u   -0.49039   -0.23401   
 750.u     -0.5       -0.64477   
 781.25u   -0.49039   -1.0027    
 812.5u    -0.46194   -1.3143    
 843.75u   -0.41573   -1.5844    
 875.u     -0.35355   -1.8198    
 906.25u   -0.27779   -2.0238    
 937.5u    -0.19134   -2.202     
 968.75u   -0.097545  -2.3584    
 0.001     -8.1705f   -2.4384    
#Time       v(vin)     v(6)      
 0.001     -8.1705f   -2.4384    
 0.0010312  0.097545  -2.4677    
 0.0010625  0.19134   -1.5275    
 0.0010937  0.27779    0.23335   
 0.001125   0.35355    2.2377    
 0.0011562  0.41573    2.4916    
 0.0011875  0.46194    2.4948    
 0.0012187  0.49039    2.4895    
 0.00125    0.5        2.4898    
 0.0012812  0.49039    2.4939    
 0.0013125  0.46194    2.4899    
 0.0013437  0.41573    2.4937    
 0.001375   0.35355    2.4899    
 0.0014062  0.27779    2.4935    
 0.0014375  0.19134    2.4898    
 0.0014688  0.097545   2.4933    
 0.0015     9.4456f    2.4897    
 0.0015312 -0.097545   2.4943    
 0.0015625 -0.19134    2.473     
 0.0015937 -0.27779    2.224     
 0.001625  -0.35355    1.505     
 0.0016562 -0.41573    0.8744    
 0.0016875 -0.46194    0.32159   
 0.0017187 -0.49039   -0.16054   
 0.00175   -0.5       -0.58079   
 0.0017812 -0.49039   -0.94708   
 0.0018125 -0.46194   -1.2659    
 0.0018437 -0.41573   -1.5424    
 0.001875  -0.35355   -1.7833    
 0.0019062 -0.27779   -1.9922    
 0.0019375 -0.19134   -2.1746    
 0.0019687 -0.097545  -2.335     
 0.002     -9.2982f   -2.4312    
# v(vin)    --------- actual ---------  -------- relative --------
#freq       value        dB      phase  value        dB      phase
 0.         1.4919f   -296.53  -90.000  2.9838f   -290.50  -90.000
 1.K        0.5         -6.02   -0.000  1.           0.00   -0.000
 2.K        2.1911f   -293.19  167.552  4.3821f   -287.17  167.552
 3.K        2.4471f   -292.23 -107.321  4.8942f   -286.21 -107.321
 4.K        1.373f    -297.25    3.755  2.746f    -291.23    3.755
 5.K        816.2E-18 -301.76 -136.271  1.6325f   -295.74 -136.271
 6.K        2.7111f   -291.34 -117.425  5.4223f   -285.32 -117.425
 7.K        3.4955f   -289.13 -167.076  6.9911f   -283.11 -167.076
 8.K        2.533f    -291.93  151.980  5.0659f   -285.91  151.980
 9.K        3.8161f   -288.37   89.036  7.6322f   -282.35   89.036
 10.K       632.7E-18 -303.98   65.807  1.2654f   -297.96   65.807
# v(6)      --------- actual ---------  -------- relative --------
#freq       value        dB      phase  value        dB      phase
 0.         0.72023     -2.85   90.000  0.2835     -10.95  143.152
 1.K        2.5405       8.10  -53.152  1.           0.00   -0.000
 2.K        0.73746     -2.65  -41.077  0.29028    -10.74   12.075
 3.K        0.54954     -5.20 -108.397  0.21631    -13.30  -55.245
 4.K        0.32123     -9.86 -112.086  0.12644    -17.96  -58.935
 5.K        0.24927    -12.07 -168.613  0.098116   -20.17 -115.462
 6.K        0.15853    -16.00 -178.888  0.062401   -24.10 -125.736
 7.K        0.12412    -18.12  124.737  0.048855   -26.22  177.888
 8.K        0.074889   -22.51  112.326  0.029478   -30.61  165.478
 9.K        0.059925   -24.45   49.288  0.023588   -32.55  102.440
 10.K       0.029611   -30.57   34.033  0.011655   -38.67   87.185
Gnucap   System status
iterations: op=13, dc=291, tran=312, fourier=288, total=1046
transient timesteps: accepted=106, rejected=0, total=106
nodes: user=9, subckt=0, model=16, total=25
dctran density=47.5%, ac density=47.5%
