*oscillator, .159 Hz. 
#Time       v(1)       v(2)       iter(0)   
 0.         0.         0.         0.        
 0.001      5.        -0.005      4.        
 84.u       5.        -420.u      4.        
 7.056u     5.        -35.28u     4.        
 592.7n     5.        -2.9635u    4.        
 49.8n      5.        -249.n      4.        
 4.2n       5.        -21.n       4.        
 400.p      5.        -2.n        4.        
 200.p      5.        -1.n        4.        
 300.p      5.        -1.5n       2.        
 0.1        4.9751    -0.49875    4.        
 0.2        4.9005    -0.99253    4.        
 0.3        4.7771    -1.4764     4.        
 0.4        4.606     -1.9456     4.        
 0.5        4.3889    -2.3953     4.        
 0.6        4.1281    -2.8212     4.        
 0.7        3.8261    -3.2189     4.        
 0.8        3.4859    -3.5845     4.        
 0.9        3.111     -3.9143     4.        
 1.         2.705     -4.2051     4.        
 1.1        2.2721    -4.454      4.        
 1.2        1.8164    -4.6584     4.        
 1.3        1.3427    -4.8163     4.        
 1.4        0.85558   -4.9263     4.        
 1.5        0.35991   -4.987      4.        
 1.6       -0.13934   -4.9981     4.        
 1.7       -0.63721   -4.9592     4.        
 1.8       -1.1287    -4.8709     4.        
 1.9       -1.609     -4.7341     4.        
 2.        -2.0732    -4.5499     4.        
 2.1       -2.5167    -4.3205     4.        
 2.2       -2.9351    -4.0479     4.        
 2.3       -3.3242    -3.7349     4.        
 2.4       -3.6802    -3.3847     4.        
 2.5       -3.9995    -3.0007     4.        
 2.6       -4.2789    -2.5868     4.        
 2.7       -4.5156    -2.1471     4.        
 2.8       -4.7072    -1.6859     4.        
 2.9       -4.8519    -1.208      4.        
 3.        -4.9482    -0.71796    4.        
 3.1       -4.9951    -0.22079    4.        
 3.2       -4.9922     0.27858    2.        
 3.3       -4.9396     0.77517    4.        
 3.4       -4.8376     1.264      4.        
 3.5       -4.6874     1.7403     4.        
 3.6       -4.4904     2.1992     4.        
 3.7       -4.2486     2.6361     4.        
 3.8       -3.9645     3.0468     4.        
 3.9       -3.6408     3.427      4.        
 4.        -3.2808     3.7731     4.        
 4.1       -2.8881     4.0816     4.        
 4.2       -2.4665     4.3493     4.        
 4.3       -2.0204     4.5736     4.        
 4.4       -1.5541     4.7524     4.        
 4.5       -1.0723     4.8837     4.        
 4.6       -0.57978    4.9663     4.        
 4.7       -0.081497   4.9993     4.        
 4.8        0.4176     4.9825     4.        
 4.9        0.91253    4.916      4.        
 5.         1.3984     4.8005     4.        
 5.1        1.8702     4.6371     4.        
 5.2        2.3235     4.4274     4.        
 5.3        2.7535     4.1735     4.        
 5.4        3.1561     3.8781     4.        
 5.5        3.5272     3.5439     4.        
 5.6        3.8631     3.1744     4.        
 5.7        4.1605     2.7732     4.        
 5.8        4.4163     2.3444     4.        
 5.9        4.6282     1.8921     4.        
 6.         4.7938     1.421      4.        
 6.1        4.9117     0.93576    4.        
 6.2        4.9805     0.44115    4.        
 6.3        4.9997    -0.057862   4.        
 6.4        4.969     -0.55629    4.        
 6.5        4.8887    -1.0492     4.        
 6.6        4.7597    -1.5316     4.        
 6.7        4.5831    -1.9987     4.        
 6.8        4.3609    -2.4459     4.        
 6.9        4.0952    -2.8687     4.        
 7.         3.7886    -3.2629     4.        
 7.1        3.4442    -3.6246     4.        
 7.2        3.0655    -3.9501     4.        
 7.3        2.6562    -4.2361     4.        
 7.4        2.2204    -4.48       4.        
 7.5        1.7624    -4.6791     4.        
 7.6        1.2869    -4.8316     4.        
 7.7        0.79851   -4.9358     4.        
 7.8        0.30218   -4.9909     4.        
 7.9       -0.19717   -4.9961     4.        
 8.        -0.69456   -4.9515     4.        
 8.1       -1.185     -4.8576     4.        
 8.2       -1.6636    -4.7151     4.        
 8.3       -2.1257    -4.5257     4.        
 8.4       -2.5665    -4.2911     4.        
 8.5       -2.9818    -4.0136     4.        
 8.6       -3.3672    -3.6962     4.        
 8.7       -3.7192    -3.3419     4.        
 8.8       -4.034     -2.9542     4.        
 8.9       -4.3085    -2.5371     4.        
 9.        -4.5401    -2.0947     4.        
 9.1       -4.7264    -1.6313     4.        
 9.2       -4.8656    -1.1517     4.        
 9.3       -4.9562    -0.66065    4.        
 9.4       -4.9974    -0.16297    4.        
 9.5       -4.9887     0.33633    4.        
 9.6       -4.9303     0.83228    4.        
 9.7       -4.8227     1.3199     4.        
 9.8       -4.6669     1.7944     4.        
 9.9       -4.4647     2.251      4.        
 10.       -4.2179     2.6851     4.        
 10.1      -3.929      3.0925     4.        
 10.2      -3.6009     3.469      4.        
 10.3      -3.2369     3.8108     4.        
 10.4      -2.8406     4.1147     4.        
 10.5      -2.416      4.3776     4.        
 10.6      -1.9673     4.5967     4.        
 10.7      -1.499      4.77       4.        
 10.8      -1.0157     4.8958     4.        
 10.9      -0.52227    4.9727     4.        
 11.       -0.023638   5.         4.        
 11.1       0.47523    4.9774     4.        
 11.2       0.96936    4.9052     4.        
 11.3       1.4538     4.784      4.        
 11.4       1.9238     4.6151     4.        
 11.5       2.3745     4.4002     4.        
 11.6       2.8016     4.1414     4.        
 11.7       3.2008     3.8413     4.        
 11.8       3.568      3.5028     4.        
 11.9       3.8996     3.1295     4.        
 12.        4.1923     2.7249     4.        
 12.1       4.4432     2.2931     4.        
 12.2       4.6498     1.8385     4.        
 12.3       4.81       1.3655     4.        
 12.4       4.9222     0.87886    4.        
 12.5       4.9853     0.38348    4.        
 12.6       4.9987    -0.11572    4.        
 12.7       4.9622    -0.61376    4.        
 12.8       4.8762    -1.1057     4.        
 12.9       4.7416    -1.5866     4.        
 13.        4.5597    -2.0516     4.        
 13.1       4.3323    -2.4962     4.        
 13.2       4.0617    -2.9159     4.        
 13.3       3.7506    -3.3066     4.        
 13.4       3.4021    -3.6642     4.        
 13.5       3.0196    -3.9853     4.        
 13.6       2.607     -4.2666     4.        
 13.7       2.1684    -4.5054     4.        
 13.8       1.7082    -4.6992     4.        
 13.9       1.2309    -4.8462     4.        
 14.        0.74134   -4.9448     4.        
 14.1       0.2444    -4.9941     4.        
 14.2      -0.25498   -4.9935     4.        
 14.3      -0.75181   -4.9432     4.        
 14.4      -1.2411    -4.8435     4.        
 14.5      -1.7181    -4.6956     4.        
 14.6      -2.1779    -4.5008     4.        
 14.7      -2.616     -4.2611     4.        
 14.8      -3.028     -3.9789     4.        
 14.9      -3.4098    -3.657      4.        
 15.       -3.7576    -3.2986     4.        
 15.1      -4.0679    -2.9073     4.        
 15.2      -4.3376    -2.4871     4.        
 15.3      -4.5641    -2.042      4.        
 15.4      -4.745     -1.5765     4.        
 15.5      -4.8786    -1.0954     4.        
 15.6      -4.9635    -0.60325    4.        
 15.7      -4.9989    -0.10513    4.        
 15.8      -4.9845     0.39404    4.        
 15.9      -4.9203     0.88928    4.        
 16.       -4.8071     1.3757     4.        
 16.1      -4.6459     1.8483     4.        
 16.2      -4.4383     2.3025     4.        
 16.3      -4.1865     2.7338     4.        
 16.4      -3.8929     3.1377     4.        
 16.5      -3.5605     3.5104     4.        
 16.6      -3.1926     3.8481     4.        
 16.7      -2.7928     4.1473     4.        
 16.8      -2.3652     4.4052     4.        
 16.9      -1.914      4.6192     4.        
 17.       -1.4437     4.7871     4.        
 17.1      -0.95897    4.9072     4.        
 17.2      -0.46469    4.9784     4.        
 17.3       0.034225   4.9999     4.        
 17.4       0.5328     4.9716     4.        
 17.5       1.0261     4.8936     4.        
 17.6       1.5091     4.7669     4.        
 17.7       1.9771     4.5926     4.        
 17.8       2.4253     4.3724     4.        
 17.9       2.8494     4.1087     4.        
 18.        3.245      3.804      4.        
 18.1       3.6083     3.4613     4.        
 18.2       3.9355     3.0841     4.        
 18.3       4.2236     2.6762     4.        
 18.4       4.4694     2.2415     4.        
 18.5       4.6707     1.7845     4.        
 18.6       4.8255     1.3097     4.        
 18.7       4.932      0.82184    4.        
 18.8       4.9894     0.32577    4.        
 18.9       4.997     -0.17355    4.        
 19.        4.9548    -0.67115    4.        
 19.1       4.8631    -1.162      4.        
 19.2       4.723     -1.6413     4.        
 19.3       4.5357    -2.1043     4.        
 19.4       4.3032    -2.5462     4.        
 19.5       4.0277    -2.9628     4.        
 19.6       3.7121    -3.3498     4.        
 19.7       3.3594    -3.7033     4.        
 19.8       2.9733    -4.02       4.        
 19.9       2.5574    -4.2965     4.        
 20.        2.1161    -4.5302     4.        
 20.1       1.6537    -4.7187     4.        
 20.2       1.1747    -4.8601     4.        
 20.3       0.68407   -4.953      4.        
 20.4       0.18659   -4.9966     4.        
 20.5      -0.31275   -4.9903     4.        
 20.6      -0.80897   -4.9342     4.        
 20.7      -1.2971    -4.8289     4.        
 20.8      -1.7723    -4.6754     4.        
 20.9      -2.2299    -4.4753     4.        
 21.       -2.6652    -4.2305     4.        
 21.1      -3.0739    -3.9436     4.        
 21.2      -3.4519    -3.6173     4.        
 21.3      -3.7955    -3.2549     4.        
 21.4      -4.1013    -2.8601     4.        
 21.5      -4.3661    -2.4367     4.        
 21.6      -4.5874    -1.989      4.        
 21.7      -4.7629    -1.5215     4.        
 21.8      -4.8909    -1.0388     4.        
 21.9      -4.9702    -0.54577    4.        
 22.       -4.9998    -0.047272   4.        
 22.1      -4.9796     0.4517     4.        
 22.2      -4.9097     0.94616    4.        
 22.3      -4.7908     1.4312     4.        
 22.4      -4.6242     1.9019     4.        
 22.5      -4.4114     2.3537     4.        
 22.6      -4.1546     2.782      4.        
 22.7      -3.8564     3.1826     4.        
 22.8      -3.5197     3.5514     4.        
 22.9      -3.1479     3.8848     4.        
 23.       -2.7447     4.1794     4.        
 23.1      -2.3141     4.4323     4.        
 23.2      -1.8604     4.641      4.        
 23.3      -1.3882     4.8035     4.        
 23.4      -0.90212    4.918      4.        
 23.5      -0.40705    4.9835     4.        
 23.6       0.092083   4.9992     4.        
 23.7       0.5903     4.9651     4.        
 23.8       1.0826     4.8814     4.        
 23.9       1.5641     4.7491     4.        
 24.        2.0301     4.5694     4.        
 24.1       2.4757     4.3441     4.        
 24.2       2.8967     4.0755     4.        
 24.3       3.2888     3.7662     4.        
 24.4       3.6481     3.4193     4.        
 24.5       3.971      3.0384     4.        
 24.6       4.2543     2.6271     4.        
 24.7       4.4951     2.1897     4.        
 24.8       4.6911     1.7304     4.        
 24.9       4.8403     1.2538     4.        
 25.        4.9412     0.76471    4.        
 25.1       4.9929     0.26801    4.        
 25.2       4.9947    -0.23137    2.        
 25.3       4.9467    -0.72844    4.        
 25.4       4.8494    -1.2182     4.        
 25.5       4.7037    -1.6959     4.        
 25.6       4.511     -2.1566     4.        
 25.7       4.2734    -2.5959     4.        
 25.8       3.9932    -3.0092     4.        
 25.9       3.6731    -3.3925     4.        
 26.        3.3164    -3.742      4.        
 26.1       2.9266    -4.0541     4.        
 26.2       2.5076    -4.3258     4.        
 26.3       2.0635    -4.5544     4.        
 26.4       1.599     -4.7375     4.        
 26.5       1.1184    -4.8734     4.        
 26.6       0.62671   -4.9606     4.        
 26.7       0.12876   -4.9984     4.        
 26.8      -0.37048   -4.9863     4.        
 26.9      -0.86602   -4.9245     4.        
 27.       -1.3529    -4.8135     4.        
 27.1      -1.8263    -4.6546     4.        
 27.2      -2.2815    -4.4492     4.        
 27.3      -2.7139    -4.1994     4.        
 27.4      -3.1193    -3.9078     4.        
 27.5      -3.4935    -3.5771     4.        
 27.6      -3.8329    -3.2108     4.        
 27.7      -4.1341    -2.8124     4.        
 27.8      -4.394     -2.386      4.        
 27.9      -4.6101    -1.9358     4.        
 28.       -4.7802    -1.4663     4.        
 28.1      -4.9026    -0.98216    4.        
 28.2      -4.9762    -0.48822    4.        
 28.3      -5.         0.010591   4.        
 28.4      -4.9741     0.5093     4.        
 28.5      -4.8984     1.0029     4.        
 28.6      -4.774      1.4865     4.        
 28.7      -4.6019     1.9553     4.        
 28.8      -4.3839     2.4046     4.        
 28.9      -4.1222     2.8299     4.        
 29.       -3.8193     3.227      4.        
 29.1      -3.4784     3.5919     4.        
 29.2      -3.1027     3.9209     4.        
 29.3      -2.6961     4.2109     4.        
 29.4      -2.2626     4.4588     4.        
 29.5      -1.8066     4.6623     4.        
 29.6      -1.3325     4.8192     4.        
 29.7      -0.84515    4.9281     4.        
 29.8      -0.34935    4.9878     4.        
 29.9       0.14993    4.9978     4.        
 30.        0.64772    4.9579     4.        
 30.1       1.139      4.8686     4.        
 30.2       1.619      4.7307     4.        
 30.3       2.0828     4.5456     4.        
 30.4       2.5259     4.3152     4.        
 30.5       2.9437     4.0417     4.        
 30.6       3.3322     3.7279     4.        
 30.7       3.6874     3.3769     4.        
 30.8       4.0059     2.9922     4.        
 30.9       4.2844     2.5777     4.        
 31.        4.5201     2.1375     4.        
 31.1       4.7108     1.676      4.        
 31.2       4.8545     1.1977     4.        
 31.3       4.9498     0.70748    4.        
 31.4       4.9956     0.21021    4.        
 31.5       4.9917    -0.28916    2.        
 31.6       4.938     -0.78564    4.        
 31.7       4.835     -1.2743     4.        
 31.8       4.6837    -1.7502     4.        
 31.9       4.4858    -2.2087     4.        
 32.        4.2431    -2.6451     4.        
 32.1       3.9581    -3.0552     4.        
 32.2       3.6336    -3.4348     4.        
 32.3       3.2728    -3.7801     4.        
 32.4       2.8794    -4.0877     4.        
 32.5       2.4573    -4.3546     4.        
 32.6       2.0107    -4.578      4.        
 32.7       1.544     -4.7557     4.        
 32.8       1.0619    -4.886      4.        
 32.9       0.56926   -4.9676     4.        
 33.        0.070909  -4.9996     4.        
 33.1      -0.42815   -4.9817     4.        
 33.2      -0.92295   -4.9141     4.        
 33.3      -1.4085    -4.7976     4.        
 33.4      -1.8801    -4.6331     4.        
 33.5      -2.3329    -4.4225     4.        
 33.6      -2.7624    -4.1677     4.        
 33.7      -3.1643    -3.8714     4.        
 33.8      -3.5347    -3.5365     4.        
 33.9      -3.8698    -3.1662     4.        
 34.       -4.1664    -2.7644     4.        
 34.1      -4.4214    -2.335      4.        
 34.2      -4.6322    -1.8823     4.        
 34.3      -4.7969    -1.4109     4.        
 34.4      -4.9137    -0.92536    4.        
 34.5      -4.9815    -0.4306     4.        
 34.6      -4.9996     0.068452   4.        
 34.7      -4.9678     0.56682    4.        
 34.8      -4.8865     1.0595     4.        
 34.9      -4.7565     1.5417     4.        
 35.       -4.579      2.0085     4.        
 35.1      -4.3558     2.4552     4.        
 35.2      -4.0891     2.8774     4.        
 35.3      -3.7817     3.271      4.        
 35.4      -3.4366     3.6319     4.        
 35.5      -3.0571     3.9566     4.        
 35.6      -2.6472     4.2418     4.        
 35.7      -2.2109     4.4847     4.        
 35.8      -1.7525     4.6829     4.        
 35.9      -1.2767     4.8343     4.        
 36.       -0.78807    4.9376     4.        
 36.1      -0.29161    4.9916     4.        
 36.2       0.20776    4.9958     4.        
 36.3       0.70505    4.9501     4.        
 36.4       1.1953     4.8551     4.        
 36.5       1.6736     4.7116     4.        
 36.6       2.1353     4.5212     4.        
 36.7       2.5756     4.2857     4.        
 36.8       2.9903     4.0074     4.        
 36.9       3.3751     3.6891     4.        
 37.        3.7263     3.334      4.        
 37.1       4.0403     2.9457     4.        
 37.2       4.3139     2.528      4.        
 37.3       4.5446     2.0851     4.        
 37.4       4.7299     1.6213     4.        
 37.5       4.868      1.1414     4.        
 37.6       4.9576     0.65016    4.        
 37.7       4.9978     0.15239    4.        
 37.8       4.988     -0.3469     4.        
 37.9       4.9285    -0.84273    4.        
 38.        4.8199    -1.3302     4.        
 38.1       4.6632    -1.8043     4.        
 38.2       4.4599    -2.2605     4.        
 38.3       4.2122    -2.6941     4.        
 38.4       3.9225    -3.1008     4.        
 38.5       3.5936    -3.4766     4.        
 38.6       3.2289    -3.8177     4.        
 38.7       2.832     -4.1208     4.        
 38.8       2.4068    -4.3827     4.        
 38.9       1.9576    -4.6009     4.        
 39.        1.4889    -4.7733     4.        
 39.1       1.0053    -4.898      4.        
 39.2       0.51174   -4.9738     4.        
 39.3       0.013048  -5.0001     4.        
 39.4      -0.48578   -4.9764     4.        
 39.5      -0.97976   -4.9032     4.        
 39.6      -1.464     -4.781      4.        
 39.7      -1.9336    -4.6111     4.        
 39.8      -2.3839    -4.3952     4.        
 39.9      -2.8104    -4.1355     4.        
 40.       -3.2089    -3.8345     4.        
 40.1      -3.5754    -3.4953     4.        
 40.2      -3.9062    -3.1212     4.        
 40.3      -4.1981    -2.716      4.        
 40.4      -4.4481    -2.2837     4.        
 40.5      -4.6537    -1.8286     4.        
 40.6      -4.8129    -1.3553     4.        
 40.7      -4.9241    -0.86844    4.        
 40.8      -4.9862    -0.37293    4.        
 40.9      -4.9985     0.1263     4.        
 41.       -4.961      0.62428    4.        
 41.1      -4.8739     1.116      4.        
 41.2      -4.7383     1.5966     4.        
 41.3      -4.5554     2.0613     4.        
 41.4      -4.3271     2.5054     4.        
 41.5      -4.0556     2.9246     4.        
 41.6      -3.7436     3.3145     4.        
 41.7      -3.3943     3.6714     4.        
 41.8      -3.0112     3.9917     4.        
 41.9      -2.598      4.2722     4.        
 42.       -2.1589     4.51       4.        
 42.1      -1.6982     4.7029     4.        
 42.2      -1.2206     4.8488     4.        
 42.3      -0.73088    4.9464     4.        
 42.4      -0.23383    4.9946     4.        
 42.5       0.26556    4.993      4.        
 42.6       0.76229    4.9416     4.        
 42.7       1.2514     4.841      4.        
 42.8       1.7281     4.692      4.        
 42.9       2.1875     4.4962     4.        
 43.        2.6251     4.2556     4.        
 43.1       3.0365     3.9725     4.        
 43.2       3.4176     3.6498     4.        
