*oscillator, .159 Hz. 
#Time       v(1)       v(2)       iter(0)   
 0.         0.         0.         0.        
 0.001      5.        -0.005      4.        
 0.002      5.        -0.01       2.        
 0.003      5.        -0.015      2.        
 0.004      5.        -0.02       2.        
 0.052      4.9932    -0.25984    4.        
 0.1        4.975     -0.49908    4.        
 0.2        4.9004    -0.99285    4.        
 0.3        4.777     -1.4767     4.        
 0.4        4.6058    -1.9459     4.        
 0.5        4.3888    -2.3956     4.        
 0.6        4.1279    -2.8214     4.        
 0.7        3.8259    -3.2191     4.        
 0.8        3.4857    -3.5847     4.        
 0.9        3.1107    -3.9145     4.        
 1.         2.7047    -4.2053     4.        
 1.1        2.2718    -4.4541     4.        
 1.2        1.8161    -4.6585     4.        
 1.3        1.3424    -4.8164     4.        
 1.4        0.85526   -4.9263     4.        
 1.5        0.35959   -4.9871     4.        
 1.6       -0.13967   -4.998      4.        
 1.7       -0.63753   -4.9592     4.        
 1.8       -1.129     -4.8709     4.        
 1.9       -1.6093    -4.7339     4.        
 2.        -2.0735    -4.5498     4.        
 2.1       -2.517     -4.3203     4.        
 2.2       -2.9354    -4.0477     4.        
 2.3       -3.3245    -3.7347     4.        
 2.4       -3.6804    -3.3844     4.        
 2.5       -3.9997    -3.0004     4.        
 2.6       -4.279     -2.5865     4.        
 2.7       -4.5157    -2.1468     4.        
 2.8       -4.7073    -1.6856     4.        
 2.9       -4.852     -1.2076     4.        
 3.        -4.9482    -0.71763    4.        
 3.1       -4.9951    -0.22047    4.        
 3.2       -4.9922     0.2789     2.        
 3.3       -4.9395     0.77549    4.        
 3.4       -4.8375     1.2643     4.        
 3.5       -4.6873     1.7406     4.        
 3.6       -4.4903     2.1995     4.        
 3.7       -4.2485     2.6364     4.        
 3.8       -3.9643     3.047      4.        
 3.9       -3.6406     3.4273     4.        
 4.        -3.2805     3.7733     4.        
 4.1       -2.8878     4.0817     4.        
 4.2       -2.4662     4.3494     4.        
 4.3       -2.0201     4.5738     4.        
 4.4       -1.5538     4.7525     4.        
 4.5       -1.072      4.8837     4.        
 4.6       -0.57945    4.9663     4.        
 4.7       -0.081171   4.9993     4.        
 4.8        0.41792    4.9825     4.        
 4.9        0.91284    4.916      4.        
 5.         1.3987     4.8004     4.        
 5.1        1.8705     4.6369     4.        
 5.2        2.3237     4.4272     4.        
 5.3        2.7538     4.1733     4.        
 5.4        3.1563     3.8778     4.        
 5.5        3.5274     3.5437     4.        
 5.6        3.8633     3.1741     4.        
 5.7        4.1606     2.7729     4.        
 5.8        4.4165     2.3441     4.        
 5.9        4.6283     1.8918     4.        
 6.         4.7939     1.4207     4.        
 6.1        4.9117     0.93544    4.        
 6.2        4.9805     0.44082    4.        
 6.3        4.9997    -0.058185   4.        
 6.4        4.9689    -0.55661    4.        
 6.5        4.8886    -1.0495     4.        
 6.6        4.7595    -1.5319     4.        
 6.7        4.583     -1.999      4.        
 6.8        4.3607    -2.4462     4.        
 6.9        4.095     -2.869      4.        
 7.         3.7884    -3.2632     4.        
 7.1        3.444     -3.6248     4.        
 7.2        3.0652    -3.9502     4.        
 7.3        2.6559    -4.2363     4.        
 7.4        2.2201    -4.4801     4.        
 7.5        1.7621    -4.6792     4.        
 7.6        1.2866    -4.8316     4.        
 7.7        0.79819   -4.9359     4.        
 7.8        0.30185   -4.9909     4.        
 7.9       -0.1975    -4.9961     4.        
 8.        -0.69488   -4.9515     4.        
 8.1       -1.1853    -4.8575     4.        
 8.2       -1.6639    -4.715      4.        
 8.3       -2.126     -4.5255     4.        
 8.4       -2.5668    -4.2909     4.        
 8.5       -2.982     -4.0134     4.        
 8.6       -3.3675    -3.696      4.        
 8.7       -3.7194    -3.3416     4.        
 8.8       -4.0341    -2.9539     4.        
 8.9       -4.3087    -2.5368     4.        
 9.        -4.5402    -2.0944     4.        
 9.1       -4.7265    -1.631      4.        
 9.2       -4.8656    -1.1514     4.        
 9.3       -4.9562    -0.66032    4.        
 9.4       -4.9974    -0.16265    4.        
 9.5       -4.9887     0.33665    4.        
 9.6       -4.9302     0.8326     4.        
 9.7       -4.8225     1.3202     4.        
 9.8       -4.6668     1.7947     4.        
 9.9       -4.4645     2.2513     4.        
 10.       -4.2177     2.6854     4.        
 10.1      -3.9288     3.0927     4.        
 10.2      -3.6007     3.4692     4.        
 10.3      -3.2367     3.811      4.        
 10.4      -2.8404     4.1149     4.        
 10.5      -2.4157     4.3777     4.        
 10.6      -1.967      4.5968     4.        
 10.7      -1.4987     4.7701     4.        
 10.8      -1.0154     4.8958     4.        
 10.9      -0.52194    4.9727     4.        
 11.       -0.023312   4.9999     4.        
 11.1       0.47555    4.9773     4.        
 11.2       0.96967    4.9051     4.        
 11.3       1.4541     4.7839     4.        
 11.4       1.9241     4.615      4.        
 11.5       2.3748     4.4        4.        
 11.6       2.8019     4.1412     4.        
 11.7       3.201      3.8411     4.        
 11.8       3.5682     3.5026     4.        
 11.9       3.8998     3.1292     4.        
 12.        4.1924     2.7246     4.        
 12.1       4.4433     2.2928     4.        
 12.2       4.6499     1.8381     4.        
 12.3       4.81       1.3651     4.        
 12.4       4.9222     0.87853    4.        
 12.5       4.9853     0.38316    4.        
 12.6       4.9987    -0.11604    4.        
 12.7       4.9621    -0.61408    4.        
 12.8       4.8761    -1.106      4.        
 12.9       4.7415    -1.5869     4.        
 13.        4.5596    -2.0519     4.        
 13.1       4.3321    -2.4965     4.        
 13.2       4.0615    -2.9162     4.        
 13.3       3.7504    -3.3068     4.        
 13.4       3.4018    -3.6644     4.        
 13.5       3.0193    -3.9854     4.        
 13.6       2.6067    -4.2667     4.        
 13.7       2.1681    -4.5055     4.        
 13.8       1.7078    -4.6993     4.        
 13.9       1.2306    -4.8462     4.        
 14.        0.74102   -4.9448     4.        
 14.1       0.24408   -4.994      4.        
 14.2      -0.2553    -4.9935     4.        
 14.3      -0.75213   -4.9431     4.        
 14.4      -1.2415    -4.8434     4.        
 14.5      -1.7184    -4.6954     4.        
 14.6      -2.1782    -4.5006     4.        
 14.7      -2.6163    -4.2609     4.        
 14.8      -3.0283    -3.9787     4.        
 14.9      -3.41      -3.6567     4.        
 15.       -3.7578    -3.2983     4.        
 15.1      -4.068     -2.9071     4.        
 15.2      -4.3377    -2.4868     4.        
 15.3      -4.5642    -2.0417     4.        
 15.4      -4.7451    -1.5762     4.        
 15.5      -4.8786    -1.095      4.        
 15.6      -4.9635    -0.60292    4.        
 15.7      -4.9989    -0.1048     4.        
 15.8      -4.9844     0.39436    4.        
 15.9      -4.9202     0.88959    4.        
 16.       -4.8069     1.376      4.        
 16.1      -4.6457     1.8486     4.        
 16.2      -4.4382     2.3028     4.        
 16.3      -4.1863     2.734      4.        
 16.4      -3.8927     3.138      4.        
 16.5      -3.5603     3.5106     4.        
 16.6      -3.1923     3.8482     4.        
 16.7      -2.7926     4.1475     4.        
 16.8      -2.3649     4.4054     4.        
 16.9      -1.9137     4.6193     4.        
 17.       -1.4434     4.7871     4.        
 17.1      -0.95864    4.9072     4.        
 17.2      -0.46436    4.9784     4.        
 17.3       0.03455    4.9999     4.        
 17.4       0.53312    4.9715     4.        
 17.5       1.0264     4.8935     4.        
 17.6       1.5094     4.7667     4.        
 17.7       1.9773     4.5924     4.        
 17.8       2.4256     4.3723     4.        
 17.9       2.8496     4.1085     4.        
 18.        3.2452     3.8038     4.        
 18.1       3.6085     3.4611     4.        
 18.2       3.9357     3.0839     4.        
 18.3       4.2237     2.6759     4.        
 18.4       4.4696     2.2412     4.        
 18.5       4.6708     1.7842     4.        
 18.6       4.8255     1.3094     4.        
 18.7       4.932      0.82151    4.        
 18.8       4.9894     0.32544    4.        
 18.9       4.997     -0.17388    4.        
 19.        4.9547    -0.67146    4.        
 19.1       4.863     -1.1623     4.        
 19.2       4.7228    -1.6416     4.        
 19.3       4.5355    -2.1046     4.        
 19.4       4.303     -2.5465     4.        
 19.5       4.0275    -2.963      4.        
 19.6       3.7118    -3.35       4.        
 19.7       3.3592    -3.7035     4.        
 19.8       2.973     -4.0201     4.        
 19.9       2.5571    -4.2966     4.        
 20.        2.1158    -4.5303     4.        
 20.1       1.6533    -4.7187     4.        
 20.2       1.1744    -4.8601     4.        
 20.3       0.68374   -4.953      4.        
 20.4       0.18627   -4.9965     4.        
 20.5      -0.31307   -4.9902     4.        
 20.6      -0.80928   -4.9341     4.        
 20.7      -1.2974    -4.8287     4.        
 20.8      -1.7726    -4.6752     4.        
 20.9      -2.2301    -4.4751     4.        
 21.       -2.6654    -4.2303     4.        
 21.1      -3.0741    -3.9433     4.        
 21.2      -3.4521    -3.617      4.        
 21.3      -3.7957    -3.2546     4.        
 21.4      -4.1014    -2.8598     4.        
 21.5      -4.3662    -2.4364     4.        
 21.6      -4.5875    -1.9887     4.        
 21.7      -4.763     -1.5212     4.        
 21.8      -4.891     -1.0385     4.        
 21.9      -4.9702    -0.54544    4.        
 22.       -4.9998    -0.046948   4.        
 22.1      -4.9795     0.45202    4.        
 22.2      -4.9096     0.94647    4.        
 22.3      -4.7907     1.4315     4.        
 22.4      -4.624      1.9022     4.        
 22.5      -4.4112     2.354      4.        
 22.6      -4.1544     2.7823     4.        
 22.7      -3.8561     3.1828     4.        
 22.8      -3.5194     3.5516     4.        
 22.9      -3.1476     3.8849     4.        
 23.       -2.7444     4.1795     4.        
 23.1      -2.3138     4.4324     4.        
 23.2      -1.8601     4.6411     4.        
 23.3      -1.3879     4.8035     4.        
 23.4      -0.90179    4.918      4.        
 23.5      -0.40672    4.9834     4.        
 23.6       0.092408   4.9991     4.        
 23.7       0.59061    4.965      4.        
 23.8       1.0829     4.8813     4.        
 23.9       1.5644     4.7489     4.        
 24.        2.0304     4.5692     4.        
 24.1       2.476      4.3439     4.        
 24.2       2.897      4.0752     4.        
 24.3       3.289      3.7659     4.        
 24.4       3.6483     3.4191     4.        
 24.5       3.9711     3.0381     4.        
 24.6       4.2544     2.6268     4.        
 24.7       4.4952     2.1894     4.        
 24.8       4.6912     1.73       4.        
 24.9       4.8403     1.2535     4.        
 25.        4.9412     0.76438    4.        
 25.1       4.9928     0.26768    4.        
 25.2       4.9946    -0.23169    2.        
 25.3       4.9466    -0.72875    4.        
 25.4       4.8492    -1.2185     4.        
 25.5       4.7035    -1.6962     4.        
 25.6       4.5108    -2.1569     4.        
 25.7       4.2732    -2.5961     4.        
 25.8       3.9929    -3.0094     4.        
 25.9       3.6728    -3.3927     4.        
 26.        3.3161    -3.7421     4.        
 26.1       2.9263    -4.0543     4.        
 26.2       2.5072    -4.3259     4.        
 26.3       2.0632    -4.5545     4.        
 26.4       1.5986    -4.7375     4.        
 26.5       1.1181    -4.8734     4.        
 26.6       0.62638   -4.9606     4.        
 26.7       0.12843   -4.9983     4.        
 26.8      -0.3708    -4.9862     4.        
 26.9      -0.86633   -4.9244     4.        
 27.       -1.3532    -4.8134     4.        
 27.1      -1.8266    -4.6544     4.        
 27.2      -2.2818    -4.449      4.        
 27.3      -2.7142    -4.1992     4.        
 27.4      -3.1195    -3.9075     4.        
 27.5      -3.4937    -3.5768     4.        
 27.6      -3.8331    -3.2105     4.        
 27.7      -4.1342    -2.8121     4.        
 27.8      -4.3941    -2.3857     4.        
 27.9      -4.6102    -1.9355     4.        
 28.       -4.7803    -1.466      4.        
 28.1      -4.9027    -0.98183    4.        
 28.2      -4.9761    -0.48789    4.        
 28.3      -5.         0.010914   4.        
 28.4      -4.974      0.50961    4.        
 28.5      -4.8983     1.0032     4.        
 28.6      -4.7738     1.4868     4.        
 28.7      -4.6017     1.9556     4.        
 28.8      -4.3837     2.4049     4.        
 28.9      -4.1219     2.8302     4.        
 29.       -3.819      3.2272     4.        
 29.1      -3.4781     3.5921     4.        
 29.2      -3.1024     3.9211     4.        
 29.3      -2.6958     4.211      4.        
 29.4      -2.2623     4.4589     4.        
 29.5      -1.8063     4.6623     4.        
 29.6      -1.3322     4.8193     4.        
 29.7      -0.84482    4.9281     4.        
 29.8      -0.34902    4.9878     4.        
 29.9       0.15025    4.9977     4.        
 30.        0.64803    4.9578     4.        
 30.1       1.1393     4.8685     4.        
 30.2       1.6193     4.7305     4.        
 30.3       2.0831     4.5454     4.        
 30.4       2.5261     4.3149     4.        
 30.5       2.9439     4.0414     4.        
 30.6       3.3324     3.7276     4.        
 30.7       3.6876     3.3766     4.        
 30.8       4.006      2.9919     4.        
 30.9       4.2845     2.5774     4.        
 31.        4.5202     2.1372     4.        
 31.1       4.7109     1.6756     4.        
 31.2       4.8545     1.1974     4.        
 31.3       4.9497     0.70715    4.        
 31.4       4.9956     0.20988    4.        
 31.5       4.9916    -0.28948    2.        
 31.6       4.9378    -0.78595    4.        
 31.7       4.8348    -1.2746     4.        
 31.8       4.6836    -1.7505     4.        
 31.9       4.4856    -2.209      4.        
 32.        4.2429    -2.6454     4.        
 32.1       3.9578    -3.0554     4.        
 32.2       3.6333    -3.435      4.        
 32.3       3.2725    -3.7803     4.        
 32.4       2.8791    -4.0878     4.        
 32.5       2.457     -4.3547     4.        
 32.6       2.0104    -4.578      4.        
 32.7       1.5437    -4.7557     4.        
 32.8       1.0616    -4.886      4.        
 32.9       0.56893   -4.9675     4.        
 33.        0.070582  -4.9995     4.        
 33.1      -0.42847   -4.9816     4.        
 33.2      -0.92325   -4.914      4.        
 33.3      -1.4088    -4.7974     4.        
 33.4      -1.8803    -4.633      4.        
 33.5      -2.3331    -4.4223     4.        
 33.6      -2.7626    -4.1675     4.        
 33.7      -3.1645    -3.8711     4.        
 33.8      -3.5349    -3.5362     4.        
 33.9      -3.87      -3.1659     4.        
 34.       -4.1665    -2.7641     4.        
 34.1      -4.4214    -2.3347     4.        
 34.2      -4.6323    -1.882      4.        
 34.3      -4.7969    -1.4106     4.        
 34.4      -4.9137    -0.92503    4.        
 34.5      -4.9814    -0.43027    4.        
 34.6      -4.9995     0.068775   4.        
 34.7      -4.9677     0.56714    4.        
 34.8      -4.8864     1.0598     4.        
 34.9      -4.7563     1.542      4.        
 35.       -4.5788     2.0087     4.        
 35.1      -4.3555     2.4554     4.        
 35.2      -4.0889     2.8777     4.        
 35.3      -3.7814     3.2712     4.        
 35.4      -3.4363     3.6321     4.        
 35.5      -3.0568     3.9567     4.        
 35.6      -2.6469     4.2419     4.        
 35.7      -2.2106     4.4848     4.        
 35.8      -1.7522     4.6829     4.        
 35.9      -1.2763     4.8344     4.        
 36.       -0.78773    4.9376     4.        
 36.1      -0.29128    4.9915     4.        
 36.2       0.20808    4.9957     4.        
 36.3       0.70536    4.95       4.        
 36.4       1.1956     4.8549     4.        
 36.5       1.6739     4.7115     4.        
 36.6       2.1356     4.521      4.        
 36.7       2.5759     4.2854     4.        
 36.8       2.9905     4.0071     4.        
 36.9       3.3753     3.6888     4.        
 37.        3.7264     3.3337     4.        
 37.1       4.0404     2.9454     4.        
 37.2       4.314      2.5277     4.        
 37.3       4.5447     2.0847     4.        
 37.4       4.7299     1.621      4.        
 37.5       4.868      1.1411     4.        
 37.6       4.9576     0.64982    4.        
 37.7       4.9977     0.15206    4.        
 37.8       4.9879    -0.34722    4.        
 37.9       4.9284    -0.84304    4.        
 38.        4.8197    -1.3304     4.        
 38.1       4.663     -1.8046     4.        
 38.2       4.4597    -2.2607     4.        
 38.3       4.212     -2.6943     4.        
 38.4       3.9222    -3.101      4.        
 38.5       3.5933    -3.4768     4.        
 38.6       3.2286    -3.8179     4.        
 38.7       2.8316    -4.1209     4.        
 38.8       2.4065    -4.3828     4.        
 38.9       1.9573    -4.601      4.        
 39.        1.4886    -4.7733     4.        
 39.1       1.005     -4.898      4.        
 39.2       0.51141   -4.9738     4.        
 39.3       0.012722  -5.         4.        
 39.4      -0.48609   -4.9763     4.        
 39.5      -0.98006   -4.903      4.        
 39.6      -1.4642    -4.7808     4.        
 39.7      -1.9338    -4.6109     4.        
 39.8      -2.3841    -4.395      4.        
 39.9      -2.8106    -4.1352     4.        
 40.       -3.2091    -3.8343     4.        
 40.1      -3.5756    -3.495      4.        
 40.2      -3.9064    -3.1209     4.        
 40.3      -4.1982    -2.7157     4.        
 40.4      -4.4482    -2.2834     4.        
 40.5      -4.6537    -1.8283     4.        
 40.6      -4.8129    -1.355      4.        
 40.7      -4.9241    -0.86811    4.        
 40.8      -4.9861    -0.3726     4.        
 40.9      -4.9984     0.12663    4.        
 41.       -4.9608     0.62459    4.        
 41.1      -4.8738     1.1163     4.        
 41.2      -4.7381     1.5969     4.        
 41.3      -4.5552     2.0616     4.        
 41.4      -4.3268     2.5057     4.        
 41.5      -4.0553     2.9248     4.        
 41.6      -3.7433     3.3147     4.        
 41.7      -3.394      3.6716     4.        
 41.8      -3.0109     3.9918     4.        
 41.9      -2.5976     4.2723     4.        
 42.       -2.1585     4.5101     4.        
 42.1      -1.6979     4.7029     4.        
 42.2      -1.2203     4.8488     4.        
 42.3      -0.73054    4.9463     4.        
 42.4      -0.2335     4.9945     4.        
 42.5       0.26588    4.9929     4.        
 42.6       0.7626     4.9415     4.        
 42.7       1.2517     4.8408     4.        
 42.8       1.7283     4.6918     4.        
 42.9       2.1877     4.496      4.        
 43.        2.6253     4.2553     4.        
 43.1       3.0367     3.9722     4.        
 43.2       3.4178     3.6495     4.        
 43.3       3.7648     3.2904     4.        
 43.4       4.0742     2.8984     4.        
 43.5       4.343      2.4776     4.        
 43.6       4.5685     2.032      4.        
