*oscillator, .159 Hz. 
#Time       v(1)       v(2)       iter(0)   
 0.         0.         0.         0.        
 0.001      5.        -0.005      4.        
 84.u       5.        -420.u      4.        
 7.056u     5.        -35.28u     4.        
 592.7n     5.        -2.9635u    4.        
 49.787n    5.        -248.94n    4.        
 4.1821n    5.        -20.911n    5.        
 351.3p     5.        -1.7565n    4.        
 200.p      5.        -1.n        4.        
 310.p      5.        -1.55n      2.        
 0.0027778  5.        -0.013889   2.        
 0.0047222  4.9999    -0.023611   2.        
 0.052361   4.9931    -0.26164    4.        
 0.1        4.975     -0.49908    4.        
 0.2        4.9004    -0.99285    4.        
 0.3        4.777     -1.4767     4.        
 0.4        4.6058    -1.9459     4.        
 0.5        4.3888    -2.3956     4.        
 0.6        4.1279    -2.8214     4.        
 0.7        3.8259    -3.2191     4.        
 0.8        3.4857    -3.5847     4.        
 0.9        3.1107    -3.9145     4.        
 1.         2.7047    -4.2053     4.        
 1.1        2.2718    -4.4541     4.        
 1.2        1.8161    -4.6585     4.        
 1.3        1.3424    -4.8164     4.        
 1.4        0.85526   -4.9263     4.        
 1.5        0.35959   -4.987      4.        
 1.6       -0.13967   -4.998      4.        
 1.7       -0.63753   -4.9592     4.        
 1.8       -1.129     -4.8709     4.        
 1.9       -1.6093    -4.7339     4.        
 2.        -2.0735    -4.5498     4.        
 2.1       -2.517     -4.3203     4.        
 2.2       -2.9354    -4.0477     4.        
 2.3       -3.3245    -3.7347     4.        
 2.4       -3.6804    -3.3844     4.        
 2.5       -3.9997    -3.0004     4.        
 2.6       -4.279     -2.5865     4.        
 2.7       -4.5157    -2.1468     4.        
 2.8       -4.7073    -1.6856     4.        
 2.9       -4.852     -1.2076     4.        
 3.        -4.9482    -0.71763    4.        
 3.1       -4.9951    -0.22046    4.        
 3.2       -4.9922     0.2789     2.        
 3.3       -4.9395     0.77549    4.        
 3.4       -4.8375     1.2643     4.        
 3.5       -4.6872     1.7406     4.        
 3.6       -4.4902     2.1994     4.        
 3.7       -4.2485     2.6364     4.        
 3.8       -3.9643     3.047      4.        
 3.9       -3.6406     3.4273     4.        
 4.        -3.2805     3.7733     4.        
 4.1       -2.8878     4.0817     4.        
 4.2       -2.4662     4.3494     4.        
 4.3       -2.0201     4.5737     4.        
 4.4       -1.5538     4.7524     4.        
 4.5       -1.072      4.8837     4.        
 4.6       -0.57945    4.9663     4.        
 4.7       -0.081172   4.9993     4.        
 4.8        0.41792    4.9825     4.        
 4.9        0.91284    4.916      4.        
 5.         1.3987     4.8004     4.        
 5.1        1.8705     4.6369     4.        
 5.2        2.3237     4.4272     4.        
 5.3        2.7538     4.1733     4.        
 5.4        3.1563     3.8778     4.        
 5.5        3.5274     3.5436     4.        
 5.6        3.8633     3.1741     4.        
 5.7        4.1606     2.7729     4.        
 5.8        4.4165     2.3441     4.        
 5.9        4.6283     1.8918     4.        
 6.         4.7939     1.4207     4.        
 6.1        4.9117     0.93543    4.        
 6.2        4.9805     0.44082    4.        
 6.3        4.9996    -0.058187   4.        
 6.4        4.9689    -0.55661    4.        
 6.5        4.8886    -1.0495     4.        
 6.6        4.7595    -1.5319     4.        
 6.7        4.583     -1.999      4.        
 6.8        4.3607    -2.4462     4.        
 6.9        4.095     -2.869      4.        
 7.         3.7884    -3.2632     4.        
 7.1        3.444     -3.6248     4.        
 7.2        3.0652    -3.9502     4.        
 7.3        2.6559    -4.2363     4.        
 7.4        2.2201    -4.4801     4.        
 7.5        1.7621    -4.6792     4.        
 7.6        1.2866    -4.8316     4.        
 7.7        0.79819   -4.9359     4.        
 7.8        0.30185   -4.9909     4.        
 7.9       -0.1975    -4.9961     4.        
 8.        -0.69487   -4.9515     4.        
 8.1       -1.1853    -4.8574     4.        
 8.2       -1.6639    -4.715      4.        
 8.3       -2.126     -4.5255     4.        
 8.4       -2.5668    -4.2908     4.        
 8.5       -2.982     -4.0134     4.        
 8.6       -3.3675    -3.6959     4.        
 8.7       -3.7193    -3.3416     4.        
 8.8       -4.0341    -2.9539     4.        
 8.9       -4.3086    -2.5368     4.        
 9.        -4.5402    -2.0943     4.        
 9.1       -4.7265    -1.631      4.        
 9.2       -4.8656    -1.1514     4.        
 9.3       -4.9562    -0.66032    4.        
 9.4       -4.9973    -0.16264    4.        
 9.5       -4.9886     0.33666    4.        
 9.6       -4.9302     0.83259    4.        
 9.7       -4.8225     1.3202     4.        
 9.8       -4.6668     1.7947     4.        
 9.9       -4.4645     2.2513     4.        
 10.       -4.2176     2.6854     4.        
 10.1      -3.9287     3.0927     4.        
 10.2      -3.6007     3.4691     4.        
 10.3      -3.2366     3.811      4.        
 10.4      -2.8404     4.1149     4.        
 10.5      -2.4157     4.3777     4.        
 10.6      -1.967      4.5968     4.        
 10.7      -1.4987     4.7701     4.        
 10.8      -1.0154     4.8958     4.        
 10.9      -0.52194    4.9726     4.        
 11.       -0.023313   4.9999     4.        
 11.1       0.47555    4.9773     4.        
 11.2       0.96966    4.905      4.        
 11.3       1.4541     4.7838     4.        
 11.4       1.924      4.6149     4.        
 11.5       2.3748     4.4        4.        
 11.6       2.8019     4.1412     4.        
 11.7       3.201      3.841      4.        
 11.8       3.5681     3.5026     4.        
 11.9       3.8997     3.1292     4.        
 12.        4.1924     2.7246     4.        
 12.1       4.4433     2.2928     4.        
 12.2       4.6498     1.8381     4.        
 12.3       4.81       1.3651     4.        
 12.4       4.9222     0.87853    4.        
 12.5       4.9853     0.38315    4.        
 12.6       4.9986    -0.11604    4.        
 12.7       4.9621    -0.61408    4.        
 12.8       4.8761    -1.106      4.        
 12.9       4.7415    -1.5869     4.        
 13.        4.5595    -2.0519     4.        
 13.1       4.3321    -2.4965     4.        
 13.2       4.0615    -2.9162     4.        
 13.3       3.7503    -3.3068     4.        
 13.4       3.4018    -3.6644     4.        
 13.5       3.0193    -3.9854     4.        
 13.6       2.6067    -4.2667     4.        
 13.7       2.1681    -4.5055     4.        
 13.8       1.7078    -4.6992     4.        
 13.9       1.2306    -4.8462     4.        
 14.        0.74101   -4.9447     4.        
 14.1       0.24407   -4.994      4.        
 14.2      -0.2553    -4.9934     4.        
 14.3      -0.75212   -4.9431     4.        
 14.4      -1.2414    -4.8434     4.        
 14.5      -1.7184    -4.6954     4.        
 14.6      -2.1782    -4.5006     4.        
 14.7      -2.6163    -4.2608     4.        
 14.8      -3.0282    -3.9786     4.        
 14.9      -3.41      -3.6567     4.        
 15.       -3.7577    -3.2983     4.        
 15.1      -4.068     -2.907      4.        
 15.2      -4.3377    -2.4867     4.        
 15.3      -4.5641    -2.0417     4.        
 15.4      -4.745     -1.5762     4.        
 15.5      -4.8786    -1.095      4.        
 15.6      -4.9635    -0.60292    4.        
 15.7      -4.9989    -0.1048     4.        
 15.8      -4.9844     0.39436    4.        
 15.9      -4.9202     0.88959    4.        
 16.       -4.8069     1.3759     4.        
 16.1      -4.6457     1.8486     4.        
 16.2      -4.4381     2.3028     4.        
 16.3      -4.1863     2.734      4.        
 16.4      -3.8927     3.1379     4.        
 16.5      -3.5603     3.5106     4.        
 16.6      -3.1923     3.8482     4.        
 16.7      -2.7925     4.1474     4.        
 16.8      -2.3649     4.4053     4.        
 16.9      -1.9137     4.6192     4.        
 17.       -1.4433     4.7871     4.        
 17.1      -0.95864    4.9072     4.        
 17.2      -0.46436    4.9783     4.        
 17.3       0.034549   4.9998     4.        
 17.4       0.53311    4.9714     4.        
 17.5       1.0264     4.8935     4.        
 17.6       1.5094     4.7667     4.        
 17.7       1.9773     4.5923     4.        
 17.8       2.4255     4.3722     4.        
 17.9       2.8496     4.1084     4.        
 18.        3.2452     3.8037     4.        
 18.1       3.6084     3.461      4.        
 18.2       3.9357     3.0838     4.        
 18.3       4.2236     2.6759     4.        
 18.4       4.4695     2.2412     4.        
 18.5       4.6708     1.7842     4.        
 18.6       4.8254     1.3094     4.        
 18.7       4.932      0.8215     4.        
 18.8       4.9893     0.32544    4.        
 18.9       4.9969    -0.17388    4.        
 19.        4.9547    -0.67146    4.        
 19.1       4.863     -1.1623     4.        
 19.2       4.7228    -1.6416     4.        
 19.3       4.5355    -2.1045     4.        
 19.4       4.3029    -2.5465     4.        
 19.5       4.0274    -2.963      4.        
 19.6       3.7118    -3.3499     4.        
 19.7       3.3591    -3.7035     4.        
 19.8       2.9729    -4.0201     4.        
 19.9       2.5571    -4.2966     4.        
 20.        2.1158    -4.5302     4.        
 20.1       1.6533    -4.7187     4.        
 20.2       1.1744    -4.8601     4.        
 20.3       0.68374   -4.953      4.        
 20.4       0.18627   -4.9965     4.        
 20.5      -0.31306   -4.9901     4.        
 20.6      -0.80927   -4.934      4.        
 20.7      -1.2974    -4.8287     4.        
 20.8      -1.7726    -4.6752     4.        
 20.9      -2.2301    -4.475      4.        
 21.       -2.6654    -4.2303     4.        
 21.1      -3.0741    -3.9433     4.        
 21.2      -3.4521    -3.617      4.        
 21.3      -3.7956    -3.2546     4.        
 21.4      -4.1014    -2.8597     4.        
 21.5      -4.3662    -2.4364     4.        
 21.6      -4.5874    -1.9887     4.        
 21.7      -4.7629    -1.5212     4.        
 21.8      -4.8909    -1.0385     4.        
 21.9      -4.9701    -0.54544    4.        
 22.       -4.9997    -0.046945   4.        
 22.1      -4.9795     0.45201    4.        
 22.2      -4.9095     0.94646    4.        
 22.3      -4.7906     1.4315     4.        
 22.4      -4.624      1.9022     4.        
 22.5      -4.4111     2.354      4.        
 22.6      -4.1543     2.7822     4.        
 22.7      -3.8561     3.1828     4.        
 22.8      -3.5194     3.5515     4.        
 22.9      -3.1476     3.8849     4.        
 23.       -2.7443     4.1795     4.        
 23.1      -2.3137     4.4324     4.        
 23.2      -1.8601     4.6411     4.        
 23.3      -1.3878     4.8035     4.        
 23.4      -0.90178    4.9179     4.        
 23.5      -0.40672    4.9834     4.        
 23.6       0.092406   4.9991     4.        
 23.7       0.59061    4.9649     4.        
 23.8       1.0829     4.8812     4.        
 23.9       1.5644     4.7489     4.        
 24.        2.0303     4.5691     4.        
 24.1       2.476      4.3438     4.        
 24.2       2.8969     4.0752     4.        
 24.3       3.289      3.7659     4.        
 24.4       3.6482     3.419      4.        
 24.5       3.9711     3.0381     4.        
 24.6       4.2543     2.6268     4.        
 24.7       4.4951     2.1893     4.        
 24.8       4.6911     1.73       4.        
 24.9       4.8403     1.2534     4.        
 25.        4.9411     0.76437    4.        
 25.1       4.9928     0.26767    4.        
 25.2       4.9946    -0.23169    2.        
 25.3       4.9465    -0.72874    4.        
 25.4       4.8492    -1.2185     4.        
 25.5       4.7034    -1.6962     4.        
 25.6       4.5108    -2.1569     4.        
 25.7       4.2731    -2.5961     4.        
 25.8       3.9929    -3.0094     4.        
 25.9       3.6728    -3.3926     4.        
 26.        3.316     -3.7421     4.        
 26.1       2.9262    -4.0542     4.        
 26.2       2.5072    -4.3259     4.        
 26.3       2.0632    -4.5544     4.        
 26.4       1.5986    -4.7375     4.        
 26.5       1.1181    -4.8733     4.        
 26.6       0.62637   -4.9605     4.        
 26.7       0.12843   -4.9983     4.        
 26.8      -0.37079   -4.9861     4.        
 26.9      -0.86631   -4.9243     4.        
 27.       -1.3532    -4.8133     4.        
 27.1      -1.8266    -4.6543     4.        
 27.2      -2.2817    -4.4489     4.        
 27.3      -2.7141    -4.1991     4.        
 27.4      -3.1195    -3.9074     4.        
 27.5      -3.4937    -3.5768     4.        
 27.6      -3.833     -3.2104     4.        
 27.7      -4.1342    -2.8121     4.        
 27.8      -4.3941    -2.3857     4.        
 27.9      -4.6101    -1.9355     4.        
 28.       -4.7802    -1.4659     4.        
 28.1      -4.9026    -0.98181    4.        
 28.2      -4.9761    -0.48788    4.        
 28.3      -4.9999     0.010916   4.        
 28.4      -4.9739     0.5096     4.        
 28.5      -4.8982     1.0032     4.        
 28.6      -4.7737     1.4868     4.        
 28.7      -4.6016     1.9556     4.        
 28.8      -4.3836     2.4048     4.        
 28.9      -4.1218     2.8301     4.        
 29.       -3.819      3.2271     4.        
 29.1      -3.478      3.592      4.        
 29.2      -3.1024     3.921      4.        
 29.3      -2.6958     4.2109     4.        
 29.4      -2.2623     4.4588     4.        
 29.5      -1.8062     4.6623     4.        
 29.6      -1.3322     4.8192     4.        
 29.7      -0.8448     4.928      4.        
 29.8      -0.34902    4.9877     4.        
 29.9       0.15025    4.9976     4.        
 30.        0.64802    4.9577     4.        
 30.1       1.1393     4.8684     4.        
 30.2       1.6193     4.7304     4.        
 30.3       2.0831     4.5453     4.        
 30.4       2.5261     4.3149     4.        
 30.5       2.9439     4.0414     4.        
 30.6       3.3323     3.7276     4.        
 30.7       3.6875     3.3766     4.        
 30.8       4.0059     2.9919     4.        
 30.9       4.2844     2.5774     4.        
 31.        4.5201     2.1371     4.        
 31.1       4.7108     1.6756     4.        
 31.2       4.8544     1.1973     4.        
 31.3       4.9496     0.70714    4.        
 31.4       4.9955     0.20988    4.        
 31.5       4.9915    -0.28947    2.        
 31.6       4.9377    -0.78594    4.        
 31.7       4.8347    -1.2746     4.        
 31.8       4.6835    -1.7505     4.        
 31.9       4.4855    -2.2089     4.        
 32.        4.2428    -2.6453     4.        
 32.1       3.9578    -3.0554     4.        
 32.2       3.6332    -3.4349     4.        
 32.3       3.2725    -3.7802     4.        
 32.4       2.8791    -4.0878     4.        
 32.5       2.457     -4.3546     4.        
 32.6       2.0103    -4.5779     4.        
 32.7       1.5437    -4.7556     4.        
 32.8       1.0616    -4.8859     4.        
 32.9       0.56892   -4.9674     4.        
 33.        0.070581  -4.9994     4.        
 33.1      -0.42846   -4.9815     4.        
 33.2      -0.92324   -4.9139     4.        
 33.3      -1.4088    -4.7973     4.        
 33.4      -1.8803    -4.6329     4.        
 33.5      -2.3331    -4.4222     4.        
 33.6      -2.7625    -4.1674     4.        
 33.7      -3.1645    -3.8711     4.        
 33.8      -3.5348    -3.5361     4.        
 33.9      -3.8699    -3.1659     4.        
 34.       -4.1664    -2.764      4.        
 34.1      -4.4213    -2.3347     4.        
 34.2      -4.6322    -1.882      4.        
 34.3      -4.7968    -1.4105     4.        
 34.4      -4.9136    -0.92501    4.        
 34.5      -4.9813    -0.43026    4.        
 34.6      -4.9994     0.068776   4.        
 34.7      -4.9676     0.56713    4.        
 34.8      -4.8863     1.0598     4.        
 34.9      -4.7562     1.5419     4.        
 35.       -4.5787     2.0087     4.        
 35.1      -4.3555     2.4554     4.        
 35.2      -4.0888     2.8776     4.        
 35.3      -3.7814     3.2711     4.        
 35.4      -3.4362     3.632      4.        
 35.5      -3.0568     3.9566     4.        
 35.6      -2.6469     4.2418     4.        
 35.7      -2.2105     4.4847     4.        
 35.8      -1.7522     4.6828     4.        
 35.9      -1.2763     4.8342     4.        
 36.       -0.78772    4.9374     4.        
 36.1      -0.29127    4.9914     4.        
 36.2       0.20807    4.9956     4.        
 36.3       0.70535    4.9499     4.        
 36.4       1.1956     4.8548     4.        
 36.5       1.6739     4.7114     4.        
 36.6       2.1355     4.5209     4.        
 36.7       2.5758     4.2853     4.        
 36.8       2.9904     4.007      4.        
 36.9       3.3752     3.6887     4.        
 37.        3.7263     3.3337     4.        
 37.1       4.0403     2.9453     4.        
 37.2       4.3139     2.5276     4.        
 37.3       4.5445     2.0847     4.        
 37.4       4.7298     1.621      4.        
 37.5       4.8679     1.1411     4.        
 37.6       4.9575     0.64981    4.        
 37.7       4.9976     0.15205    4.        
 37.8       4.9878    -0.34721    4.        
 37.9       4.9283    -0.84302    4.        
 38.        4.8196    -1.3304     4.        
 38.1       4.6629    -1.8045     4.        
 38.2       4.4596    -2.2607     4.        
 38.3       4.2119    -2.6942     4.        
 38.4       3.9221    -3.1009     4.        
 38.5       3.5932    -3.4767     4.        
 38.6       3.2285    -3.8178     4.        
 38.7       2.8316    -4.1208     4.        
 38.8       2.4064    -4.3827     4.        
 38.9       1.9572    -4.6009     4.        
 39.        1.4885    -4.7732     4.        
 39.1       1.005     -4.8978     4.        
 39.2       0.5114    -4.9737     4.        
 39.3       0.012722  -4.9999     4.        
 39.4      -0.48608   -4.9762     4.        
 39.5      -0.98003   -4.9029     4.        
 39.6      -1.4642    -4.7807     4.        
 39.7      -1.9338    -4.6108     4.        
 39.8      -2.3841    -4.3949     4.        
 39.9      -2.8106    -4.1351     4.        
 40.       -3.209     -3.8342     4.        
 40.1      -3.5755    -3.4949     4.        
 40.2      -3.9063    -3.1209     4.        
 40.3      -4.1981    -2.7156     4.        
 40.4      -4.4481    -2.2833     4.        
 40.5      -4.6536    -1.8282     4.        
 40.6      -4.8128    -1.3549     4.        
 40.7      -4.9239    -0.86808    4.        
 40.8      -4.986     -0.37259    4.        
 40.9      -4.9983     0.12663    4.        
 41.       -4.9607     0.62457    4.        
 41.1      -4.8737     1.1163     4.        
 41.2      -4.738      1.5969     4.        
 41.3      -4.5551     2.0615     4.        
 41.4      -4.3267     2.5056     4.        
 41.5      -4.0552     2.9247     4.        
 41.6      -3.7432     3.3146     4.        
 41.7      -3.3939     3.6715     4.        
 41.8      -3.0108     3.9917     4.        
 41.9      -2.5976     4.2722     4.        
 42.       -2.1585     4.51       4.        
 42.1      -1.6978     4.7028     4.        
 42.2      -1.2203     4.8487     4.        
 42.3      -0.73052    4.9462     4.        
 42.4      -0.23349    4.9944     4.        
 42.5       0.26587    4.9928     4.        
 42.6       0.76258    4.9414     4.        
 42.7       1.2517     4.8407     4.        
 42.8       1.7283     4.6917     4.        
 42.9       2.1877     4.4959     4.        
