'trunc error check 
V1 ( 1 0 ) pwl( 0., 0.  1.n, 1. )  AC  1.
L3 ( 1 2 )  0.1
R4 ( 2 0 )  1.
R5 ( 1 3 )  1.
C6 ( 3 0 )  0.1
#Time       iter(0)    v(1)       v(2)       v(3)       z(C6)      zraw(C6)   z(3)       control(0) timef(C6)  timef(L3)  dt(C6)     dtr(C6)   
 0.         3.         0.         0.         0.         1.         1.         1.         1.         Inf        Inf        ??         Inf       
 1.n        4.         1.         0.         10.n       1.         10.n       10.n       7.         420.p      420.p      1.n        420.p     
 420.p      4.         0.42       1.764n     1.764n     1.         4.2n       4.2n       16.        176.4p     176.4p     420.p      176.4p    
 180.p      4.         0.18       324.p      324.p      1.         1.8n       1.8n       16.        75.6p      75.6p      180.p      75.6p     
 80.p       4.         0.08       64.p       64.p       1.         800.p      800.p      16.        33.6p      33.6p      80.p       33.6p     
 30.p       3.         0.03       9.p        9.p        1.         300.p      300.p      16.        14.p       14.p       30.p       14.p      
 40.p       3.         0.04       12.667p    12.667p    1.         66.667p    66.667p    6.         79.95p     79.95p     10.p       39.95p    
 80.p       4.         0.08       38.889p    38.889p    1.         266.67p    266.67p    6.         117.6p     117.6p     40.p       37.596p   
 120.p      4.         0.12       79.63p     79.63p     1.         266.67p    266.67p    6.         180.71p    180.71p    40.p       60.71p    
 160.p      4.         0.16       135.88p    135.88p    1.         266.67p    266.67p    6.         236.74p    236.74p    40.p       76.737p   
 240.p      4.         0.24       301.37p    301.37p    1.         533.33p    533.33p    6.         347.06p    347.06p    80.p       107.06p   
 320.p      4.         0.32       527.21p    527.21p    1.         533.33p    533.33p    6.         473.26p    473.26p    80.p       153.26p   
 470.p      4.         0.47       1.1384n    1.1384n    1.         1.n        1.n        6.         679.61p    679.61p    150.p      209.61p   
 620.p      4.         0.62       1.9621n    1.9621n    1.         1.n        1.n        6.         915.34p    915.34p    150.p      295.34p   
 920.p      4.         0.92       4.3512n    4.3512n    1.         2.n        2.n        6.         1.3278n    1.3278n    300.p      407.82p   
 1.n        4.         1.         5.0969n    5.0969n    1.         533.33p    533.33p    7.         1.5474n    1.5474n    80.p       547.38p   
 1.55n      4.         1.         10.472n    10.472n    1.         3.6667n    3.6667n    6.         3.2999n    3.2999n    550.p      1.7499n   
 3.3n       4.         1.         27.841n    27.841n    1.         11.667n    11.667n    6.         12.742n    12.742n    1.75n      9.4421n   
 12.74n     4.         1.         122.n      122.n      1.         62.933n    62.933n    6.         88.255n    88.255n    9.44n      75.515n   
 88.25n     4.         1.         876.47n    876.47n    1.         503.4n     503.4n     6.         1.0543u    1.0543u    75.51n     966.07n   
 1.0542u    4.         1.         10.534u    10.534u    1.         6.4399u    6.4399u    6.         21.484u    21.484u    965.99n    20.429u   
 21.46u     4.         1.         214.55u    214.55u    1.         136.02u    136.02u    6.         0.0014379  0.0014379  20.406u    0.0014164 
 0.0012688  4.         1.         0.012582   0.012582   1.         0.0082469  0.0082469  6.         0.0076488  0.0076488  0.0012473  0.00638   
 0.0056344  4.         1.         0.054528   0.054528   1.         0.028281   0.028281   6.         0.020102   0.020102   0.0043656  0.014468  
 0.01       4.         1.         0.094853   0.094853   1.         0.028281   0.028281   1.         0.031646   0.031646   0.0043656  0.021646  
 0.02       4.         1.         0.18029    0.18029    1.         0.0625     0.0625     1.         0.048009   0.048009   0.01       0.028009  
 0.03       4.         1.         0.25822    0.25822    1.         0.0625     0.0625     1.         0.068011   0.068011   0.01       0.038011  
 0.04       4.         1.         0.32894    0.32894    1.         0.0625     0.0625     1.         0.083754   0.083754   0.01       0.043754  
 0.05       4.         1.         0.39298    0.39298    1.         0.0625     0.0625     1.         0.099727   0.099727   0.01       0.049727  
 0.06       4.         1.         0.45093    0.45093    1.         0.0625     0.0625     1.         0.11577    0.11577    0.01       0.055773  
 0.07       4.         1.         0.50335    0.50335    1.         0.0625     0.0625     1.         0.13186    0.13186    0.01       0.06186   
 0.08       4.         1.         0.55078    0.55078    1.         0.0625     0.0625     1.         0.148      0.148      0.01       0.067998  
 0.09       4.         1.         0.59367    0.59367    1.         0.0625     0.0625     1.         0.16421    0.16421    0.01       0.074212  
 0.1        4.         1.         0.63247    0.63247    1.         0.0625     0.0625     1.         0.18053    0.18053    0.01       0.080533  
V1 ( 1 0 ) pwl( 0., 0.  1.n, 1. )  AC  1.
L3 ( 1 2 )  0.1
R4 ( 2 0 )  1.
R5 ( 1 3 )  1.
C6 ( 3 0 )  0.1
* exact=0.632120559 
Gnucap   System status
iterations: op=0, dc=0, tran=133, fourier=0, total=167
transient timesteps: accepted=30, rejected=4, total=34
nodes: user=3, subckt=0, model=0, total=3
dctran density=77.8%, ac density=77.8%
